! Created with skrf 1.8.0 (http://scikit-rf.org).
# Hz S RI R 50.0 
!freq ReS11 ImS11 ReS21 ImS21 ReS12 ImS12 ReS22 ImS22
300000000.0 0.0 0.0 1.0521355741634122 -0.10169863927282971 0.0 0.0 0.0 0.0
303000000.0 0.0 0.0 0.988842814734864 -0.08037125349519443 0.0 0.0 0.0 0.0
306000000.0 0.0 0.0 0.9878099511446763 -0.08171445995312697 0.0 0.0 0.0 0.0
309000000.0 0.0 0.0 0.9900002899083242 -0.08226476397011366 0.0 0.0 0.0 0.0
312000000.0 0.0 0.0 0.9960394617212831 -0.09066305101787821 0.0 0.0 0.0 0.0
315000000.0 0.0 0.0 0.9965882439273069 -0.08217723558352567 0.0 0.0 0.0 0.0
318000000.0 0.0 0.0 0.9934877451764719 -0.0873521419639207 0.0 0.0 0.0 0.0
321000000.0 0.0 0.0 0.9892332242530272 -0.08523604452682684 0.0 0.0 0.0 0.0
324000000.0 0.0 0.0 0.9897044555432849 -0.08622476039204612 0.0 0.0 0.0 0.0
327000000.0 0.0 0.0 0.9916830374617164 -0.08645201754326529 0.0 0.0 0.0 0.0
330000000.0 0.0 0.0 0.9956674015427929 -0.08737139906235047 0.0 0.0 0.0 0.0
333000000.0 0.0 0.0 0.9927878569056213 -0.09137378668030581 0.0 0.0 0.0 0.0
336000000.0 0.0 0.0 0.9880462836528666 -0.08883191453256208 0.0 0.0 0.0 0.0
339000000.0 0.0 0.0 0.9879687855991331 -0.0900843245749998 0.0 0.0 0.0 0.0
342000000.0 0.0 0.0 0.9899346133494399 -0.08960171369448848 0.0 0.0 0.0 0.0
345000000.0 0.0 0.0 0.994797605402186 -0.09333542964330512 0.0 0.0 0.0 0.0
348000000.0 0.0 0.0 0.9904367354334015 -0.09384753866860177 0.0 0.0 0.0 0.0
351000000.0 0.0 0.0 0.9688919166145318 -0.09973975451851198 0.0 0.0 0.0 0.0
354000000.0 0.0 0.0 0.9880179719033392 -0.09432550059157638 0.0 0.0 0.0 0.0
357000000.0 0.0 0.0 0.9899455106510741 -0.095377500112488 0.0 0.0 0.0 0.0
360000000.0 0.0 0.0 0.9939713270376446 -0.09744468775448452 0.0 0.0 0.0 0.0
363000000.0 0.0 0.0 0.9910167940348755 -0.09810121389404493 0.0 0.0 0.0 0.0
366000000.0 0.0 0.0 0.9876639247901444 -0.09888685739096847 0.0 0.0 0.0 0.0
369000000.0 0.0 0.0 0.98790463649576 -0.09974427679048724 0.0 0.0 0.0 0.0
372000000.0 0.0 0.0 0.9899481511288927 -0.0997788042461839 0.0 0.0 0.0 0.0
375000000.0 0.0 0.0 0.9947370500006157 -0.10160332083565447 0.0 0.0 0.0 0.0
378000000.0 0.0 0.0 0.9894827711855619 -0.10205308377446153 0.0 0.0 0.0 0.0
381000000.0 0.0 0.0 0.987445794056072 -0.10267072636937692 0.0 0.0 0.0 0.0
384000000.0 0.0 0.0 0.9874242977377785 -0.10364853406635924 0.0 0.0 0.0 0.0
387000000.0 0.0 0.0 0.9890731208954866 -0.10422478594733739 0.0 0.0 0.0 0.0
390000000.0 0.0 0.0 0.9660380287885431 -0.12332696540214307 0.0 0.0 0.0 0.0
393000000.0 0.0 0.0 0.9891430634950145 -0.10581778082451757 0.0 0.0 0.0 0.0
396000000.0 0.0 0.0 0.986378232812538 -0.10682340615552152 0.0 0.0 0.0 0.0
399000000.0 0.0 0.0 0.9875381399390231 -0.10692108600582689 0.0 0.0 0.0 0.0
402000000.0 0.0 0.0 0.9874414020924414 -0.10827432320158106 0.0 0.0 0.0 0.0
405000000.0 0.0 0.0 0.9921741020536767 -0.11126352662440056 0.0 0.0 0.0 0.0
408000000.0 0.0 0.0 0.9887810769131641 -0.11056601416994206 0.0 0.0 0.0 0.0
411000000.0 0.0 0.0 0.985316948563627 -0.10999773740445955 0.0 0.0 0.0 0.0
414000000.0 0.0 0.0 0.9861509778058387 -0.10898905176398198 0.0 0.0 0.0 0.0
417000000.0 0.0 0.0 0.9876440498631268 -0.11092608242902892 0.0 0.0 0.0 0.0
420000000.0 0.0 0.0 0.9913811493880408 -0.11498697489618846 0.0 0.0 0.0 0.0
423000000.0 0.0 0.0 0.9861520892721171 -0.11102957035882777 0.0 0.0 0.0 0.0
426000000.0 0.0 0.0 0.9867408749468698 -0.11165178131903487 0.0 0.0 0.0 0.0
429000000.0 0.0 0.0 0.9919516901443625 -0.09273318913905779 0.0 0.0 0.0 0.0
432000000.0 0.0 0.0 0.9875077310582105 -0.11376819602193548 0.0 0.0 0.0 0.0
435000000.0 0.0 0.0 0.9929393051243633 -0.11721750151392406 0.0 0.0 0.0 0.0
438000000.0 0.0 0.0 0.9867309797749902 -0.11764518574469718 0.0 0.0 0.0 0.0
441000000.0 0.0 0.0 0.9836882357642892 -0.11480190482956046 0.0 0.0 0.0 0.0
444000000.0 0.0 0.0 0.9829711648803552 -0.11649126384362782 0.0 0.0 0.0 0.0
447000000.0 0.0 0.0 0.9866009329763497 -0.11858877690063978 0.0 0.0 0.0 0.0
450000000.0 0.0 0.0 0.9891133193336079 -0.11963644182058014 0.0 0.0 0.0 0.0
453000000.0 0.0 0.0 0.9842716260774704 -0.1219983037974588 0.0 0.0 0.0 0.0
456000000.0 0.0 0.0 0.9843509021888769 -0.12216195240114232 0.0 0.0 0.0 0.0
459000000.0 0.0 0.0 0.9882122154876477 -0.11820533930544305 0.0 0.0 0.0 0.0
462000000.0 0.0 0.0 0.985919616935137 -0.12498403219910939 0.0 0.0 0.0 0.0
465000000.0 0.0 0.0 0.9895725215590122 -0.12270791901126495 0.0 0.0 0.0 0.0
468000000.0 0.0 0.0 0.9955007279275382 -0.1145703731979706 0.0 0.0 0.0 0.0
471000000.0 0.0 0.0 0.9833423337044404 -0.12343873507210823 0.0 0.0 0.0 0.0
474000000.0 0.0 0.0 0.9826977730469071 -0.12216744827317205 0.0 0.0 0.0 0.0
477000000.0 0.0 0.0 0.9862478497878665 -0.12512488623610396 0.0 0.0 0.0 0.0
480000000.0 0.0 0.0 0.9891858840663572 -0.12769426045447888 0.0 0.0 0.0 0.0
483000000.0 0.0 0.0 0.9833692008311278 -0.12554512797084968 0.0 0.0 0.0 0.0
486000000.0 0.0 0.0 0.981026633385571 -0.12762484670158342 0.0 0.0 0.0 0.0
489000000.0 0.0 0.0 0.9801834594349578 -0.12757673739065195 0.0 0.0 0.0 0.0
492000000.0 0.0 0.0 0.9857278955909098 -0.1289793690795104 0.0 0.0 0.0 0.0
495000000.0 0.0 0.0 0.9895783791706048 -0.12833329800541093 0.0 0.0 0.0 0.0
498000000.0 0.0 0.0 0.9838983535213688 -0.13163447286172522 0.0 0.0 0.0 0.0
501000000.0 0.0 0.0 0.981727007417658 -0.1305574961051447 0.0 0.0 0.0 0.0
504000000.0 0.0 0.0 0.9786614540038192 -0.13020484935219787 0.0 0.0 0.0 0.0
507000000.0 0.0 0.0 0.9828142836455804 -0.13418483158662917 0.0 0.0 0.0 0.0
510000000.0 0.0 0.0 0.9858964477596664 -0.13610870718901236 0.0 0.0 0.0 0.0
513000000.0 0.0 0.0 0.9822083305741425 -0.1341911594225197 0.0 0.0 0.0 0.0
516000000.0 0.0 0.0 0.9810336278237982 -0.13474333014589876 0.0 0.0 0.0 0.0
519000000.0 0.0 0.0 0.978507790554074 -0.13376320591124674 0.0 0.0 0.0 0.0
522000000.0 0.0 0.0 0.9822036375790852 -0.1338409148678275 0.0 0.0 0.0 0.0
525000000.0 0.0 0.0 0.9887012052228773 -0.13549286010289815 0.0 0.0 0.0 0.0
528000000.0 0.0 0.0 0.9825861355237315 -0.13672007481948678 0.0 0.0 0.0 0.0
531000000.0 0.0 0.0 0.9797403102476946 -0.1370378803556008 0.0 0.0 0.0 0.0
534000000.0 0.0 0.0 0.9804126208507405 -0.1355595043796849 0.0 0.0 0.0 0.0
537000000.0 0.0 0.0 0.9830012434349672 -0.13873085328187656 0.0 0.0 0.0 0.0
540000000.0 0.0 0.0 0.9876801486153131 -0.13842799309839604 0.0 0.0 0.0 0.0
543000000.0 0.0 0.0 0.9820709082748521 -0.1395016469514049 0.0 0.0 0.0 0.0
546000000.0 0.0 0.0 0.9785703194685598 -0.14230571257517363 0.0 0.0 0.0 0.0
549000000.0 0.0 0.0 0.9789279987891387 -0.1393766592133537 0.0 0.0 0.0 0.0
552000000.0 0.0 0.0 0.9806259310279722 -0.1416284307001772 0.0 0.0 0.0 0.0
555000000.0 0.0 0.0 0.9862196414699519 -0.14306360266576867 0.0 0.0 0.0 0.0
558000000.0 0.0 0.0 0.9813040920105036 -0.1419093378361291 0.0 0.0 0.0 0.0
561000000.0 0.0 0.0 0.9798162760145741 -0.14315567306734991 0.0 0.0 0.0 0.0
564000000.0 0.0 0.0 0.9785438008972799 -0.14368885506817486 0.0 0.0 0.0 0.0
567000000.0 0.0 0.0 0.9825462085645615 -0.14512289379538343 0.0 0.0 0.0 0.0
570000000.0 0.0 0.0 0.9882947211032448 -0.14672394333361033 0.0 0.0 0.0 0.0
573000000.0 0.0 0.0 0.9827829423234162 -0.1467914092027288 0.0 0.0 0.0 0.0
576000000.0 0.0 0.0 0.9796192052280123 -0.14856939084583118 0.0 0.0 0.0 0.0
579000000.0 0.0 0.0 0.97985601043459 -0.1476704047571609 0.0 0.0 0.0 0.0
582000000.0 0.0 0.0 0.9822750767540216 -0.14864553179323567 0.0 0.0 0.0 0.0
585000000.0 0.0 0.0 0.9940536618945388 -0.15242713725552304 0.0 0.0 0.0 0.0
588000000.0 0.0 0.0 0.994127229984878 -0.15255419868746412 0.0 0.0 0.0 0.0
591000000.0 0.0 0.0 1.016627012659132 -0.15350417501545074 0.0 0.0 0.0 0.0
594000000.0 0.0 0.0 1.0045978041993828 -0.15488574608253702 0.0 0.0 0.0 0.0
597000000.0 0.0 0.0 0.9925421250505364 -0.1568925042519597 0.0 0.0 0.0 0.0
600000000.0 0.0 0.0 0.986997230220914 -0.15378146818856867 0.0 0.0 0.0 0.0
