! Created with skrf 1.8.0 (http://scikit-rf.org).
# Hz S RI R 50.0 
!freq ReS11 ImS11
50000.0 0.666220224 -0.011082482
15049500.0 0.664418816 -0.041535108
30049000.0 0.661444992 -0.06675572
45048500.0 0.65799232 -0.091185392
60048000.0 0.653670592 -0.11560556
75047500.0 0.648121984 -0.138882704
90047000.0 0.641336 -0.16052816
105046500.0 0.63385568 -0.183894256
120046000.0 0.626072576 -0.2058596
135045500.0 0.617029696 -0.22757504
150045000.0 0.607484352 -0.24880272
165044500.0 0.597178496 -0.269251712
180044000.0 0.58569408 -0.289765536
195043500.0 0.573197632 -0.310068
210043000.0 0.560384192 -0.33011344
225042500.0 0.5467776 -0.349363008
240042000.0 0.532133888 -0.367907296
255041500.0 0.516304896 -0.386671392
270041000.0 0.499910464 -0.404850336
285040500.0 0.483140384 -0.420839136
300040000.0 0.470054912 -0.427442368
315039500.0 0.452783232 -0.442666016
330039000.0 0.43696736 -0.45632592
345038500.0 0.42030704 -0.46923376
360038000.0 0.402535744 -0.48055856
375037500.0 0.38482864 -0.492434304
390037000.0 0.370471936 -0.499556
405036500.0 0.350270208 -0.512291552
420036000.0 0.333759008 -0.520627264
435035500.0 0.31710144 -0.528276512
450035000.0 0.29642448 -0.534362912
465034500.0 0.281475648 -0.540958336
480034000.0 0.261648688 -0.545027392
495033500.0 0.244154688 -0.551226176
510033000.0 0.225930352 -0.554646784
525032500.0 0.20721432 -0.558085824
540032000.0 0.190120208 -0.560682176
555031500.0 0.172015312 -0.562000448
570031000.0 0.155969824 -0.564888832
585030500.0 0.13972768 -0.565590848
600030000.0 0.124897184 -0.574726528
615029500.0 0.106966768 -0.574180992
630029000.0 0.09115352 -0.574826432
645028500.0 0.07544584 -0.571594304
660028000.0 0.060380404 -0.57154464
675027500.0 0.045640936 -0.57112384
690027000.0 0.029317818 -0.570879232
705026500.0 0.016357804 -0.568164736
720026000.0 0.000355371 -0.566920192
735025500.0 -0.010947488 -0.56294016
750025000.0 -0.021257558 -0.562961088
765024500.0 -0.03577286 -0.560291392
780024000.0 -0.046960136 -0.548166016
795023500.0 -0.05982284 -0.55643488
810023000.0 -0.070807112 -0.551805056
825022500.0 -0.08263056 -0.550585216
840022000.0 -0.095022208 -0.546990656
855021500.0 -0.1049226 -0.547680128
870021000.0 -0.113627664 -0.545613888
885020500.0 -0.125244184 -0.54682976
900020000.0 -0.12724796 -0.546465792
915019500.0 -0.133704288 -0.5448624
930019000.0 -0.144130848 -0.547042496
945018500.0 -0.154587264 -0.545878592
960018000.0 -0.163250096 -0.548858624
975017500.0 -0.17203024 -0.552113216
990017000.0 -0.187329968 -0.556115264
1005016500.0 -0.197499504 -0.561772416
1020016000.0 -0.206997552 -0.5675744
1035015500.0 -0.224511024 -0.56453088
1050015000.0 -0.252339248 -0.564416256
1065014500.0 -0.258639152 -0.573215552
1080014000.0 -0.267236912 -0.57877312
1095013500.0 -0.2911568 -0.58349504
1110013000.0 -0.309756704 -0.596654208
1125012500.0 -0.316987328 -0.581413376
1140012000.0 -0.348962592 -0.588201536
1155011500.0 -0.393266912 -0.56531232
1170011000.0 -0.417138976 -0.600175104
1185010500.0 -0.414904192 -0.59353792
1200010000.0 -0.442763424 -0.587820096
1215009500.0 -0.467911776 -0.590571648
1230009000.0 -0.505487904 -0.589913536
1245008500.0 -0.537598208 -0.590747968
1260008000.0 -0.565423168 -0.55810912
1275007500.0 -0.60575648 -0.556617536
1290007000.0 -0.639087424 -0.552330944
1305006500.0 -0.668872448 -0.521834496
1320006000.0 -0.69651872 -0.501134048
1335005500.0 -0.732075456 -0.482351456
1350005000.0 -0.762027712 -0.471560768
1365004500.0 -0.824241728 -0.468492864
1380004000.0 -0.8187824 -0.394643424
1395003500.0 -0.841552384 -0.355115712
1410003000.0 -0.8669328 -0.32064432
1425002500.0 -0.870358848 -0.282830816
1440002000.0 -0.908578048 -0.243256832
1455001500.0 -0.91460736 -0.185990048
1470001000.0 -0.904055616 -0.154872336
1485000500.0 -0.914399872 -0.109300288
1500000000.0 -0.916070528 -0.07412316
