! Created with skrf 1.8.0 (http://scikit-rf.org).
# Hz S RI R 50.0 
!freq ReS11 ImS11
50000.0 -0.4196727868099428 1.814217091686627
15049500.0 0.6345955912876783 -0.47660088994885597
30049000.0 -0.9004300940658936 -0.8965566313483336
45048500.0 0.07846388221889616 0.6430047984264007
60048000.0 -6.334790372066495 -1.8222120046672614
75047500.0 -0.6181685881753205 1.5489923997772141
90047000.0 2.7193375356448946 -1.9535041306850485
105046500.0 1.3450049593130995 -6.999742298007607
120046000.0 -1.9308463189721266 0.35791094722694766
135045500.0 0.6635308581058098 -0.0536400333071683
150045000.0 1.1343285461903374 -0.7222222193660384
165044500.0 2.813378992451727 0.19150828961745692
180044000.0 0.8660882426905235 0.5154059644416601
195043500.0 1.2493491094326135 0.3071225930975328
210043000.0 -1.196668004344711 -0.6145626802607882
225042500.0 -1.1750900254467815 0.7954743312371679
240042000.0 -1.4220459797601879 0.22469280455593618
255041500.0 -0.7902833364988653 -0.7648603555144352
270041000.0 2.373373924595991 -1.9568590069049925
285040500.0 8.636705316548237 5.864337259855282
300040000.0 -0.22676855503794494 -2.87482614769854
315039500.0 0.9206621104243523 0.14682762750099745
330039000.0 -1.196825530069093 0.4005557925672067
345038500.0 8.55024638020101 -20.623243102675417
360038000.0 0.9195306569138058 0.7234758837023891
375037500.0 -0.6486871400180961 -0.946226697426485
390037000.0 0.31348966494058067 -1.2624350790672236
405036500.0 0.11032514389308183 -1.510209748650525
420036000.0 -0.224185501701834 -0.5119164886948556
435035500.0 1.7079902421059905 -0.5368107354231323
450035000.0 -0.7066676245082897 -0.18276351878265587
465034500.0 -0.7735495926957279 -1.8715109182704768
480034000.0 0.3896273155991607 0.15981527158971273
495033500.0 -0.08414648740527689 1.3103293557849043
510033000.0 -2.1336074665144085 -0.41307524380873606
525032500.0 0.4791805196593096 -0.005693369572687895
540032000.0 -1.462024721754566 0.5924174553169875
555031500.0 2.5927470106341604 -2.481805090143964
570031000.0 0.01261875778766353 -0.043792461549666206
585030500.0 -0.04306600189981787 0.4517939694365274
600030000.0 1.9797176376082766 0.7601947287234249
615029500.0 0.6175710393080972 0.039623473078946286
630029000.0 -1.0669220289573655 -0.2208544587435355
645028500.0 -1.1855132554580698 -0.7524200826658483
660028000.0 -1.1055867889820283 -0.2672336349799008
675027500.0 -0.22086919088995033 0.01115225919512884
690027000.0 -0.9772256594289925 -0.31695338318957367
705026500.0 0.6556185900870007 -0.5146661723745316
720026000.0 0.5532551294600746 -1.5705648356091242
735025500.0 -9.979884385217028 -0.01756841423402096
750025000.0 1.5074783184488842 -1.4387297464978448
765024500.0 -2.4565134677337053 2.156107735514278
780024000.0 -0.5499331102784719 0.9647184750134533
795023500.0 -1.270966329050084 1.8118347254306022
810023000.0 0.21436333699484753 -0.7914606986113873
825022500.0 0.20985829878027576 0.8382926350281686
840022000.0 0.3135171553580072 -0.6776399901820599
855021500.0 1.1394422185189579 0.2502620704356877
870021000.0 0.21808037681454215 -0.43840184843323726
885020500.0 0.6204841778953488 1.4464793772386713
900020000.0 -0.6936836127492705 1.8050960031322296
915019500.0 -0.1348825944652591 -0.2711915409936194
930019000.0 -0.04262414356247816 0.047000626230722695
945018500.0 0.2567055405398973 1.8630578569729053
960018000.0 -0.006945555508758763 0.8871777976880996
975017500.0 1.1632825267426257 0.4795588982954969
990017000.0 -0.9655018673682161 0.3832620202583059
1005016500.0 2.9545314752382748 -2.203271347791905
1020016000.0 5.3296154999725305 4.65153745422478
1035015500.0 1.6456049535778656 1.7234167109042646
1050015000.0 1.4978786657958916 4.639618712977742
1065014500.0 -0.24266057626569112 0.28367767663264665
1080014000.0 0.7122999705144584 -1.3288992500082073
1095013500.0 2.1346280178927564 -1.505860899076341
1110013000.0 -2.1724744041857402 -9.107540577937547
1125012500.0 -2.1321161332153964 -0.7424654905164693
1140012000.0 -4.838064129570309 1.4907841831440751
1155011500.0 -0.17482315589198444 1.1391522533104341
1170011000.0 -0.10326396345514285 1.8732353130873445
1185010500.0 19.62145542733543 4.797880401475474
1200010000.0 0.1977192777299171 0.5518440961373169
1215009500.0 1.546319014414914 -3.5570843343368397
1230009000.0 2.2464193855195433 1.8944337212145959
1245008500.0 4.82743880079918 1.3554498068965437
1260008000.0 -2.6208096402554864 2.531872013573223
1275007500.0 0.5201639180367512 1.2716519674586622
1290007000.0 0.12600470116867102 3.6762321985299224
1305006500.0 1.0763682193577917 1.7891581642547103
1320006000.0 -1.8318207930072012 0.18192643427924157
1335005500.0 -1.3161943107343517 -0.6271489200089171
1350005000.0 2.152931071859617 -0.632526682148797
1365004500.0 0.8005021094491819 -0.4149935608848988
1380004000.0 -0.6562688568699448 0.11075926690088331
1395003500.0 1.3262882750529004 -0.8480993703280929
1410003000.0 0.6702610471866784 -4.5063865787576916
1425002500.0 -0.5939743748962131 1.0514202179211027
1440002000.0 -0.3941021091018183 -1.7854246389657855
1455001500.0 1.601849371458595 -1.5871143320895673
1470001000.0 0.9083885654633255 -0.49109418106254593
1485000500.0 -0.2772132117407314 -0.3962317062463162
1500000000.0 -0.5613872446005803 -0.8517314489145763
