! Created with skrf 1.8.0 (http://scikit-rf.org).
# Hz S RI R 50.0 
!freq ReS11 ImS11
50000.0 0.000920357891071611 0.0003098411175453229
15049500.0 -3.897620050203956e-05 -0.00010214341882889672
30049000.0 1.9244101739589078e-05 0.00020033121629397846
45048500.0 -0.00013103675282658353 -2.4541970086987378e-05
60048000.0 -0.0014491710235627596 -1.675093355842616e-05
75047500.0 -1.961602502992249e-05 0.0005046578556565862
90047000.0 0.000871566920870699 2.936891281748043e-05
105046500.0 -0.001130586556767726 0.001096593638269922
120046000.0 1.5210609867809884e-05 0.00015729303376340432
135045500.0 0.00022104911114735604 -6.328334573441096e-06
150045000.0 -1.833124863251904e-05 -0.00011535894822180552
165044500.0 0.0006585691530065613 0.00010892166308385105
180044000.0 -7.798773302248826e-05 0.00012506025118759947
195043500.0 -7.842794726749726e-05 0.0001233224702028242
210043000.0 -0.00012044482544754972 -2.679952050834929e-05
225042500.0 -2.8545028594271572e-05 0.00033666316255461507
240042000.0 -0.00010035458840099008 -3.6030172729807575e-05
255041500.0 0.00023306487144450212 -9.804225821769212e-05
270041000.0 -0.0006658220107893934 1.5166559431394247e-05
285040500.0 -0.003753637106990433 0.0011060565801704531
300040000.0 0.005356196841249591 0.0001972573137924458
315039500.0 -0.0001442454563102569 -0.00019222254323064455
330039000.0 -1.0329111093099152e-05 0.0007540243008557002
345038500.0 0.004954448678285488 -0.01939573811674433
360038000.0 -0.0003499276969233291 0.0011800704556917104
375037500.0 -0.0003129852141996091 0.00025058393992568044
390037000.0 0.011323495378037025 -0.007469395116448797
405036500.0 -0.0003125241544429225 0.0010130073318293422
420036000.0 -0.0002464160847774287 0.0007564564924995764
435035500.0 -5.688467204314212e-07 -0.0013058604700791469
450035000.0 -0.001051134817456113 0.0012672123805343824
465034500.0 -0.002946677623032142 -0.0030669739759447414
480034000.0 6.0892341977925306e-05 -0.000683438604351295
495033500.0 0.002297625983059808 -0.0005638139038494978
510033000.0 -0.0009160488190459906 -0.001159092675954064
525032500.0 1.8866800022314304e-05 -0.001050424682307574
540032000.0 -7.49652918607223e-05 -0.00119048376826591
555031500.0 0.00028284133125647585 0.007491385363904157
570031000.0 4.0432604397559705e-05 0.0006305281626724817
585030500.0 -0.0025381077603940654 -0.0009241166901535088
600030000.0 0.0032520425146575307 -0.0023525205664126207
615029500.0 -0.00010648074434108375 -0.0003375040046325694
630029000.0 -0.00038664180484739887 0.00026306642432400584
645028500.0 0.0024003837449351937 -0.0006315759786680867
660028000.0 0.0006555898880591728 0.0002558716132276375
675027500.0 0.00010425737507239875 -0.0006270272487825946
690027000.0 -0.0006448998724186054 0.0001298613379373944
705026500.0 0.0003719829357673844 -0.0010669551831761547
720026000.0 -0.00032929914966889156 0.0035794378306898827
735025500.0 -0.002955349527278115 -0.023525985107985488
750025000.0 0.0018350368497344934 -0.005351544986781976
765024500.0 -0.0003085332337279236 -0.0028903059061020247
780024000.0 -0.022356883287919887 0.0015100753403480315
795023500.0 0.0029561380019989653 -0.00044517145466918843
810023000.0 0.002418229265755506 -0.0030598970516326684
825022500.0 0.0010902879577823373 -0.0008121191465833372
840022000.0 0.002662851902062288 0.0020673091621002003
855021500.0 0.0006211626060186838 -0.00015149782713152468
870021000.0 0.0011383598378575462 -0.0018870158486166003
885020500.0 0.007766435037410961 0.005694038697756403
900020000.0 0.0045807660946555724 -0.009475940280177555
915019500.0 -0.0013652219685512123 0.0014729508395198308
930019000.0 -0.0021887583506956083 -0.0006911247952688938
945018500.0 -0.003983257057256237 9.572819513975371e-05
960018000.0 -0.0024612907222439596 0.0035237565621187446
975017500.0 -0.0013269717369843185 0.0027988712731614645
990017000.0 0.0011392236350560353 -0.00031863731823173825
1005016500.0 0.0034174213668649095 -0.010400983335886243
1020016000.0 0.019621273536982155 -0.014547506016407249
1035015500.0 -0.0072667829710545495 0.006607977216331616
1050015000.0 -0.10681900689089545 -0.04702376903067542
1065014500.0 -0.005489703591942809 -0.0034546773501184245
1080014000.0 0.005652169625036979 -0.012473544027388594
1095013500.0 -0.0059133593376129315 0.011644234796192457
1110013000.0 -0.048903130096113745 0.051348431505104986
1125012500.0 -0.007716833144339795 0.004497332853705522
1140012000.0 0.006114214487476134 -0.01879468607336878
1155011500.0 -0.03529241285347118 -0.027899440295813815
1170011000.0 0.04217200938559377 -0.027045511201416777
1185010500.0 0.16993996370082476 -0.13131625636651847
1200010000.0 -0.000669517665188051 0.009492683590330156
1215009500.0 -0.013043447091300286 -0.04217432213849971
1230009000.0 0.03226761286263203 -0.0076633990319719385
1245008500.0 0.029080490063982913 -0.0851431217053499
1260008000.0 -0.03898786380616444 -0.04291846186565298
1275007500.0 -0.006688869640314282 -0.008730836746021892
1290007000.0 0.04345609504629747 -0.00753687659918727
1305006500.0 0.00027475519884469376 0.02614472503416054
1320006000.0 0.003429343626515205 -0.010186059746655077
1335005500.0 -0.005519861842509662 -0.012511697688656865
1350005000.0 0.0019007166620912132 -0.02224594314679054
1365004500.0 -0.04316541414680723 0.014861801248132646
1380004000.0 0.004721800041407722 0.005992206124373522
1395003500.0 0.008580784816895495 0.005114629585543152
1410003000.0 -0.020886167523200494 0.015230575885151053
1425002500.0 0.030187155081170234 0.03967079180140316
1440002000.0 -0.009935897389186658 0.03565843742761223
1455001500.0 -0.0043646866617192475 0.056526418864592066
1470001000.0 0.004526347497450154 0.0016972649684814675
1485000500.0 -0.007996632963821365 0.00687751657056686
1500000000.0 0.014940565921223127 0.0340012376527683
