! Created with skrf 1.8.0 (http://scikit-rf.org).
# Hz S RI R 50.0 
!freq ReS11 ImS11
300000000.0 0.002872313 0.003169208
303000000.0 0.002901774 0.001462322
306000000.0 0.003290065 0.002328956
309000000.0 0.003488186 0.001932837
312000000.0 0.005193368 0.002543063
315000000.0 0.003920614 0.003352225
318000000.0 0.00507183 0.002731171
321000000.0 0.005110419 0.003130712
324000000.0 0.004890095 0.003650746
327000000.0 0.004053045 0.004171206
330000000.0 0.004855776 0.004967703
333000000.0 0.004807923 0.00428359
336000000.0 0.005153322 0.005268518
339000000.0 0.004955469 0.006129167
342000000.0 0.00497039 0.006312145
345000000.0 0.005238065 0.007115381
348000000.0 0.005703306 0.00714916
351000000.0 0.006811039 0.0068133
354000000.0 0.004791284 0.007350845
357000000.0 0.005350739 0.009190776
360000000.0 0.005992203 0.009232672
363000000.0 0.004499869 0.008750672
366000000.0 0.004886547 0.01044872
369000000.0 0.004276226 0.011030216
372000000.0 0.004112017 0.01081735
375000000.0 0.005042497 0.010927888
378000000.0 0.004642212 0.011822946
381000000.0 0.003562359 0.011244688
384000000.0 0.004130629 0.012358216
387000000.0 0.003661521 0.01286904
390000000.0 0.002353327 0.006127666
393000000.0 0.003135367 0.014437684
396000000.0 0.002652824 0.014149074
399000000.0 0.001788714 0.01540185
402000000.0 0.001974467 0.015154358
405000000.0 0.001799892 0.01566906
408000000.0 0.001654169 0.015639786
411000000.0 0.001155478 0.016383852
414000000.0 0.00063659 0.01612645
417000000.0 -3.0221e-05 0.017023354
420000000.0 -3.714e-05 0.017458572
423000000.0 -0.001316844 0.017525352
426000000.0 -0.001278246 0.0178296
429000000.0 -0.002750837 0.017669036
432000000.0 -0.00248079 0.018210392
435000000.0 -0.003661241 0.017991384
438000000.0 -0.003051107 0.018962102
441000000.0 -0.003987363 0.018892522
444000000.0 -0.00424984 0.019343696
447000000.0 -0.005057752 0.01963867
450000000.0 -0.006641792 0.019079856
453000000.0 -0.006527267 0.019532432
456000000.0 -0.006538752 0.020125524
459000000.0 -0.008284501 0.019422094
462000000.0 -0.009046798 0.02088009
465000000.0 -0.009184246 0.02035558
468000000.0 -0.009008974 0.020512994
471000000.0 -0.009693018 0.020270176
474000000.0 -0.011252614 0.019940318
477000000.0 -0.012012064 0.020129718
480000000.0 -0.01236288 0.019890596
483000000.0 -0.012575296 0.019628562
486000000.0 -0.014019408 0.019310812
489000000.0 -0.014600564 0.019638408
492000000.0 -0.014130728 0.019053938
495000000.0 -0.015754984 0.019127586
498000000.0 -0.015803118 0.01892279
501000000.0 -0.016440914 0.018208872
504000000.0 -0.01671421 0.017821162
507000000.0 -0.017419624 0.017813172
510000000.0 -0.017496682 0.01711907
513000000.0 -0.01832418 0.017123262
516000000.0 -0.018497704 0.016328688
519000000.0 -0.01959486 0.01644391
522000000.0 -0.02064905 0.016540144
525000000.0 -0.02095842 0.01577328
528000000.0 -0.021824834 0.01430518
531000000.0 -0.021329852 0.01464091
534000000.0 -0.021794108 0.012984278
537000000.0 -0.021838312 0.013706464
540000000.0 -0.022428182 0.01280899
543000000.0 -0.022399746 0.012312042
546000000.0 -0.023020032 0.01299542
549000000.0 -0.023180074 0.01168149
552000000.0 -0.02314441 0.011219752
555000000.0 -0.024307174 0.010172712
558000000.0 -0.023978302 0.011001786
561000000.0 -0.024614762 0.009063418
564000000.0 -0.02545165 0.008163066
567000000.0 -0.024594796 0.008504884
570000000.0 -0.024324326 0.008088904
573000000.0 -0.024510032 0.008548716
576000000.0 -0.024813314 0.005661431
579000000.0 -0.02447659 0.005095219
582000000.0 -0.024745406 0.00433183
585000000.0 -0.023317848 0.003729769
588000000.0 -0.024048966 0.004818643
591000000.0 -0.023596156 0.004948529
594000000.0 -0.023325198 0.003687658
597000000.0 -0.024359734 0.002172678
600000000.0 -0.024030196 0.002116189
