! Created with skrf 1.8.0 (http://scikit-rf.org).
# Hz S RI R 50.0 
!freq ReS11 ImS11 ReS21 ImS21 ReS12 ImS12 ReS22 ImS22
300000000.0 0.0 0.0 0.01028516880614794 -0.06186485091426443 0.0 0.0 0.0 0.0
303000000.0 0.0 0.0 0.009211985152767194 -0.06296809613140847 0.0 0.0 0.0 0.0
306000000.0 0.0 0.0 0.007077954342310052 -0.06439050497290288 0.0 0.0 0.0 0.0
309000000.0 0.0 0.0 0.004855228115836998 -0.06446512318879254 0.0 0.0 0.0 0.0
312000000.0 0.0 0.0 0.0020220460037445286 -0.06734421816171449 0.0 0.0 0.0 0.0
315000000.0 0.0 0.0 0.0006585819529346964 -0.06616004707692191 0.0 0.0 0.0 0.0
318000000.0 0.0 0.0 -0.003419247117528837 -0.06487914296477885 0.0 0.0 0.0 0.0
321000000.0 0.0 0.0 -0.0055916245652094555 -0.06612624514727589 0.0 0.0 0.0 0.0
324000000.0 0.0 0.0 -0.006691679271432479 -0.06678007323614792 0.0 0.0 0.0 0.0
327000000.0 0.0 0.0 -0.007440027067770578 -0.06653002670304183 0.0 0.0 0.0 0.0
330000000.0 0.0 0.0 -0.010706947652930955 -0.06616415095001209 0.0 0.0 0.0 0.0
333000000.0 0.0 0.0 -0.012747815031584689 -0.06529581808720328 0.0 0.0 0.0 0.0
336000000.0 0.0 0.0 -0.015032437943243963 -0.06563737283995424 0.0 0.0 0.0 0.0
339000000.0 0.0 0.0 -0.01784463627593249 -0.06523793616141353 0.0 0.0 0.0 0.0
342000000.0 0.0 0.0 -0.018913159235082064 -0.06539522170519346 0.0 0.0 0.0 0.0
345000000.0 0.0 0.0 -0.02150707781941316 -0.0639461876760879 0.0 0.0 0.0 0.0
348000000.0 0.0 0.0 -0.02390751561579206 -0.06328882940854433 0.0 0.0 0.0 0.0
351000000.0 0.0 0.0 -0.026524847806011106 -0.0650445903183875 0.0 0.0 0.0 0.0
354000000.0 0.0 0.0 -0.026908814706405847 -0.060569554327017425 0.0 0.0 0.0 0.0
357000000.0 0.0 0.0 -0.030402464453490076 -0.06071463478427763 0.0 0.0 0.0 0.0
360000000.0 0.0 0.0 -0.03181524401800729 -0.059334146444710474 0.0 0.0 0.0 0.0
363000000.0 0.0 0.0 -0.033276050269771075 -0.05742402297007498 0.0 0.0 0.0 0.0
366000000.0 0.0 0.0 -0.03479144784959872 -0.05622859600492197 0.0 0.0 0.0 0.0
369000000.0 0.0 0.0 -0.03654630877566853 -0.05528171340419094 0.0 0.0 0.0 0.0
372000000.0 0.0 0.0 -0.03789996031842541 -0.05309920485869141 0.0 0.0 0.0 0.0
375000000.0 0.0 0.0 -0.04005613624351246 -0.05128081033689477 0.0 0.0 0.0 0.0
378000000.0 0.0 0.0 -0.041809373752910425 -0.049815482567274534 0.0 0.0 0.0 0.0
381000000.0 0.0 0.0 -0.0418978008515229 -0.04675339490692881 0.0 0.0 0.0 0.0
384000000.0 0.0 0.0 -0.0442394541075865 -0.04569067448016593 0.0 0.0 0.0 0.0
387000000.0 0.0 0.0 -0.04409698763427035 -0.043379107104085296 0.0 0.0 0.0 0.0
390000000.0 0.0 0.0 -0.038737583815300146 -0.03360001212645929 0.0 0.0 0.0 0.0
393000000.0 0.0 0.0 -0.046888507428596654 -0.0403988936436357 0.0 0.0 0.0 0.0
396000000.0 0.0 0.0 -0.04821146059417471 -0.03738090430765527 0.0 0.0 0.0 0.0
399000000.0 0.0 0.0 -0.04890100081678787 -0.03651030538437531 0.0 0.0 0.0 0.0
402000000.0 0.0 0.0 -0.04884527327787703 -0.03304696768464111 0.0 0.0 0.0 0.0
405000000.0 0.0 0.0 -0.049665590418965996 -0.03143778668969914 0.0 0.0 0.0 0.0
408000000.0 0.0 0.0 -0.0496344217367484 -0.028385284338318332 0.0 0.0 0.0 0.0
411000000.0 0.0 0.0 -0.05075034874764288 -0.027406667215297224 0.0 0.0 0.0 0.0
414000000.0 0.0 0.0 -0.05029738419461548 -0.024033264232651175 0.0 0.0 0.0 0.0
417000000.0 0.0 0.0 -0.05071920312835254 -0.021630212096875538 0.0 0.0 0.0 0.0
420000000.0 0.0 0.0 -0.049436405231133664 -0.02011714652171005 0.0 0.0 0.0 0.0
423000000.0 0.0 0.0 -0.04925118998767196 -0.017488924509647282 0.0 0.0 0.0 0.0
426000000.0 0.0 0.0 -0.04951294051195379 -0.014908298459686506 0.0 0.0 0.0 0.0
429000000.0 0.0 0.0 -0.04586004801867356 -0.012305111305295999 0.0 0.0 0.0 0.0
432000000.0 0.0 0.0 -0.04799314348360258 -0.011025393047638114 0.0 0.0 0.0 0.0
435000000.0 0.0 0.0 -0.04697064824353981 -0.007235818862671935 0.0 0.0 0.0 0.0
438000000.0 0.0 0.0 -0.048031265447955794 -0.007172087024854192 0.0 0.0 0.0 0.0
441000000.0 0.0 0.0 -0.04607479735915071 -0.004455305023466771 0.0 0.0 0.0 0.0
444000000.0 0.0 0.0 -0.04477656327940486 -0.003138544625043458 0.0 0.0 0.0 0.0
447000000.0 0.0 0.0 -0.043524892429597964 -0.0015356156087442973 0.0 0.0 0.0 0.0
450000000.0 0.0 0.0 -0.04184207857608888 0.002472431792123296 0.0 0.0 0.0 0.0
453000000.0 0.0 0.0 -0.040221802692754695 0.002592571567432247 0.0 0.0 0.0 0.0
456000000.0 0.0 0.0 -0.03938246182413269 0.004356916680892222 0.0 0.0 0.0 0.0
459000000.0 0.0 0.0 -0.036976723057670524 0.007575482804150411 0.0 0.0 0.0 0.0
462000000.0 0.0 0.0 -0.03411353844191044 0.006523036779174654 0.0 0.0 0.0 0.0
465000000.0 0.0 0.0 -0.033050198242844615 0.008474189759208864 0.0 0.0 0.0 0.0
468000000.0 0.0 0.0 -0.03217643541479476 0.010478318475675059 0.0 0.0 0.0 0.0
471000000.0 0.0 0.0 -0.029813007181044442 0.011518471434107667 0.0 0.0 0.0 0.0
474000000.0 0.0 0.0 -0.02658743554793253 0.012498122113297974 0.0 0.0 0.0 0.0
477000000.0 0.0 0.0 -0.02466356735603949 0.014713222821122505 0.0 0.0 0.0 0.0
480000000.0 0.0 0.0 -0.021179216822079336 0.015323978582924822 0.0 0.0 0.0 0.0
483000000.0 0.0 0.0 -0.020790934799562292 0.01585387066408227 0.0 0.0 0.0 0.0
486000000.0 0.0 0.0 -0.017877236950562706 0.016935824840473786 0.0 0.0 0.0 0.0
489000000.0 0.0 0.0 -0.015854432253394345 0.017043895914413888 0.0 0.0 0.0 0.0
492000000.0 0.0 0.0 -0.013860832851979399 0.01798757334570633 0.0 0.0 0.0 0.0
495000000.0 0.0 0.0 -0.00937036082450157 0.018542056456182735 0.0 0.0 0.0 0.0
498000000.0 0.0 0.0 -0.007363650250125327 0.01790901850033687 0.0 0.0 0.0 0.0
501000000.0 0.0 0.0 -0.005003509178051042 0.017685610204987316 0.0 0.0 0.0 0.0
504000000.0 0.0 0.0 -0.002614655672802815 0.01896090103926016 0.0 0.0 0.0 0.0
507000000.0 0.0 0.0 0.0008671349084386101 0.018398022083395863 0.0 0.0 0.0 0.0
510000000.0 0.0 0.0 0.0023206160830931567 0.019125056004251094 0.0 0.0 0.0 0.0
513000000.0 0.0 0.0 0.006327649363022905 0.017626509454948522 0.0 0.0 0.0 0.0
516000000.0 0.0 0.0 0.008486553990288252 0.017070845164080483 0.0 0.0 0.0 0.0
519000000.0 0.0 0.0 0.011193290852421729 0.016185756981374994 0.0 0.0 0.0 0.0
522000000.0 0.0 0.0 0.013927458864246222 0.014581409598362327 0.0 0.0 0.0 0.0
525000000.0 0.0 0.0 0.016403726708695516 0.014392762681642773 0.0 0.0 0.0 0.0
528000000.0 0.0 0.0 0.0194079164806915 0.01370754104833737 0.0 0.0 0.0 0.0
531000000.0 0.0 0.0 0.019732121612332256 0.012475591172948127 0.0 0.0 0.0 0.0
534000000.0 0.0 0.0 0.024309153797569347 0.011624088458397117 0.0 0.0 0.0 0.0
537000000.0 0.0 0.0 0.02494232710685939 0.009148810170531683 0.0 0.0 0.0 0.0
540000000.0 0.0 0.0 0.028111364285566376 0.007740371997146285 0.0 0.0 0.0 0.0
543000000.0 0.0 0.0 0.029344934839623894 0.006092412328506877 0.0 0.0 0.0 0.0
546000000.0 0.0 0.0 0.03131963834792135 0.0018129014707083371 0.0 0.0 0.0 0.0
549000000.0 0.0 0.0 0.033814170900968527 0.0018072685436334463 0.0 0.0 0.0 0.0
552000000.0 0.0 0.0 0.03415628353615614 -0.0015352146829409952 0.0 0.0 0.0 0.0
555000000.0 0.0 0.0 0.037832727070440074 -0.0039821350266536605 0.0 0.0 0.0 0.0
558000000.0 0.0 0.0 0.038112315775897666 -0.007073519678633565 0.0 0.0 0.0 0.0
561000000.0 0.0 0.0 0.041214217847328316 -0.009311801059117438 0.0 0.0 0.0 0.0
564000000.0 0.0 0.0 0.04212274758417348 -0.011846478073034619 0.0 0.0 0.0 0.0
567000000.0 0.0 0.0 0.04301502764009072 -0.014648378961722488 0.0 0.0 0.0 0.0
570000000.0 0.0 0.0 0.043006004025665526 -0.01776049410086592 0.0 0.0 0.0 0.0
573000000.0 0.0 0.0 0.04490823238830318 -0.022778021964620216 0.0 0.0 0.0 0.0
576000000.0 0.0 0.0 0.04613063702746685 -0.0233797964041936 0.0 0.0 0.0 0.0
579000000.0 0.0 0.0 0.04605211497922079 -0.026667586328363743 0.0 0.0 0.0 0.0
582000000.0 0.0 0.0 0.04749229980150131 -0.029540041201611352 0.0 0.0 0.0 0.0
585000000.0 0.0 0.0 0.04778548367988828 -0.03329213791581147 0.0 0.0 0.0 0.0
588000000.0 0.0 0.0 0.04884906383573253 -0.03737146324450075 0.0 0.0 0.0 0.0
591000000.0 0.0 0.0 0.049235646834862076 -0.0404011652753221 0.0 0.0 0.0 0.0
594000000.0 0.0 0.0 0.04828355180207823 -0.0430313874275434 0.0 0.0 0.0 0.0
597000000.0 0.0 0.0 0.04861719489589953 -0.04700239601337129 0.0 0.0 0.0 0.0
600000000.0 0.0 0.0 0.04919227374425846 -0.05183445807217214 0.0 0.0 0.0 0.0
