! Created with skrf 1.8.0 (http://scikit-rf.org).
# Hz S RI R 50.0 
!freq ReS11 ImS11
300000000.0 0.9289693469193849 -0.02003204942411038
303000000.0 0.992815679426856 -0.010173801741513801
306000000.0 0.9957331668640776 -0.009240604221975578
309000000.0 0.9975957969041711 -0.011058924736719567
312000000.0 0.9972736429246759 -0.01492606474611132
315000000.0 0.9893191851623865 -0.010965564608562664
318000000.0 0.9966959760606567 -0.012557411093719125
321000000.0 0.9981441441281371 -0.012480643304922179
324000000.0 0.9978176142742228 -0.012852193198998425
327000000.0 0.9953661837247166 -0.012015476047355363
330000000.0 0.989746071987975 -0.013781502887947389
333000000.0 0.9963942764571845 -0.01278572390455351
336000000.0 0.9981858835654559 -0.014308156193268636
339000000.0 0.998827980332351 -0.014167473146839265
342000000.0 0.9958142308372387 -0.014091286577305356
345000000.0 0.99208273891799 -0.01421044668649587
348000000.0 0.9972926337930949 -0.014883618690896211
351000000.0 0.9894994098130583 -0.02090517631234168
354000000.0 1.0006344035945984 -0.015327684441357117
357000000.0 0.9981624267711228 -0.015217973485766203
360000000.0 0.9932863046239732 -0.01577888824091813
363000000.0 0.9971935209337657 -0.016096356698196132
366000000.0 1.0010119010975267 -0.01655930010017854
369000000.0 1.0007945044922366 -0.016368945858804246
372000000.0 0.9978184035038548 -0.017014385915144876
375000000.0 0.9940909119534506 -0.016875407792665977
378000000.0 0.9983246872824034 -0.016974881714240046
381000000.0 1.0024243381551137 -0.016637262639701292
384000000.0 1.000370361967813 -0.01737458590923209
387000000.0 0.9986111581305188 -0.01708860197639996
390000000.0 1.0130090030355072 -0.03868200877582002
393000000.0 0.997903299406886 -0.018022632463668396
396000000.0 1.0013847482143012 -0.01744906284314608
399000000.0 1.0008498294429804 -0.01780660368637058
402000000.0 1.0004688040546974 -0.019194871440938805
405000000.0 0.993931477733298 -0.018825668919383722
408000000.0 0.998836585280974 -0.020080785766237185
411000000.0 1.0010962293447594 -0.019660952966636388
414000000.0 1.0007000913452697 -0.019937700657713303
417000000.0 0.9974877697095847 -0.017979833148333044
420000000.0 0.9928765468750871 -0.02110804650001009
423000000.0 0.9990870921106206 -0.02185977902060796
426000000.0 1.0009297914135018 -0.02133214214171157
429000000.0 1.0103506350592193 -0.012450839083824265
432000000.0 0.9990343573934274 -0.021656234255746674
435000000.0 0.9922611658100855 -0.02074642496559935
438000000.0 0.9973250267350128 -0.021040990615000612
441000000.0 1.0022121788914222 -0.022297061454413947
444000000.0 1.0004184553211364 -0.019337711245540214
447000000.0 0.9991832647630434 -0.021687428993596127
450000000.0 0.9911197373958897 -0.021175789146273234
453000000.0 0.9983694359727778 -0.02284523352187543
456000000.0 1.0012910682438916 -0.0223977792514166
459000000.0 0.996293759228763 -0.02247066785712364
462000000.0 0.9972729354704236 -0.02059897345251033
465000000.0 0.9922736517570605 -0.018989708883582743
468000000.0 1.0040101437665052 -0.01910998816930641
471000000.0 1.0012545543802223 -0.020174086110676833
474000000.0 1.0010854145365422 -0.019191569134199966
477000000.0 0.9963922915239778 -0.017639741472034988
480000000.0 0.9914425973893853 -0.019851270024861884
483000000.0 0.997141680058978 -0.019268671590530754
486000000.0 0.9995013659801439 -0.019658803258329166
489000000.0 0.999876745678299 -0.016995460295503077
492000000.0 0.9966719538821232 -0.01665473840180647
495000000.0 0.991175546378718 -0.0166506135769381
498000000.0 0.9955970912483165 -0.014843362421400212
501000000.0 0.9990435873593608 -0.014245147108070223
504000000.0 0.9990676619529725 -0.014956451356767283
507000000.0 0.9938368943303657 -0.013359552364904858
510000000.0 0.9893890462283697 -0.01346757669973331
513000000.0 0.9960424192225835 -0.012162949432997613
516000000.0 0.997300172977158 -0.01240940409854929
519000000.0 0.9998881293986449 -0.011829312145649749
522000000.0 0.9959699524081814 -0.010937879423300332
525000000.0 0.9911787610310322 -0.009949009457805604
528000000.0 0.9943312209576151 -0.009186274126999188
531000000.0 0.997254123329504 -0.009438454854566616
534000000.0 0.9976059151515192 -0.008658371502405214
537000000.0 0.9952305482107016 -0.006948558928273025
540000000.0 0.9900508937229935 -0.007208592666788601
543000000.0 0.9955806634659005 -0.006900566573167663
546000000.0 0.9981606548227125 -0.00769126668229744
549000000.0 0.9978790203823545 -0.006433672964245571
552000000.0 0.9954428619476184 -0.006371273930972962
555000000.0 0.9904600640944072 -0.003527124855860818
558000000.0 0.9941848683121745 -0.004527973121885177
561000000.0 0.9975722423028838 -0.0038638642069160492
564000000.0 0.99835450679017 -0.0028718766901189496
567000000.0 0.9950008443690844 -0.002309747992354862
570000000.0 0.9904483290792602 -0.0017218727425238366
573000000.0 0.9938312695510735 -0.0021932031818691334
576000000.0 0.9960729219716764 -0.0017694008751763302
579000000.0 0.9974443074859566 -0.0003494301101834875
582000000.0 0.9944967839284614 -0.0006624792479089665
585000000.0 0.9881423395572325 -0.008495486839443725
588000000.0 0.9828747163856655 0.00046790437262017245
591000000.0 0.9651978375233442 0.010999238447375296
594000000.0 0.9747002221170651 0.006029854367587642
597000000.0 0.9847931228842476 0.002779776014839892
600000000.0 0.9903698837697815 0.0019071055429157923
