! Created with skrf 1.8.0 (http://scikit-rf.org).
# Hz S RI R 50.0 
!freq ReS11 ImS11
300000000.0 -0.004511614613509049 0.0034545906739214967
303000000.0 -0.008555345294030703 0.0028686219962849807
306000000.0 -0.008446155691202346 0.004467793519892142
309000000.0 -0.008448957314831354 0.0041180005507262946
312000000.0 -0.01765416073293413 -0.0009138543201283293
315000000.0 -0.005942099764032264 0.004247530530202723
318000000.0 -0.007102810585729453 0.005385627872388782
321000000.0 -0.007942665541445222 0.004570615641371324
324000000.0 -0.006208925670610872 0.004819854975673833
327000000.0 -0.005176608804974623 0.0060673576496139405
330000000.0 -0.004753742017542743 0.003238630870398143
333000000.0 -0.00580640883741106 0.005483744607269403
336000000.0 -0.004621941270362036 0.00623426961084361
339000000.0 -0.0042702668698248155 0.00593657129519775
342000000.0 -0.004927819660094405 0.006441737670403284
345000000.0 -0.004266147019243145 0.005783102095315122
348000000.0 -0.004163788722809412 0.006553906316133687
351000000.0 0.005413766830023021 -0.007382551481741513
354000000.0 -0.0019091888802096053 0.007475586542967207
357000000.0 -0.00231318206713388 0.00597822855388771
360000000.0 -0.0036598380919840748 0.007843173097743492
363000000.0 -0.0014728460735802301 0.0072406519996469675
366000000.0 -0.001571199623001861 0.007218235344739583
369000000.0 -0.00035786166774577616 0.006784960284161098
372000000.0 -0.0004514046917366217 0.007616704780220154
375000000.0 -0.0007579132163302552 0.008406323911421949
378000000.0 0.0006165999266468313 0.006779361645674593
381000000.0 0.0019923671836127354 0.010081322697346965
384000000.0 0.0008707726843606018 0.00874295091108065
387000000.0 0.001989707668234464 0.009826613181846274
390000000.0 0.014902770924370286 -0.007139360045122509
393000000.0 0.0017173353390210182 0.009195134183009972
396000000.0 0.0024105243334876063 0.009127475488557881
399000000.0 0.004120555968394776 0.008919557299263407
402000000.0 0.004756246292671606 0.010069651057206674
405000000.0 0.0054525604984069645 0.00938131185678992
408000000.0 0.004031187512327692 0.01014132132275496
411000000.0 0.00472432042971072 0.009538055886427522
414000000.0 0.004498084107009511 0.010112673701956159
417000000.0 0.007456856456353061 0.009342844366960142
420000000.0 0.0065611637327202986 0.010285380511676347
423000000.0 0.008918158501266947 0.01040592790949548
426000000.0 0.008849498796492172 0.009861926701401845
429000000.0 -0.0001609704623141163 0.02098849589680528
432000000.0 0.011028609055315256 0.008747939689620772
435000000.0 0.009239638040602587 0.01096440145933311
438000000.0 0.00760690276290187 0.010205974320719529
441000000.0 0.009934289404971451 0.011432848951219647
444000000.0 0.009098512918350886 0.011645231681045549
447000000.0 0.011332799694313778 0.010572225240252735
450000000.0 0.012308169931997959 0.012140174401470237
453000000.0 0.012373338878016995 0.011427946318500934
456000000.0 0.012894444417790637 0.011255968758058607
459000000.0 0.010690556105853915 0.012823140178313918
462000000.0 0.013940036826457091 0.010994149619524446
465000000.0 0.013985182957960784 0.011346025136495849
468000000.0 0.013577086386224249 0.019801570355083658
471000000.0 0.014245257206085 0.01499086915052196
474000000.0 0.015271496683362742 0.011733782327374412
477000000.0 0.01589201375501038 0.013922951806465701
480000000.0 0.015869955365853797 0.012023436627212376
483000000.0 0.014236759000178517 0.014660351829095877
486000000.0 0.016126404555593783 0.013630888894417739
489000000.0 0.015164391766145226 0.015830331330864048
492000000.0 0.015942973410162237 0.016148359886863868
495000000.0 0.017329150121406192 0.014374657190675546
498000000.0 0.017019783933473833 0.017947144344853463
501000000.0 0.017521444170748735 0.0179726928686815
504000000.0 0.015952245327434694 0.018712723964907564
507000000.0 0.015449639623766527 0.015009787803319501
510000000.0 0.015824745189584107 0.01991128511053467
513000000.0 0.015484376232461182 0.019345252987711253
516000000.0 0.015954245949173468 0.020450975158412592
519000000.0 0.01650144882729599 0.01995244891728662
522000000.0 0.018106994050827167 0.018357663323675638
525000000.0 0.018192475199019165 0.020242563728293576
528000000.0 0.018509836273366248 0.021716249981906948
531000000.0 0.01774003003509496 0.02150389773064043
534000000.0 0.017229612743423686 0.02273393266339125
537000000.0 0.017192555206322024 0.021964165081300863
540000000.0 0.017809817352488804 0.021675585541792605
543000000.0 0.01847648664503431 0.02202487591152293
546000000.0 0.019546582016224053 0.022901047067365163
549000000.0 0.01835752099302143 0.02247084865693969
552000000.0 0.01768964193495118 0.022424843057287158
555000000.0 0.019626037729408477 0.023197183834644402
558000000.0 0.017921093665776766 0.020691765413715132
561000000.0 0.01910027082946449 0.02321512137796245
564000000.0 0.019108745739867684 0.024591147642893184
567000000.0 0.01877853489279556 0.022818971267444033
570000000.0 0.01792121343713473 0.022745112427430488
573000000.0 0.017490868845241776 0.02222917996361515
576000000.0 0.018078931917610286 0.024271456439038778
579000000.0 0.017040053906734545 0.025136623310888045
582000000.0 0.016113600438936202 0.02532532710066047
585000000.0 0.013823398561168506 0.030516331335521046
588000000.0 0.017241990527117897 0.021872748518273623
591000000.0 0.01759063115549067 0.022018560445148463
594000000.0 0.015421880842294226 0.023626631236454674
597000000.0 0.018103537117916096 0.02383141420983942
600000000.0 0.01699435927038223 0.022157121078329747
