! Created with skrf 1.8.0 (http://scikit-rf.org).
# Hz S RI R 50.0 
!freq ReS11 ImS11 ReS21 ImS21 ReS12 ImS12 ReS22 ImS22
300000000.0 0.0 0.0 1.054814533402632 -0.10272333169743392 0.0 0.0 0.0 0.0
303000000.0 0.0 0.0 0.9956112778724533 -0.08114469832868797 0.0 0.0 0.0 0.0
306000000.0 0.0 0.0 0.9902833195679924 -0.08144481448979397 0.0 0.0 0.0 0.0
309000000.0 0.0 0.0 0.9949564471069583 -0.08272667023779183 0.0 0.0 0.0 0.0
312000000.0 0.0 0.0 1.0027530060831729 -0.08762220983183519 0.0 0.0 0.0 0.0
315000000.0 0.0 0.0 0.996149938047256 -0.0871159238266814 0.0 0.0 0.0 0.0
318000000.0 0.0 0.0 0.9931472986145736 -0.08476153052082262 0.0 0.0 0.0 0.0
321000000.0 0.0 0.0 0.9922041793315843 -0.08485834342448713 0.0 0.0 0.0 0.0
324000000.0 0.0 0.0 0.9920643636388695 -0.08583964192804538 0.0 0.0 0.0 0.0
327000000.0 0.0 0.0 0.9919185933415893 -0.08566146430229414 0.0 0.0 0.0 0.0
330000000.0 0.0 0.0 1.000366170038986 -0.09129648848548094 0.0 0.0 0.0 0.0
333000000.0 0.0 0.0 0.9907073586346771 -0.08881422189504821 0.0 0.0 0.0 0.0
336000000.0 0.0 0.0 0.9915261369237572 -0.08967815706310585 0.0 0.0 0.0 0.0
339000000.0 0.0 0.0 0.9908493235621354 -0.09128539833201721 0.0 0.0 0.0 0.0
342000000.0 0.0 0.0 0.9933556330567018 -0.09232223426862922 0.0 0.0 0.0 0.0
345000000.0 0.0 0.0 0.9979820688371122 -0.09143843539946979 0.0 0.0 0.0 0.0
348000000.0 0.0 0.0 0.9932366161331642 -0.09417649058443796 0.0 0.0 0.0 0.0
351000000.0 0.0 0.0 1.012984509845277 -0.09103772312799781 0.0 0.0 0.0 0.0
354000000.0 0.0 0.0 0.9908339574479189 -0.09389746452665194 0.0 0.0 0.0 0.0
357000000.0 0.0 0.0 0.9940393123501797 -0.09616384236859285 0.0 0.0 0.0 0.0
360000000.0 0.0 0.0 0.996791021891724 -0.09792401648672722 0.0 0.0 0.0 0.0
363000000.0 0.0 0.0 0.9923910117850134 -0.09779973132057047 0.0 0.0 0.0 0.0
366000000.0 0.0 0.0 0.990000311656144 -0.09792008242860337 0.0 0.0 0.0 0.0
369000000.0 0.0 0.0 0.9905040013174905 -0.09945932258728239 0.0 0.0 0.0 0.0
372000000.0 0.0 0.0 0.9924639424131757 -0.09929554530305153 0.0 0.0 0.0 0.0
375000000.0 0.0 0.0 0.9977867893486152 -0.10138914994346154 0.0 0.0 0.0 0.0
378000000.0 0.0 0.0 0.992629774004659 -0.10122937584413161 0.0 0.0 0.0 0.0
381000000.0 0.0 0.0 0.9899574665748546 -0.10230772271061192 0.0 0.0 0.0 0.0
384000000.0 0.0 0.0 0.9896947977873563 -0.1027708519512153 0.0 0.0 0.0 0.0
387000000.0 0.0 0.0 0.9923820127776863 -0.1042970172444456 0.0 0.0 0.0 0.0
390000000.0 0.0 0.0 0.9746555188164492 -0.1304219383087098 0.0 0.0 0.0 0.0
393000000.0 0.0 0.0 0.9921042016797494 -0.10582330298678483 0.0 0.0 0.0 0.0
396000000.0 0.0 0.0 0.9887016594921704 -0.10647621266085379 0.0 0.0 0.0 0.0
399000000.0 0.0 0.0 0.9891937028758928 -0.10771056041748202 0.0 0.0 0.0 0.0
402000000.0 0.0 0.0 0.9917602739962982 -0.10786719841291194 0.0 0.0 0.0 0.0
405000000.0 0.0 0.0 0.9946953057735759 -0.11073940886662414 0.0 0.0 0.0 0.0
408000000.0 0.0 0.0 0.9912711501893424 -0.11004761185470932 0.0 0.0 0.0 0.0
411000000.0 0.0 0.0 0.9886856452708931 -0.10910628813414501 0.0 0.0 0.0 0.0
414000000.0 0.0 0.0 0.9886342529305148 -0.11032310591469091 0.0 0.0 0.0 0.0
417000000.0 0.0 0.0 0.9894480657702487 -0.11145839415037878 0.0 0.0 0.0 0.0
420000000.0 0.0 0.0 0.9973086767837556 -0.11394940724117157 0.0 0.0 0.0 0.0
423000000.0 0.0 0.0 0.987907805805929 -0.11204150213182618 0.0 0.0 0.0 0.0
426000000.0 0.0 0.0 0.9859766829002116 -0.11270947756563021 0.0 0.0 0.0 0.0
429000000.0 0.0 0.0 0.9925027632393106 -0.08915320316583573 0.0 0.0 0.0 0.0
432000000.0 0.0 0.0 0.9907673341305521 -0.1156285590371095 0.0 0.0 0.0 0.0
435000000.0 0.0 0.0 0.9962137125538343 -0.11699471619361455 0.0 0.0 0.0 0.0
438000000.0 0.0 0.0 0.9902095937346138 -0.11879769662094156 0.0 0.0 0.0 0.0
441000000.0 0.0 0.0 0.9889797813524059 -0.11360693681005278 0.0 0.0 0.0 0.0
444000000.0 0.0 0.0 0.9851340771804965 -0.11900238221648442 0.0 0.0 0.0 0.0
447000000.0 0.0 0.0 0.9884866451962996 -0.11951717066214079 0.0 0.0 0.0 0.0
450000000.0 0.0 0.0 0.9946311123883788 -0.1227128524185918 0.0 0.0 0.0 0.0
453000000.0 0.0 0.0 0.9889775268145716 -0.12290802288190157 0.0 0.0 0.0 0.0
456000000.0 0.0 0.0 0.9875662895945443 -0.12063283669041643 0.0 0.0 0.0 0.0
459000000.0 0.0 0.0 0.9898549283360257 -0.11553789792099942 0.0 0.0 0.0 0.0
462000000.0 0.0 0.0 0.9881435365038442 -0.12012795534907188 0.0 0.0 0.0 0.0
465000000.0 0.0 0.0 0.9949776551638897 -0.12383293180002848 0.0 0.0 0.0 0.0
468000000.0 0.0 0.0 0.9782977030828429 -0.11518874294391428 0.0 0.0 0.0 0.0
471000000.0 0.0 0.0 0.9856423938869017 -0.12517038354761897 0.0 0.0 0.0 0.0
474000000.0 0.0 0.0 0.98646063885602 -0.12284187069951301 0.0 0.0 0.0 0.0
477000000.0 0.0 0.0 0.9873664190865983 -0.12393382102912132 0.0 0.0 0.0 0.0
480000000.0 0.0 0.0 0.9926746355323832 -0.12850169245929144 0.0 0.0 0.0 0.0
483000000.0 0.0 0.0 0.9863331090834236 -0.12743822905945584 0.0 0.0 0.0 0.0
486000000.0 0.0 0.0 0.9850138666786199 -0.12852883641557633 0.0 0.0 0.0 0.0
489000000.0 0.0 0.0 0.9840798460486647 -0.12704952356089544 0.0 0.0 0.0 0.0
492000000.0 0.0 0.0 0.9890069719074441 -0.1273497568032847 0.0 0.0 0.0 0.0
495000000.0 0.0 0.0 0.9896719304266461 -0.13019141130046397 0.0 0.0 0.0 0.0
498000000.0 0.0 0.0 0.984952062552326 -0.12973367820411594 0.0 0.0 0.0 0.0
501000000.0 0.0 0.0 0.9814413463789003 -0.13061684111376953 0.0 0.0 0.0 0.0
504000000.0 0.0 0.0 0.9824075044437975 -0.1314602085772554 0.0 0.0 0.0 0.0
507000000.0 0.0 0.0 0.9892041249893351 -0.13154774888243737 0.0 0.0 0.0 0.0
510000000.0 0.0 0.0 0.9900764737183735 -0.1352275019750405 0.0 0.0 0.0 0.0
513000000.0 0.0 0.0 0.986108912525147 -0.13435907696155838 0.0 0.0 0.0 0.0
516000000.0 0.0 0.0 0.9837888800047282 -0.13441029706020838 0.0 0.0 0.0 0.0
519000000.0 0.0 0.0 0.9824372955861047 -0.13583721801933066 0.0 0.0 0.0 0.0
522000000.0 0.0 0.0 0.9833883107990916 -0.13571793145853944 0.0 0.0 0.0 0.0
525000000.0 0.0 0.0 0.9894430296154927 -0.13876814516851452 0.0 0.0 0.0 0.0
528000000.0 0.0 0.0 0.9841246295985855 -0.13721214242543156 0.0 0.0 0.0 0.0
531000000.0 0.0 0.0 0.9818341543428385 -0.13662674813229242 0.0 0.0 0.0 0.0
534000000.0 0.0 0.0 0.9824038042907478 -0.13706992749989183 0.0 0.0 0.0 0.0
537000000.0 0.0 0.0 0.9837917316126167 -0.1394910840726137 0.0 0.0 0.0 0.0
540000000.0 0.0 0.0 0.9869804953487411 -0.1419432937045779 0.0 0.0 0.0 0.0
543000000.0 0.0 0.0 0.9834640271268799 -0.1409479764177913 0.0 0.0 0.0 0.0
546000000.0 0.0 0.0 0.9799849435427144 -0.1401441295646363 0.0 0.0 0.0 0.0
549000000.0 0.0 0.0 0.98059962402888 -0.1414633654666284 0.0 0.0 0.0 0.0
552000000.0 0.0 0.0 0.9839136379198251 -0.14221402241065983 0.0 0.0 0.0 0.0
555000000.0 0.0 0.0 0.9886203085237327 -0.14363074589073407 0.0 0.0 0.0 0.0
558000000.0 0.0 0.0 0.982917582597726 -0.14312548082743554 0.0 0.0 0.0 0.0
561000000.0 0.0 0.0 0.9804550723101634 -0.14418708224956348 0.0 0.0 0.0 0.0
564000000.0 0.0 0.0 0.982292316543895 -0.14513631301395846 0.0 0.0 0.0 0.0
567000000.0 0.0 0.0 0.983669108354422 -0.14710731239860086 0.0 0.0 0.0 0.0
570000000.0 0.0 0.0 0.9884487054270116 -0.14757794290782672 0.0 0.0 0.0 0.0
573000000.0 0.0 0.0 0.9838773165127325 -0.146236572025771 0.0 0.0 0.0 0.0
576000000.0 0.0 0.0 0.9816658356418816 -0.14853897722438714 0.0 0.0 0.0 0.0
579000000.0 0.0 0.0 0.9814172977236991 -0.1484538801351619 0.0 0.0 0.0 0.0
582000000.0 0.0 0.0 0.9825000887458986 -0.15013103378395828 0.0 0.0 0.0 0.0
585000000.0 0.0 0.0 0.9814742769650623 -0.15291244250787311 0.0 0.0 0.0 0.0
588000000.0 0.0 0.0 0.9940514585809267 -0.15616514095709463 0.0 0.0 0.0 0.0
591000000.0 0.0 0.0 1.0150592250676318 -0.15607091187928146 0.0 0.0 0.0 0.0
594000000.0 0.0 0.0 1.003330857132174 -0.15523665406423331 0.0 0.0 0.0 0.0
597000000.0 0.0 0.0 0.9934658429687421 -0.15597405074313023 0.0 0.0 0.0 0.0
600000000.0 0.0 0.0 0.9861395303467821 -0.15855262805594278 0.0 0.0 0.0 0.0
