! Created with skrf 1.8.0 (http://scikit-rf.org).
# Hz S RI R 50.0 
!freq ReS11 ImS11
50000.0 -0.880323648 -0.001380445
15049500.0 -0.817517952 0.27384992
30049000.0 -0.689039936 0.481726816
45048500.0 -0.5133472 0.631327744
60048000.0 -0.317248096 0.716586176
75047500.0 -0.121021504 0.74221984
90047000.0 0.069809432 0.716167232
105046500.0 0.231736064 0.654636672
120046000.0 0.365432992 0.564418176
135045500.0 0.470839008 0.453576576
150045000.0 0.548005568 0.33039888
165044500.0 0.597311616 0.199923168
180044000.0 0.621474048 0.066658376
195043500.0 0.62021728 -0.066087736
210043000.0 0.59482048 -0.195305632
225042500.0 0.546319936 -0.318624896
240042000.0 0.474462112 -0.432883808
255041500.0 0.37979024 -0.535084416
270041000.0 0.263456736 -0.620467008
285040500.0 0.1259194 -0.682263872
300040000.0 -0.017316064 -0.716774528
315039500.0 -0.187584496 -0.718563072
330039000.0 -0.363285312 -0.67478528
345038500.0 -0.52968656 -0.581692032
360038000.0 -0.669982336 -0.436957344
375037500.0 -0.766046912 -0.25088248
390037000.0 -0.798097792 -0.039976796
405036500.0 -0.76538144 0.170398416
420036000.0 -0.6645408 0.35402464
435035500.0 -0.512891008 0.493658336
450035000.0 -0.333527008 0.578512384
465034500.0 -0.15591576 0.600090176
480034000.0 0.008889244 0.578337024
495033500.0 0.1504756 0.520372992
510033000.0 0.263223232 0.440125056
525032500.0 0.349391968 0.344228224
540032000.0 0.40733104 0.240948336
555031500.0 0.441229952 0.135164944
570031000.0 0.45532992 0.030580632
585030500.0 0.450791808 -0.069728808
600030000.0 0.429514336 -0.15796288
615029500.0 0.393886368 -0.245543632
630029000.0 0.343743584 -0.325023008
645028500.0 0.283089568 -0.397330912
660028000.0 0.210209232 -0.459423264
675027500.0 0.122520024 -0.508119936
690027000.0 0.027451424 -0.54315712
705026500.0 -0.082227136 -0.557494656
720026000.0 -0.193766608 -0.553662272
735025500.0 -0.312568 -0.520160928
750025000.0 -0.42435184 -0.456568864
765024500.0 -0.525545344 -0.360680608
780024000.0 -0.596299072 -0.232026032
795023500.0 -0.634035648 -0.082640352
810023000.0 -0.620534592 0.074136768
825022500.0 -0.554750336 0.221227968
840022000.0 -0.451067328 0.334612672
855021500.0 -0.323392544 0.40560864
870021000.0 -0.190041088 0.434001792
885020500.0 -0.064497912 0.427742368
900020000.0 0.058256952 0.394761696
915019500.0 0.143951968 0.335011072
930019000.0 0.205353184 0.266975344
945018500.0 0.253933312 0.193339072
960018000.0 0.284080224 0.1178244
975017500.0 0.299402432 0.0399943
990017000.0 0.303024704 -0.033018202
1005016500.0 0.297336352 -0.104644072
1020016000.0 0.282468384 -0.17382696
1035015500.0 0.248604192 -0.239936752
1050015000.0 0.212800384 -0.292784352
1065014500.0 0.169211472 -0.361802976
1080014000.0 0.11395656 -0.415352736
1095013500.0 0.048944436 -0.4586104
1110013000.0 -0.026042314 -0.498022848
1125012500.0 -0.109745112 -0.515986976
1140012000.0 -0.219185296 -0.531374816
1155011500.0 -0.302301632 -0.499788224
1170011000.0 -0.434697664 -0.474194592
1185010500.0 -0.527507904 -0.39791184
1200010000.0 -0.620697024 -0.287861472
1215009500.0 -0.670283008 -0.149194752
1230009000.0 -0.680171584 0.003618518
1245008500.0 -0.640464384 0.15514192
1260008000.0 -0.53802752 0.2842944
1275007500.0 -0.424724064 0.376051136
1290007000.0 -0.296595328 0.410302976
1305006500.0 -0.169436656 0.425720608
1320006000.0 -0.061073224 0.405186816
1335005500.0 0.030826972 0.365266976
1350005000.0 0.096674048 0.304018112
1365004500.0 0.14927544 0.269189536
1380004000.0 0.21401688 0.177168944
1395003500.0 0.23855824 0.119676576
1410003000.0 0.25958776 0.051564212
1425002500.0 0.267684304 -0.011092764
1440002000.0 0.258791296 -0.076098848
1455001500.0 0.230314688 -0.130011408
1470001000.0 0.209739616 -0.183530032
1485000500.0 0.162154048 -0.239043904
1500000000.0 0.081776032 -0.289448768
