! Created with skrf 1.8.0 (http://scikit-rf.org).
# Hz S RI R 50.0 
!freq ReS11 ImS11
50000.0 -3.6937918255608966 -0.019259469136834323
15049500.0 -3.640426325081346 0.20869011609634794
30049000.0 -3.538996821131779 0.37653595779726357
45048500.0 -3.4017407647077884 0.5004546013524861
60048000.0 -3.248541029732867 0.5745999134856844
75047500.0 -3.092945150844138 0.6042510310773003
90047000.0 -2.9401517173050458 0.5962827079095565
105046500.0 -2.8107560552544864 0.5575706698464409
120046000.0 -2.699996705086158 0.49916824719808867
135045500.0 -2.609102008346577 0.42502534248034884
150045000.0 -2.5405198075719193 0.33776614183935616
165044500.0 -2.489949643601664 0.2434300706357803
180044000.0 -2.459889051709793 0.1436753454051747
195043500.0 -2.4465489499353383 0.03954998176446628
210043000.0 -2.449448357284551 -0.06423723360187039
225042500.0 -2.4714187121264857 -0.16609790421279352
240042000.0 -2.512411217406384 -0.2626636834716151
255041500.0 -2.5767529839632743 -0.3541033657561356
270041000.0 -2.659366161765587 -0.43661237245843176
285040500.0 -2.7643143824923793 -0.5037580091363271
300040000.0 -2.902319958475095 -0.5533912655514367
315039500.0 -3.0508366477628956 -0.5748864592375547
330039000.0 -3.2145594270212374 -0.5504894462680903
345038500.0 -3.3834735119596715 -0.4944116524455199
360038000.0 -3.5307790458188575 -0.38089459372098783
375037500.0 -3.6520758644311546 -0.22224053330947513
390037000.0 -3.7047268452337216 -0.026552426053556823
405036500.0 -3.72611920922011 0.17824297697887068
420036000.0 -3.6649475300122907 0.37693101292827796
435035500.0 -3.5386619304611333 0.5460075449821311
450035000.0 -3.3905836675440413 0.6607543742784893
465034500.0 -3.2090643466805457 0.7215486250006153
480034000.0 -3.044618956391406 0.7459098052018147
495033500.0 -2.8803861639728443 0.7278316895503106
510033000.0 -2.7480384651234817 0.6835608511159286
525032500.0 -2.6274709993482888 0.6186085595475471
540032000.0 -2.5273462145396937 0.5385752732365319
555031500.0 -2.449377208259821 0.44423703758560007
570031000.0 -2.3880246214536935 0.3457908424989103
585030500.0 -2.348285738014876 0.24058069520524067
600030000.0 -2.3167595882717458 0.13274876394409724
615029500.0 -2.312836318177739 0.019342201441737115
630029000.0 -2.321972205965626 -0.08841335313970226
645028500.0 -2.3555819565701674 -0.19452156723356073
660028000.0 -2.4069359388595966 -0.2965548802709683
675027500.0 -2.4690743525534025 -0.3881299661827023
690027000.0 -2.558932532490715 -0.47790415738388836
705026500.0 -2.6688008815561037 -0.5322005901132197
720026000.0 -2.81134811253163 -0.5858331273702875
735025500.0 -2.962445609219657 -0.5978539812875662
750025000.0 -3.1243937886740265 -0.5738844208481377
765024500.0 -3.303753628823984 -0.5069906981103763
780024000.0 -3.445681077813689 -0.36824513982539836
795023500.0 -3.589844178079567 -0.2004330520965461
810023000.0 -3.659698975215101 -0.012096715958099653
825022500.0 -3.6524298691886288 0.22610281176199687
840022000.0 -3.5803827268806536 0.42583244115316066
855021500.0 -3.4508806454120284 0.593487070426016
870021000.0 -3.2657215535738073 0.659377750103949
885020500.0 -3.090167872141382 0.7279489103047085
900020000.0 -2.966873042898172 0.8392829584794671
915019500.0 -2.8149850968905383 0.795927169514986
930019000.0 -2.6556722078025325 0.7150760999226745
945018500.0 -2.576851449634333 0.6100108358741925
960018000.0 -2.44655503749822 0.5130312777207764
975017500.0 -2.3800620071439584 0.39270542306631506
990017000.0 -2.3521114611661735 0.2934250406236352
1005016500.0 -2.310047527534412 0.16353370421567384
1020016000.0 -2.2887777213028997 0.026898625102684096
1035015500.0 -2.2486272342022144 -0.09152762265641158
1050015000.0 -2.1979141587549327 -0.2204788730578042
1065014500.0 -2.2757491218138317 -0.3168883511551115
1080014000.0 -2.2835924898957094 -0.45432741228781043
1095013500.0 -2.342755366027899 -0.5642841551489195
1110013000.0 -2.4256355918748898 -0.6447059616459317
1125012500.0 -2.522476463597958 -0.714767332179124
1140012000.0 -2.665670738273472 -0.7380413993160957
1155011500.0 -2.706717960513578 -0.739103926151113
1170011000.0 -2.9881818976610672 -0.7267977286020604
1185010500.0 -3.1102048899469 -0.6912210078541313
1200010000.0 -3.362883299914983 -0.5556555751780097
1215009500.0 -3.4014761114233902 -0.32923995488819924
1230009000.0 -3.4963407519153193 -0.05466435006419785
1245008500.0 -3.477305625799488 0.16326128571438375
1260008000.0 -3.3560358934126366 0.36712098256361664
1275007500.0 -3.2319802704518863 0.5363651534388965
1290007000.0 -3.0392826511828073 0.5959358036007742
1305006500.0 -2.9205995413674115 0.5987918698422404
1320006000.0 -2.7161545344904368 0.5322408620790612
1335005500.0 -2.623574660221264 0.4266575806260923
1350005000.0 -2.4215196950418085 0.2776158426667502
1365004500.0 -2.404070671720508 -0.05258734872190172
1380004000.0 -2.2644025458839625 0.07914178885186629
1395003500.0 -2.1503068273963106 -0.12483183044371095
1410003000.0 -2.0501012536969405 -0.2894966400275559
1425002500.0 -2.006700983586808 -0.36469355620029137
1440002000.0 -1.9167205341834384 -0.5230305565402482
1455001500.0 -1.8784045905846403 -0.6701769491539125
1470001000.0 -1.8201604922468957 -0.6772434267838696
1485000500.0 -1.7606196696639629 -0.7569735224297282
1500000000.0 -1.7878424342742587 -0.7389552176289067
