! Created with skrf 1.8.0 (http://scikit-rf.org).
# Hz S RI R 50.0 
!freq ReS11 ImS11
50000.0 4.167482859855732 0.0039415681066410834
15049500.0 3.783134698589111 -1.4407427768402161
30049000.0 2.9993816289942887 -2.4519417482574637
45048500.0 2.0018097238769563 -3.0510741302436224
60048000.0 0.9977403453782023 -3.2534112454447266
75047500.0 0.10916415450135578 -3.150157030384953
90047000.0 -0.6388613777272738 -2.8307602567705885
105046500.0 -1.1865679556479047 -2.4291816917923215
120046000.0 -1.5757107515335802 -1.9821329626820756
135045500.0 -1.8384457738252493 -1.525013532019389
150045000.0 -2.0035233022135657 -1.0843470101302863
165044500.0 -2.0912283287278894 -0.6628200603955855
180044000.0 -2.1251357222550276 -0.26222345504930994
195043500.0 -2.108203548816373 0.12218831111305037
210043000.0 -2.0461719649637473 0.49686349115145023
225042500.0 -1.9402493089551902 0.869021584654813
240042000.0 -1.7808687325264532 1.242427177885185
255041500.0 -1.5591014421939626 1.6196506252688523
270041000.0 -1.2572022841156762 1.990627348943948
285040500.0 -0.8511940138782431 2.3359924873853917
300040000.0 -0.3717321416448701 2.637186593255638
315039500.0 0.2926175703811809 2.847362086969332
330039000.0 1.096141503306375 2.871703976543661
345038500.0 1.9616260179204936 2.6428480818346616
360038000.0 2.789113273555922 2.070248031238345
375037500.0 3.421941687692329 1.1779486092048996
390037000.0 3.664548677807213 0.055650362258621015
405036500.0 3.4982207615630676 -1.0906145067802506
420036000.0 2.883241525447822 -2.0502394562593063
435035500.0 1.9798918844583857 -2.6670111543989163
450035000.0 1.0087208410689232 -2.9100953980117312
465034500.0 0.15575422226168856 -2.7959952546138185
480034000.0 -0.5317175562765394 -2.4993856919117476
495033500.0 -1.0260344844173517 -2.084823251791856
510033000.0 -1.3493522701314753 -1.6565071608009658
525032500.0 -1.5446186868348935 -1.2303225985421913
540032000.0 -1.6326397796629764 -0.8396703085106518
555031500.0 -1.6547496608284036 -0.48989935194256756
570031000.0 -1.6313982491355399 -0.17679809645711544
585030500.0 -1.5787598759189128 0.09799608506281998
600030000.0 -1.4953708444156018 0.32484983620019775
615029500.0 -1.4021268866691248 0.5530120407475979
630029000.0 -1.2843215635457157 0.7703242545412814
645028500.0 -1.1523800702514284 0.9873983018557214
660028000.0 -0.9901024623337081 1.202635390046861
675027500.0 -0.7771154695822654 1.4053697497902222
690027000.0 -0.5315104813883077 1.5997235709369142
705026500.0 -0.1911309523807073 1.7637194132376837
720026000.0 0.19630815701270207 1.8927456471395698
735025500.0 0.683933153460503 1.9160454691903714
750025000.0 1.2182644358499113 1.7966196720132122
765024500.0 1.7819231618968474 1.4984857011878798
780024000.0 2.2439261282556817 0.9399925721351187
795023500.0 2.549734396133855 0.2219014298075268
810023000.0 2.5369655462664795 -0.5955990273879873
825022500.0 2.1706183779672994 -1.3815677062700837
840022000.0 1.569439722938032 -1.9304402505530207
855021500.0 0.8536875196753164 -2.183250288310661
870021000.0 0.20104416248236864 -2.1452471789270415
885020500.0 -0.3496526151407446 -1.9596632879949023
900020000.0 -0.8629866096191982 -1.6874215134578454
915019500.0 -1.1010450673075463 -1.3379091744582483
930019000.0 -1.2076556876463036 -1.0079038823471278
945018500.0 -1.2807780150454227 -0.7436834899111161
960018000.0 -1.2765066029719512 -0.47027450698212725
975017500.0 -1.2622159334282903 -0.2521913488180926
990017000.0 -1.2499890599021442 -0.05524117729895474
1005016500.0 -1.2044142588086777 0.11686181422861477
1020016000.0 -1.1642772086166204 0.2732679065665628
1035015500.0 -1.073426422679186 0.42912196425015
1050015000.0 -0.98950411659676 0.5291115940384903
1065014500.0 -0.9294456255600917 0.7583674288908482
1080014000.0 -0.8458539620169403 0.8944701059672728
1095013500.0 -0.7346806569063927 1.0754567603366452
1110013000.0 -0.5765476299493651 1.2703051786189896
1125012500.0 -0.3593225757315164 1.4308199132781552
1140012000.0 -0.022746277786017167 1.6290401079412238
1155011500.0 0.27861690599121663 1.6082147599084968
1170011000.0 0.8464022770441709 1.7295648947030486
1185010500.0 1.2913166254663804 1.5406729352264261
1200010000.0 1.8928753841976624 1.1775906587714982
1215009500.0 2.170298554555608 0.504110037248107
1230009000.0 2.3094444474763645 -0.30055747748712575
1245008500.0 2.076166643380517 -1.0421791437110735
1260008000.0 1.4730611352317737 -1.5763557571235565
1275007500.0 0.8361530690379732 -1.9203999901486846
1290007000.0 0.2289783323811873 -1.8862929368579
1305006500.0 -0.28871150106006505 -1.8022547548608423
1320006000.0 -0.6141339388186929 -1.5617852589887742
1335005500.0 -0.8699478428705731 -1.3546601736839379
1350005000.0 -0.9651084385064785 -1.0615468062712745
1365004500.0 -1.0290009998717404 -1.0689762328780668
1380004000.0 -1.274335921382723 -0.6413864587929233
1395003500.0 -1.2552503827456656 -0.5320262306635043
1410003000.0 -1.277368446630968 -0.4060433624680456
1425002500.0 -1.3077817070418318 -0.23231076746636212
1440002000.0 -1.2730065164940816 -0.17632877751583745
1455001500.0 -1.2665966108088185 -0.04838614107100695
1470001000.0 -1.1849503280266518 0.10450657650176995
1485000500.0 -1.1395899280684774 0.21334073273683482
1500000000.0 -0.9804568875082391 0.41764813679256757
