! Created with skrf 1.8.0 (http://scikit-rf.org).
# Hz S RI R 50.0 
!freq ReS11 ImS11 ReS21 ImS21 ReS12 ImS12 ReS22 ImS22
50000.0 0.0 0.0 -1.6945e-05 2.1186e-05 0.0 0.0 0.0 0.0
15049500.0 0.0 0.0 -2.9143e-05 -1.0973e-05 0.0 0.0 0.0 0.0
30049000.0 0.0 0.0 -3.544e-06 -1.223e-05 0.0 0.0 0.0 0.0
45048500.0 0.0 0.0 -4.42e-05 -4.16e-05 0.0 0.0 0.0 0.0
60048000.0 0.0 0.0 1.1669e-05 -1.588e-05 0.0 0.0 0.0 0.0
75047500.0 0.0 0.0 -5.6044e-05 -1.1426e-05 0.0 0.0 0.0 0.0
90047000.0 0.0 0.0 -5.4389e-05 -2.5504e-05 0.0 0.0 0.0 0.0
105046500.0 0.0 0.0 -2.4833e-05 1.5944e-05 0.0 0.0 0.0 0.0
120046000.0 0.0 0.0 -8.62e-07 3.6487e-05 0.0 0.0 0.0 0.0
135045500.0 0.0 0.0 -1.8251e-05 1.363e-05 0.0 0.0 0.0 0.0
150045000.0 0.0 0.0 -2.0664e-05 3.0197e-05 0.0 0.0 0.0 0.0
165044500.0 0.0 0.0 -1.4864e-05 5.6011e-05 0.0 0.0 0.0 0.0
180044000.0 0.0 0.0 1.365e-06 4.5748e-05 0.0 0.0 0.0 0.0
195043500.0 0.0 0.0 -9.618e-06 5.0317e-05 0.0 0.0 0.0 0.0
210043000.0 0.0 0.0 -4.1549e-05 7.6503e-05 0.0 0.0 0.0 0.0
225042500.0 0.0 0.0 -2.519e-06 5.7669e-05 0.0 0.0 0.0 0.0
240042000.0 0.0 0.0 -8.35e-07 7.2137e-05 0.0 0.0 0.0 0.0
255041500.0 0.0 0.0 2.65e-06 6.7415e-05 0.0 0.0 0.0 0.0
270041000.0 0.0 0.0 3.1304e-05 4.9328e-05 0.0 0.0 0.0 0.0
285040500.0 0.0 0.0 3.6375e-05 3.601e-05 0.0 0.0 0.0 0.0
300040000.0 0.0 0.0 0.000495362 0.000430066 0.0 0.0 0.0 0.0
315039500.0 0.0 0.0 2.2907e-05 0.00013158 0.0 0.0 0.0 0.0
330039000.0 0.0 0.0 7.5511e-05 -1.27e-07 0.0 0.0 0.0 0.0
345038500.0 0.0 0.0 -2.2233e-05 -0.000133523 0.0 0.0 0.0 0.0
360038000.0 0.0 0.0 0.000106056 0.000261697 0.0 0.0 0.0 0.0
375037500.0 0.0 0.0 -0.000267439 1.3392e-05 0.0 0.0 0.0 0.0
390037000.0 0.0 0.0 0.000182969 0.000151186 0.0 0.0 0.0 0.0
405036500.0 0.0 0.0 -3.0661e-05 -0.000129211 0.0 0.0 0.0 0.0
420036000.0 0.0 0.0 0.000299487 -0.000363945 0.0 0.0 0.0 0.0
435035500.0 0.0 0.0 -7.9887e-05 -5.554e-06 0.0 0.0 0.0 0.0
450035000.0 0.0 0.0 0.000374676 -0.000196107 0.0 0.0 0.0 0.0
465034500.0 0.0 0.0 0.000186573 3.735e-05 0.0 0.0 0.0 0.0
480034000.0 0.0 0.0 -5.2194e-05 -6.1857e-05 0.0 0.0 0.0 0.0
495033500.0 0.0 0.0 0.000545958 -9.9618e-05 0.0 0.0 0.0 0.0
510033000.0 0.0 0.0 0.00041516 -0.000260967 0.0 0.0 0.0 0.0
525032500.0 0.0 0.0 0.000493379 -0.000317755 0.0 0.0 0.0 0.0
540032000.0 0.0 0.0 0.000197398 -0.000341411 0.0 0.0 0.0 0.0
555031500.0 0.0 0.0 -0.000187898 -0.000285313 0.0 0.0 0.0 0.0
570031000.0 0.0 0.0 0.000179408 -0.000141192 0.0 0.0 0.0 0.0
585030500.0 0.0 0.0 -0.000189178 -0.00030099 0.0 0.0 0.0 0.0
600030000.0 0.0 0.0 -0.00013142 -0.000603973 0.0 0.0 0.0 0.0
615029500.0 0.0 0.0 0.000464608 -0.000783998 0.0 0.0 0.0 0.0
630029000.0 0.0 0.0 0.000216348 -0.00080578 0.0 0.0 0.0 0.0
645028500.0 0.0 0.0 -0.000167186 -0.00035631 0.0 0.0 0.0 0.0
660028000.0 0.0 0.0 0.00018244 -0.000513566 0.0 0.0 0.0 0.0
675027500.0 0.0 0.0 -0.000117442 -0.000374448 0.0 0.0 0.0 0.0
690027000.0 0.0 0.0 2.1e-05 -0.00013862 0.0 0.0 0.0 0.0
705026500.0 0.0 0.0 9.5783e-05 7.3612e-05 0.0 0.0 0.0 0.0
720026000.0 0.0 0.0 -5.729e-06 -0.000418482 0.0 0.0 0.0 0.0
735025500.0 0.0 0.0 2.3874e-05 -0.000372726 0.0 0.0 0.0 0.0
750025000.0 0.0 0.0 -7.5993e-05 -0.000722326 0.0 0.0 0.0 0.0
765024500.0 0.0 0.0 0.000127772 -0.000922076 0.0 0.0 0.0 0.0
780024000.0 0.0 0.0 1.7471e-05 -0.000255827 0.0 0.0 0.0 0.0
795023500.0 0.0 0.0 -0.00024074 -0.000630116 0.0 0.0 0.0 0.0
810023000.0 0.0 0.0 -0.000184252 -0.000584306 0.0 0.0 0.0 0.0
825022500.0 0.0 0.0 -0.000230386 -0.000974205 0.0 0.0 0.0 0.0
840022000.0 0.0 0.0 -5.4142e-05 -0.000775629 0.0 0.0 0.0 0.0
855021500.0 0.0 0.0 -0.000387719 -0.000621414 0.0 0.0 0.0 0.0
870021000.0 0.0 0.0 -0.000111783 -0.000583261 0.0 0.0 0.0 0.0
885020500.0 0.0 0.0 -0.000555878 -2.5853e-05 0.0 0.0 0.0 0.0
900020000.0 0.0 0.0 0.002013001 0.000704937 0.0 0.0 0.0 0.0
915019500.0 0.0 0.0 0.000762841 -0.000159095 0.0 0.0 0.0 0.0
930019000.0 0.0 0.0 0.001025467 -0.000672427 0.0 0.0 0.0 0.0
945018500.0 0.0 0.0 7.3037e-05 -0.000575046 0.0 0.0 0.0 0.0
960018000.0 0.0 0.0 -1.0207e-05 0.000182075 0.0 0.0 0.0 0.0
975017500.0 0.0 0.0 0.000947461 -0.000509262 0.0 0.0 0.0 0.0
990017000.0 0.0 0.0 -0.00102895 -0.00269799 0.0 0.0 0.0 0.0
1005016500.0 0.0 0.0 -0.001296241 0.000533895 0.0 0.0 0.0 0.0
1020016000.0 0.0 0.0 -0.000315804 -0.000652007 0.0 0.0 0.0 0.0
1035015500.0 0.0 0.0 -0.002616937 -0.002600237 0.0 0.0 0.0 0.0
1050015000.0 0.0 0.0 0.000355782 -0.000385003 0.0 0.0 0.0 0.0
1065014500.0 0.0 0.0 0.003614387 -0.000663812 0.0 0.0 0.0 0.0
1080014000.0 0.0 0.0 0.000529064 0.000289921 0.0 0.0 0.0 0.0
1095013500.0 0.0 0.0 2.9103e-05 -0.002519923 0.0 0.0 0.0 0.0
1110013000.0 0.0 0.0 0.00149746 -0.002336452 0.0 0.0 0.0 0.0
1125012500.0 0.0 0.0 -0.001270355 -0.003856991 0.0 0.0 0.0 0.0
1140012000.0 0.0 0.0 -0.002120217 0.000179587 0.0 0.0 0.0 0.0
1155011500.0 0.0 0.0 -0.002375745 -0.002541182 0.0 0.0 0.0 0.0
1170011000.0 0.0 0.0 -0.00087048 0.000520384 0.0 0.0 0.0 0.0
1185010500.0 0.0 0.0 -0.004882067 0.002311171 0.0 0.0 0.0 0.0
1200010000.0 0.0 0.0 -0.000988486 -0.001563388 0.0 0.0 0.0 0.0
1215009500.0 0.0 0.0 0.003948468 -0.000878125 0.0 0.0 0.0 0.0
1230009000.0 0.0 0.0 -0.000818295 0.001472154 0.0 0.0 0.0 0.0
1245008500.0 0.0 0.0 -0.001716921 -0.000533812 0.0 0.0 0.0 0.0
1260008000.0 0.0 0.0 0.003958455 0.005310692 0.0 0.0 0.0 0.0
1275007500.0 0.0 0.0 0.002836496 -0.005534806 0.0 0.0 0.0 0.0
1290007000.0 0.0 0.0 -0.002058389 0.001206303 0.0 0.0 0.0 0.0
1305006500.0 0.0 0.0 0.001380568 0.010477244 0.0 0.0 0.0 0.0
1320006000.0 0.0 0.0 0.001666254 -0.001750279 0.0 0.0 0.0 0.0
1335005500.0 0.0 0.0 -0.001892492 0.011194512 0.0 0.0 0.0 0.0
1350005000.0 0.0 0.0 0.006836079 -0.004216047 0.0 0.0 0.0 0.0
1365004500.0 0.0 0.0 0.003303062 0.008693722 0.0 0.0 0.0 0.0
1380004000.0 0.0 0.0 0.001689217 0.002521718 0.0 0.0 0.0 0.0
1395003500.0 0.0 0.0 -0.000925872 -0.001309392 0.0 0.0 0.0 0.0
1410003000.0 0.0 0.0 -0.002045145 0.008175841 0.0 0.0 0.0 0.0
1425002500.0 0.0 0.0 0.004530613 0.008294623 0.0 0.0 0.0 0.0
1440002000.0 0.0 0.0 -0.005419086 0.00969001 0.0 0.0 0.0 0.0
1455001500.0 0.0 0.0 0.010407016 0.021924652 0.0 0.0 0.0 0.0
1470001000.0 0.0 0.0 0.00670728 -0.005894067 0.0 0.0 0.0 0.0
1485000500.0 0.0 0.0 0.000269179 0.012304714 0.0 0.0 0.0 0.0
1500000000.0 0.0 0.0 -0.00080076 0.008025214 0.0 0.0 0.0 0.0
