! Created with skrf 1.8.0 (http://scikit-rf.org).
# Hz S RI R 50.0 
!freq ReS11 ImS11 ReS21 ImS21 ReS12 ImS12 ReS22 ImS22
50000.0 0.0 0.0 -0.815392064 -0.015002806 0.0 0.0 0.0 0.0
15049500.0 0.0 0.0 -0.78586688 0.200027568 0.0 0.0 0.0 0.0
30049000.0 0.0 0.0 -0.716261248 0.374972128 0.0 0.0 0.0 0.0
45048500.0 0.0 0.0 -0.607781504 0.528709696 0.0 0.0 0.0 0.0
60048000.0 0.0 0.0 -0.469531136 0.651790144 0.0 0.0 0.0 0.0
75047500.0 0.0 0.0 -0.309308896 0.73747808 0.0 0.0 0.0 0.0
90047000.0 0.0 0.0 -0.127419232 0.78367552 0.0 0.0 0.0 0.0
105046500.0 0.0 0.0 0.052950628 0.791038016 0.0 0.0 0.0 0.0
120046000.0 0.0 0.0 0.22668416 0.758060864 0.0 0.0 0.0 0.0
135045500.0 0.0 0.0 0.388353792 0.687357696 0.0 0.0 0.0 0.0
150045000.0 0.0 0.0 0.53069152 0.583479104 0.0 0.0 0.0 0.0
165044500.0 0.0 0.0 0.645350272 0.450693216 0.0 0.0 0.0 0.0
180044000.0 0.0 0.0 0.729096256 0.297589856 0.0 0.0 0.0 0.0
195043500.0 0.0 0.0 0.777143872 0.129018592 0.0 0.0 0.0 0.0
210043000.0 0.0 0.0 0.785964288 -0.047010748 0.0 0.0 0.0 0.0
225042500.0 0.0 0.0 0.75459072 -0.220824608 0.0 0.0 0.0 0.0
240042000.0 0.0 0.0 0.683693184 -0.38401392 0.0 0.0 0.0 0.0
255041500.0 0.0 0.0 0.577808576 -0.525639712 0.0 0.0 0.0 0.0
270041000.0 0.0 0.0 0.441993664 -0.639374976 0.0 0.0 0.0 0.0
285040500.0 0.0 0.0 0.2844512 -0.718433088 0.0 0.0 0.0 0.0
300040000.0 0.0 0.0 0.131337088 -0.760804416 0.0 0.0 0.0 0.0
315039500.0 0.0 0.0 -0.040277892 -0.766270848 0.0 0.0 0.0 0.0
330039000.0 0.0 0.0 -0.207776016 -0.735919616 0.0 0.0 0.0 0.0
345038500.0 0.0 0.0 -0.365864192 -0.670823104 0.0 0.0 0.0 0.0
360038000.0 0.0 0.0 -0.50225408 -0.574191424 0.0 0.0 0.0 0.0
375037500.0 0.0 0.0 -0.615752128 -0.448206848 0.0 0.0 0.0 0.0
390037000.0 0.0 0.0 -0.699122112 -0.303388832 0.0 0.0 0.0 0.0
405036500.0 0.0 0.0 -0.7430016 -0.14262488 0.0 0.0 0.0 0.0
420036000.0 0.0 0.0 -0.749930112 0.022725492 0.0 0.0 0.0 0.0
435035500.0 0.0 0.0 -0.716206656 0.187707392 0.0 0.0 0.0 0.0
450035000.0 0.0 0.0 -0.643593664 0.338791584 0.0 0.0 0.0 0.0
465034500.0 0.0 0.0 -0.538168576 0.473589504 0.0 0.0 0.0 0.0
480034000.0 0.0 0.0 -0.41274368 0.571697024 0.0 0.0 0.0 0.0
495033500.0 0.0 0.0 -0.269453184 0.641270848 0.0 0.0 0.0 0.0
510033000.0 0.0 0.0 -0.119804704 0.678396672 0.0 0.0 0.0 0.0
525032500.0 0.0 0.0 0.029712728 0.681765504 0.0 0.0 0.0 0.0
540032000.0 0.0 0.0 0.175662944 0.65377408 0.0 0.0 0.0 0.0
555031500.0 0.0 0.0 0.311523776 0.597881536 0.0 0.0 0.0 0.0
570031000.0 0.0 0.0 0.431721792 0.514235968 0.0 0.0 0.0 0.0
585030500.0 0.0 0.0 0.53380512 0.409766944 0.0 0.0 0.0 0.0
600030000.0 0.0 0.0 0.612778432 0.291910336 0.0 0.0 0.0 0.0
615029500.0 0.0 0.0 0.66099712 0.149418176 0.0 0.0 0.0 0.0
630029000.0 0.0 0.0 0.67648992 -0.001800395 0.0 0.0 0.0 0.0
645028500.0 0.0 0.0 0.656218944 -0.153531536 0.0 0.0 0.0 0.0
660028000.0 0.0 0.0 0.601049728 -0.296464416 0.0 0.0 0.0 0.0
675027500.0 0.0 0.0 0.515434336 -0.421921184 0.0 0.0 0.0 0.0
690027000.0 0.0 0.0 0.403752384 -0.521524192 0.0 0.0 0.0 0.0
705026500.0 0.0 0.0 0.274942656 -0.590416704 0.0 0.0 0.0 0.0
720026000.0 0.0 0.0 0.136588752 -0.630630208 0.0 0.0 0.0 0.0
735025500.0 0.0 0.0 0.001361428 -0.636655552 0.0 0.0 0.0 0.0
750025000.0 0.0 0.0 -0.13680496 -0.61644032 0.0 0.0 0.0 0.0
765024500.0 0.0 0.0 -0.262627536 -0.56827424 0.0 0.0 0.0 0.0
780024000.0 0.0 0.0 -0.368959552 -0.483395104 0.0 0.0 0.0 0.0
795023500.0 0.0 0.0 -0.473381632 -0.401042624 0.0 0.0 0.0 0.0
810023000.0 0.0 0.0 -0.547271744 -0.28785552 0.0 0.0 0.0 0.0
825022500.0 0.0 0.0 -0.597212544 -0.157063952 0.0 0.0 0.0 0.0
840022000.0 0.0 0.0 -0.615767488 -0.019557056 0.0 0.0 0.0 0.0
855021500.0 0.0 0.0 -0.603699648 0.119637704 0.0 0.0 0.0 0.0
870021000.0 0.0 0.0 -0.56101824 0.251644464 0.0 0.0 0.0 0.0
885020500.0 0.0 0.0 -0.4912688 0.372139712 0.0 0.0 0.0 0.0
900020000.0 0.0 0.0 -0.373277088 0.47901072 0.0 0.0 0.0 0.0
915019500.0 0.0 0.0 -0.261185648 0.536804256 0.0 0.0 0.0 0.0
930019000.0 0.0 0.0 -0.134915584 0.582109312 0.0 0.0 0.0 0.0
945018500.0 0.0 0.0 -0.011492238 0.599536576 0.0 0.0 0.0 0.0
960018000.0 0.0 0.0 0.113063664 0.593454208 0.0 0.0 0.0 0.0
975017500.0 0.0 0.0 0.2363564 0.563728 0.0 0.0 0.0 0.0
990017000.0 0.0 0.0 0.349470336 0.49905728 0.0 0.0 0.0 0.0
1005016500.0 0.0 0.0 0.458520384 0.42478448 0.0 0.0 0.0 0.0
1020016000.0 0.0 0.0 0.546987584 0.320006912 0.0 0.0 0.0 0.0
1035015500.0 0.0 0.0 0.616408064 0.197284688 0.0 0.0 0.0 0.0
1050015000.0 0.0 0.0 0.650636736 0.046834784 0.0 0.0 0.0 0.0
1065014500.0 0.0 0.0 0.665981184 -0.097238176 0.0 0.0 0.0 0.0
1080014000.0 0.0 0.0 0.639788416 -0.25507688 0.0 0.0 0.0 0.0
1095013500.0 0.0 0.0 0.565161728 -0.406659008 0.0 0.0 0.0 0.0
1110013000.0 0.0 0.0 0.457927136 -0.533559808 0.0 0.0 0.0 0.0
1125012500.0 0.0 0.0 0.326771904 -0.62715936 0.0 0.0 0.0 0.0
1140012000.0 0.0 0.0 0.17052896 -0.690229504 0.0 0.0 0.0 0.0
1155011500.0 0.0 0.0 0.006263081 -0.745012032 0.0 0.0 0.0 0.0
1170011000.0 0.0 0.0 -0.158925184 -0.713619968 0.0 0.0 0.0 0.0
1185010500.0 0.0 0.0 -0.322550912 -0.677544256 0.0 0.0 0.0 0.0
1200010000.0 0.0 0.0 -0.460907616 -0.608167232 0.0 0.0 0.0 0.0
1215009500.0 0.0 0.0 -0.6075232 -0.509962432 0.0 0.0 0.0 0.0
1230009000.0 0.0 0.0 -0.72267584 -0.37229616 0.0 0.0 0.0 0.0
1245008500.0 0.0 0.0 -0.818124672 -0.212832768 0.0 0.0 0.0 0.0
1260008000.0 0.0 0.0 -0.851214976 -0.020084602 0.0 0.0 0.0 0.0
1275007500.0 0.0 0.0 -0.871393344 0.15623952 0.0 0.0 0.0 0.0
1290007000.0 0.0 0.0 -0.825275584 0.349720672 0.0 0.0 0.0 0.0
1305006500.0 0.0 0.0 -0.741703168 0.529394496 0.0 0.0 0.0 0.0
1320006000.0 0.0 0.0 -0.607008128 0.689259136 0.0 0.0 0.0 0.0
1335005500.0 0.0 0.0 -0.449048416 0.812378688 0.0 0.0 0.0 0.0
1350005000.0 0.0 0.0 -0.254604816 0.900935616 0.0 0.0 0.0 0.0
1365004500.0 0.0 0.0 -0.051858848 0.9383328 0.0 0.0 0.0 0.0
1380004000.0 0.0 0.0 0.134973504 0.931839808 0.0 0.0 0.0 0.0
1395003500.0 0.0 0.0 0.312017792 0.898364416 0.0 0.0 0.0 0.0
1410003000.0 0.0 0.0 0.483659648 0.83405728 0.0 0.0 0.0 0.0
1425002500.0 0.0 0.0 0.64562912 0.748821888 0.0 0.0 0.0 0.0
1440002000.0 0.0 0.0 0.783585536 0.615295296 0.0 0.0 0.0 0.0
1455001500.0 0.0 0.0 0.8945072 0.479236736 0.0 0.0 0.0 0.0
1470001000.0 0.0 0.0 1.004791856 0.293438016 0.0 0.0 0.0 0.0
1485000500.0 0.0 0.0 1.041329384 0.084013168 0.0 0.0 0.0 0.0
1500000000.0 0.0 0.0 1.031971216 -0.099387016 0.0 0.0 0.0 0.0
