! Created with skrf 1.8.0 (http://scikit-rf.org).
# Hz S RI R 50.0 
!freq ReS11 ImS11 ReS21 ImS21 ReS12 ImS12 ReS22 ImS22
50000.0 0.0 0.0 -0.00011429901680406107 -0.0002476166074753973 0.0 0.0 0.0 0.0
4049500.0 0.0 0.0 -2.209778025317224e-05 -3.820197361722413e-06 0.0 0.0 0.0 0.0
8049000.0 0.0 0.0 5.396094282417198e-05 -2.0986872433176977e-05 0.0 0.0 0.0 0.0
12048500.0 0.0 0.0 5.7315125581108415e-05 2.584584486182976e-05 0.0 0.0 0.0 0.0
16048000.0 0.0 0.0 3.745847279636417e-05 3.6105800209440656e-05 0.0 0.0 0.0 0.0
20047500.0 0.0 0.0 3.4603765290026175e-05 3.344036346621819e-05 0.0 0.0 0.0 0.0
24047000.0 0.0 0.0 3.1999379250096974e-05 -7.87963302498686e-06 0.0 0.0 0.0 0.0
28046500.0 0.0 0.0 4.129230739758695e-05 7.0739758822875574e-06 0.0 0.0 0.0 0.0
32046000.0 0.0 0.0 3.452692007780145e-05 3.981161155920608e-05 0.0 0.0 0.0 0.0
36045500.0 0.0 0.0 2.2014216058225567e-05 3.636205224326266e-05 0.0 0.0 0.0 0.0
40045000.0 0.0 0.0 4.374010111303877e-05 2.5008397522055358e-05 0.0 0.0 0.0 0.0
44044500.0 0.0 0.0 -1.102671467582558e-05 5.496850396779899e-05 0.0 0.0 0.0 0.0
48044000.0 0.0 0.0 7.757009092711991e-05 3.440628694814872e-05 0.0 0.0 0.0 0.0
52043500.0 0.0 0.0 1.0205053791165129e-05 2.4464557570481964e-05 0.0 0.0 0.0 0.0
56043000.0 0.0 0.0 9.349804479046103e-06 -1.4285007112480182e-05 0.0 0.0 0.0 0.0
60042500.0 0.0 0.0 4.847026160723768e-05 5.229548489808599e-05 0.0 0.0 0.0 0.0
64042000.0 0.0 0.0 1.4540010416406874e-05 8.691469600758422e-05 0.0 0.0 0.0 0.0
68041500.0 0.0 0.0 4.417049149698844e-06 -2.018000232430969e-05 0.0 0.0 0.0 0.0
72041000.0 0.0 0.0 4.771252677881333e-06 6.212682149348871e-05 0.0 0.0 0.0 0.0
76040500.0 0.0 0.0 3.047152820670454e-07 3.425523425108745e-05 0.0 0.0 0.0 0.0
80040000.0 0.0 0.0 3.334268001889409e-05 -1.869879983201171e-05 0.0 0.0 0.0 0.0
84039500.0 0.0 0.0 -3.20048161970924e-05 4.3313417853943724e-05 0.0 0.0 0.0 0.0
88039000.0 0.0 0.0 2.128965967947561e-05 4.1339837490393094e-05 0.0 0.0 0.0 0.0
92038500.0 0.0 0.0 1.8080542814560712e-05 2.425864710841965e-05 0.0 0.0 0.0 0.0
96038000.0 0.0 0.0 1.0693137344738991e-05 1.1376904927375827e-05 0.0 0.0 0.0 0.0
100037500.0 0.0 0.0 -8.265493090725235e-06 7.86908351777205e-05 0.0 0.0 0.0 0.0
104037000.0 0.0 0.0 2.6104944947655168e-05 7.387503769393213e-05 0.0 0.0 0.0 0.0
108036500.0 0.0 0.0 -2.0413139800501644e-06 2.104460319144021e-06 0.0 0.0 0.0 0.0
112036000.0 0.0 0.0 2.4234555300209473e-05 4.8414532006424355e-05 0.0 0.0 0.0 0.0
116035500.0 0.0 0.0 3.764925254693609e-05 7.054084144420895e-05 0.0 0.0 0.0 0.0
120035000.0 0.0 0.0 -6.373713405311209e-06 1.1011104686949268e-05 0.0 0.0 0.0 0.0
124034500.0 0.0 0.0 -2.3987060744120033e-05 5.628655738147338e-05 0.0 0.0 0.0 0.0
128034000.0 0.0 0.0 1.0289471438253172e-05 3.120823119821711e-05 0.0 0.0 0.0 0.0
132033500.0 0.0 0.0 -1.3902287797829744e-05 2.290904445816792e-05 0.0 0.0 0.0 0.0
136033000.0 0.0 0.0 1.829344681394563e-06 7.324360719569083e-05 0.0 0.0 0.0 0.0
140032500.0 0.0 0.0 1.2965994078566214e-05 1.651628358785916e-05 0.0 0.0 0.0 0.0
144032000.0 0.0 0.0 -3.470895039107789e-05 7.128878742656307e-05 0.0 0.0 0.0 0.0
148031500.0 0.0 0.0 2.4019487867923626e-05 7.483847649145905e-05 0.0 0.0 0.0 0.0
152031000.0 0.0 0.0 1.4926868581227217e-05 2.5073364739475475e-05 0.0 0.0 0.0 0.0
156030500.0 0.0 0.0 9.785227424845816e-07 6.426724890830819e-05 0.0 0.0 0.0 0.0
160030000.0 0.0 0.0 -4.880490733144891e-05 5.5719971692102316e-05 0.0 0.0 0.0 0.0
164029500.0 0.0 0.0 -1.4882355222191098e-05 1.7331508908358824e-05 0.0 0.0 0.0 0.0
168029000.0 0.0 0.0 1.1634884213202547e-06 -4.995810213914626e-06 0.0 0.0 0.0 0.0
172028500.0 0.0 0.0 -2.9202769354558264e-05 7.180058915111567e-06 0.0 0.0 0.0 0.0
176028000.0 0.0 0.0 1.656690772699213e-05 -9.172160952187582e-07 0.0 0.0 0.0 0.0
180027500.0 0.0 0.0 -8.992301430408957e-06 1.1250158620422426e-05 0.0 0.0 0.0 0.0
184027000.0 0.0 0.0 -3.072787150399987e-05 -3.564841951382519e-05 0.0 0.0 0.0 0.0
188026500.0 0.0 0.0 -3.082452100887516e-05 3.290027996193063e-05 0.0 0.0 0.0 0.0
192026000.0 0.0 0.0 -2.7918765326208785e-05 6.163330742106969e-05 0.0 0.0 0.0 0.0
196025500.0 0.0 0.0 -4.983034102294488e-05 -1.5153047170025466e-05 0.0 0.0 0.0 0.0
200025000.0 0.0 0.0 2.778149769180718e-05 -2.804782579809195e-05 0.0 0.0 0.0 0.0
204024500.0 0.0 0.0 -4.120859289268305e-05 1.6427094350648622e-05 0.0 0.0 0.0 0.0
208024000.0 0.0 0.0 -5.575410879628319e-05 1.3825640322683682e-05 0.0 0.0 0.0 0.0
212023500.0 0.0 0.0 -2.9902084263682433e-05 -3.629327791323946e-05 0.0 0.0 0.0 0.0
216023000.0 0.0 0.0 -6.241570847858899e-05 3.0025482779062765e-05 0.0 0.0 0.0 0.0
220022500.0 0.0 0.0 -5.18531009306837e-05 2.1654737815829808e-05 0.0 0.0 0.0 0.0
224022000.0 0.0 0.0 -9.003248957452017e-06 -5.285737508987173e-07 0.0 0.0 0.0 0.0
228021500.0 0.0 0.0 -3.96917047355607e-05 1.9115683696511317e-05 0.0 0.0 0.0 0.0
232021000.0 0.0 0.0 -6.4022495714924e-05 -5.4190241217895565e-06 0.0 0.0 0.0 0.0
236020500.0 0.0 0.0 -8.142122166826846e-05 -6.523487012362859e-05 0.0 0.0 0.0 0.0
240020000.0 0.0 0.0 -9.387503987965213e-05 1.6962141362272614e-05 0.0 0.0 0.0 0.0
244019500.0 0.0 0.0 -3.2923260836903254e-05 -7.994683537528669e-06 0.0 0.0 0.0 0.0
248019000.0 0.0 0.0 -1.5716384629224886e-05 -2.1800573276550865e-05 0.0 0.0 0.0 0.0
252018500.0 0.0 0.0 -5.524004402978571e-05 -5.6443313586175434e-05 0.0 0.0 0.0 0.0
256018000.0 0.0 0.0 -5.413602758909368e-05 -3.5685434477849465e-05 0.0 0.0 0.0 0.0
260017500.0 0.0 0.0 -2.4162007662193942e-05 -4.1214871657353015e-05 0.0 0.0 0.0 0.0
264017000.0 0.0 0.0 -1.2547096522375054e-05 -2.7316882744160318e-05 0.0 0.0 0.0 0.0
268016500.0 0.0 0.0 -2.5815098968199303e-05 -5.285096323873459e-05 0.0 0.0 0.0 0.0
272016000.0 0.0 0.0 -5.094230686649414e-05 -6.403856866076836e-05 0.0 0.0 0.0 0.0
276015500.0 0.0 0.0 -3.0318095684094278e-05 -5.531653043250365e-05 0.0 0.0 0.0 0.0
280015000.0 0.0 0.0 -3.990643183000589e-05 -4.2676582789594255e-05 0.0 0.0 0.0 0.0
284014500.0 0.0 0.0 -5.297729414056638e-05 -5.31959745990607e-05 0.0 0.0 0.0 0.0
288014000.0 0.0 0.0 -3.685139416377263e-05 -8.471945569458213e-05 0.0 0.0 0.0 0.0
292013500.0 0.0 0.0 -2.7172337803576852e-06 -3.10062786800171e-05 0.0 0.0 0.0 0.0
296013000.0 0.0 0.0 -2.9059674203267427e-06 -8.288809867738553e-05 0.0 0.0 0.0 0.0
300012500.0 0.0 0.0 0.0001378688567736619 0.0005454100430739459 0.0 0.0 0.0 0.0
304012000.0 0.0 0.0 -9.758961061773616e-05 0.0004872057500773966 0.0 0.0 0.0 0.0
308011500.0 0.0 0.0 5.9405219422391204e-05 2.4432475629324892e-05 0.0 0.0 0.0 0.0
312011000.0 0.0 0.0 -0.00018143007555945345 2.9755193823784854e-05 0.0 0.0 0.0 0.0
316010500.0 0.0 0.0 -0.00044734182936617423 -0.0005099151059110965 0.0 0.0 0.0 0.0
320010000.0 0.0 0.0 -7.92747371779296e-05 -5.111707658278382e-05 0.0 0.0 0.0 0.0
324009500.0 0.0 0.0 0.000256090652354897 0.00016465344900561091 0.0 0.0 0.0 0.0
328009000.0 0.0 0.0 0.0006111187695028817 0.00029448849807298724 0.0 0.0 0.0 0.0
332008500.0 0.0 0.0 -0.0003743985722617388 0.00040457177430138587 0.0 0.0 0.0 0.0
336008000.0 0.0 0.0 -0.00019354237647379344 -0.00024167819297337616 0.0 0.0 0.0 0.0
340007500.0 0.0 0.0 -0.00023041491447035138 -0.0002179067166991891 0.0 0.0 0.0 0.0
344007000.0 0.0 0.0 -0.00010320725267447069 0.00015705144033846988 0.0 0.0 0.0 0.0
348006500.0 0.0 0.0 0.00010294363101495492 -0.00023686199636593628 0.0 0.0 0.0 0.0
352006000.0 0.0 0.0 -0.0005585441114284252 0.0007321161827508192 0.0 0.0 0.0 0.0
356005500.0 0.0 0.0 -0.00020814766574961567 -1.051505777379649e-05 0.0 0.0 0.0 0.0
360005000.0 0.0 0.0 -0.00025411002784739615 -0.0005906939780134852 0.0 0.0 0.0 0.0
364004500.0 0.0 0.0 -0.00032797420516577307 -0.0007482314209914466 0.0 0.0 0.0 0.0
368004000.0 0.0 0.0 -4.290341059443669e-05 0.0004367155956012622 0.0 0.0 0.0 0.0
372003500.0 0.0 0.0 -0.00019162972479291857 0.000538815541084136 0.0 0.0 0.0 0.0
376003000.0 0.0 0.0 0.0006264672527547886 9.669526622781399e-05 0.0 0.0 0.0 0.0
380002500.0 0.0 0.0 5.761813956663051e-05 -0.00035544109353010983 0.0 0.0 0.0 0.0
384002000.0 0.0 0.0 -0.00022361649649330087 -0.0004105800769083438 0.0 0.0 0.0 0.0
388001500.0 0.0 0.0 -0.0004941629329141707 -0.00045683306237909784 0.0 0.0 0.0 0.0
392001000.0 0.0 0.0 -0.0004497146152595197 -1.4549963126489892e-05 0.0 0.0 0.0 0.0
396000500.0 0.0 0.0 -4.6388773827750186e-05 -0.0006076343570073682 0.0 0.0 0.0 0.0
400000000.0 0.0 0.0 -0.000297988790748151 0.00012024671491751741 0.0 0.0 0.0 0.0
