! Created with skrf 1.8.0 (http://scikit-rf.org).
# Hz S RI R 50.0 
!freq ReS11 ImS11
50000.0 0.00851784 -0.00418149
15049500.0 0.01105164 0.000736339
30049000.0 0.01295919 -0.00013302
45048500.0 0.014856298 -0.001843338
60048000.0 0.01667394 -0.004337751
75047500.0 0.017923478 -0.007487884
90047000.0 0.019403532 -0.010886904
105046500.0 0.019882238 -0.015152296
120046000.0 0.019616386 -0.019669926
135045500.0 0.018740024 -0.02416717
150045000.0 0.016986696 -0.028705178
165044500.0 0.014433526 -0.032924206
180044000.0 0.011222068 -0.036728448
195043500.0 0.007357184 -0.039841732
210043000.0 0.00311329 -0.04217502
225042500.0 -0.001378902 -0.043661144
240042000.0 -0.0058901 -0.044338732
255041500.0 -0.010226552 -0.0441439
270041000.0 -0.014087806 -0.043191664
285040500.0 -0.017430736 -0.041472464
300040000.0 -0.01942186 -0.039108288
315039500.0 -0.020656848 -0.036952524
330039000.0 -0.021760606 -0.034955776
345038500.0 -0.021513868 -0.032307866
360038000.0 -0.020726608 -0.03017732
375037500.0 -0.01886603 -0.029089986
390037000.0 -0.016938052 -0.0277801
405036500.0 -0.014023148 -0.027844556
420036000.0 -0.011425952 -0.029105566
435035500.0 -0.007849731 -0.031042148
450035000.0 -0.005148717 -0.034091516
465034500.0 -0.002743958 -0.03806812
480034000.0 -0.002017078 -0.042421
495033500.0 -0.000991998 -0.048041184
510033000.0 -0.001622203 -0.053657188
525032500.0 -0.003103846 -0.059341332
540032000.0 -0.005028399 -0.064789704
555031500.0 -0.008993246 -0.07030288
570031000.0 -0.013413912 -0.075521384
585030500.0 -0.018131062 -0.079709384
600030000.0 -0.02442901 -0.084167368
615029500.0 -0.031285148 -0.086474752
630029000.0 -0.038149284 -0.08784932
645028500.0 -0.04466304 -0.088562896
660028000.0 -0.051626456 -0.087965144
675027500.0 -0.05845028 -0.085777416
690027000.0 -0.06386166 -0.082784128
705026500.0 -0.068803448 -0.079371792
720026000.0 -0.072426792 -0.074851208
735025500.0 -0.075423264 -0.070742544
750025000.0 -0.077612536 -0.066233648
765024500.0 -0.07842764 -0.061426452
780024000.0 -0.077336824 -0.058574288
795023500.0 -0.076005224 -0.053609204
810023000.0 -0.074726736 -0.050906312
825022500.0 -0.071292896 -0.04893112
840022000.0 -0.067237448 -0.047984836
855021500.0 -0.064335896 -0.047929232
870021000.0 -0.061227764 -0.050344644
885020500.0 -0.057216712 -0.05170484
900020000.0 -0.054468572 -0.057801508
915019500.0 -0.05426712 -0.061618364
930019000.0 -0.053250984 -0.06795496
945018500.0 -0.054574952 -0.07175508
960018000.0 -0.054549936 -0.078530784
975017500.0 -0.056303648 -0.08715888
990017000.0 -0.062727696 -0.092409456
1005016500.0 -0.066451864 -0.099239536
1020016000.0 -0.07015712 -0.103919744
1035015500.0 -0.0797064 -0.107684424
1050015000.0 -0.088417488 -0.11737384
1065014500.0 -0.096960488 -0.114732464
1080014000.0 -0.105396632 -0.116874296
1095013500.0 -0.12128992 -0.121105488
1110013000.0 -0.126885088 -0.113076984
1125012500.0 -0.141871232 -0.106395688
1140012000.0 -0.15004736 -0.099729232
1155011500.0 -0.160561136 -0.09653968
1170011000.0 -0.158264544 -0.093710728
1185010500.0 -0.166279968 -0.080732296
1200010000.0 -0.172063312 -0.07542472
1215009500.0 -0.172725472 -0.063016952
1230009000.0 -0.171230464 -0.058945076
1245008500.0 -0.17157728 -0.046629996
1260008000.0 -0.175309216 -0.045571008
1275007500.0 -0.170268832 -0.029724964
1290007000.0 -0.163548592 -0.038878508
1305006500.0 -0.15494712 -0.034028864
1320006000.0 -0.164147968 -0.035172232
1335005500.0 -0.153538304 -0.036611432
1350005000.0 -0.159184128 -0.034415976
1365004500.0 -0.159769488 -0.037873676
1380004000.0 -0.1496552 -0.036979992
1395003500.0 -0.156116608 -0.044815568
1410003000.0 -0.162372176 -0.040922452
1425002500.0 -0.170406096 -0.060332044
1440002000.0 -0.17038992 -0.07456876
1455001500.0 -0.18353176 -0.067884816
1470001000.0 -0.189199696 -0.062094096
1485000500.0 -0.204328976 -0.079505744
1500000000.0 -0.216747104 -0.076750736
