! Created with skrf 1.8.0 (http://scikit-rf.org).
# Hz S RI R 50.0 
!freq ReS11 ImS11
50000.0 0.99559808 -0.00037971
15049500.0 0.97833216 0.21949544
30049000.0 0.907512512 0.42706752
45048500.0 0.790357632 0.614157376
60048000.0 0.642749568 0.771885504
75047500.0 0.463437184 0.894861376
90047000.0 0.2483036 0.975963904
105046500.0 0.030742534 1.009334208
120046000.0 -0.189412288 0.993747264
135045500.0 -0.4015304 0.927756672
150045000.0 -0.599187328 0.820391296
165044500.0 -0.766258816 0.6683184
180044000.0 -0.892616256 0.48238624
195043500.0 -0.98165472 0.274321184
210043000.0 -1.020402194 0.04824022
225042500.0 -1.003226757 -0.183153584
240042000.0 -0.93854304 -0.407655616
255041500.0 -0.8217024 -0.610712832
270041000.0 -0.657803968 -0.7808608
285040500.0 -0.461364448 -0.913773312
300040000.0 -0.234717856 -0.966918912
315039500.0 -0.00891817 -1.011220574
330039000.0 0.219258624 -0.987893056
345038500.0 0.441648128 -0.91731776
360038000.0 0.637576256 -0.792634112
375037500.0 0.800863296 -0.635318784
390037000.0 0.940043264 -0.445421472
405036500.0 1.005676627 -0.236594128
420036000.0 1.047880768 -0.010395042
435035500.0 1.037459852 0.224354048
450035000.0 0.97121248 0.456795136
465034500.0 0.847977728 0.663671488
480034000.0 0.683189632 0.831683136
495033500.0 0.490478144 0.95978528
510033000.0 0.278653344 1.03855622
525032500.0 0.054719352 1.07378268
540032000.0 -0.164548256 1.052571176
555031500.0 -0.377765792 0.994223936
570031000.0 -0.569769344 0.892930304
585030500.0 -0.734731008 0.755756096
600030000.0 -0.881584128 0.597834432
615029500.0 -0.987312 0.4024576
630029000.0 -1.047204972 0.175026048
645028500.0 -1.051959632 -0.060045388
660028000.0 -1.005530238 -0.295897824
675027500.0 -0.906127552 -0.517356576
690027000.0 -0.757026944 -0.705051136
705026500.0 -0.559228288 -0.866758848
720026000.0 -0.334787232 -0.976006592
735025500.0 -0.07499876 -1.031180858
750025000.0 0.183637088 -1.024003744
765024500.0 0.44525104 -0.949074432
780024000.0 0.64177184 -0.854922432
795023500.0 0.873168576 -0.616547648
810023000.0 1.006706476 -0.388446656
825022500.0 1.093276024 -0.110805824
840022000.0 1.074237344 0.140508608
855021500.0 1.013906956 0.383060704
870021000.0 0.89962528 0.605533504
885020500.0 0.750701888 0.771797504
900020000.0 0.547970176 0.909260416
915019500.0 0.559274752 0.901270528
930019000.0 0.578390784 0.8856304
945018500.0 0.60775264 0.866694784
960018000.0 0.611344192 0.872953664
975017500.0 0.622593152 0.853037824
990017000.0 0.65688192 0.849724672
1005016500.0 0.681568384 0.84482368
1020016000.0 0.719449216 0.83079072
1035015500.0 0.7329312 0.809800576
1050015000.0 0.738823232 0.828260928
1065014500.0 0.77995296 0.7924928
1080014000.0 0.81386528 0.765492672
1095013500.0 0.837465728 0.752063552
1110013000.0 0.880471616 0.741730048
1125012500.0 0.901308096 0.71795776
1140012000.0 0.933513664 0.700243776
1155011500.0 0.964867136 0.641149696
1170011000.0 0.985346752 0.685308032
1185010500.0 0.998597248 0.62722816
1200010000.0 1.023450494 0.600263552
1215009500.0 1.066838384 0.5558768
1230009000.0 1.088038328 0.535940416
1245008500.0 1.134855264 0.509582112
1260008000.0 1.123399136 0.473393856
1275007500.0 1.192210432 0.42148064
1290007000.0 1.231978176 0.371030336
1305006500.0 1.24287832 0.3380616
1320006000.0 1.258729216 0.29214416
1335005500.0 1.274751776 0.21446464
1350005000.0 1.273968448 0.140652
1365004500.0 1.297302016 0.05729968
1380004000.0 1.284078592 0.070455792
1395003500.0 1.283247232 -0.01205785
1410003000.0 1.270340192 -0.07931692
1425002500.0 1.254272816 -0.133585112
1440002000.0 1.277128096 -0.152528656
1455001500.0 1.2481544 -0.204134064
1470001000.0 1.17387032 -0.28190656
1485000500.0 1.24944008 -0.347028512
1500000000.0 1.170846704 -0.40105616
