! Created with skrf 1.8.0 (http://scikit-rf.org).
# Hz S RI R 50.0 
!freq ReS11 ImS11
50000.0 0.666866624 -0.010432604
15049500.0 0.664219648 -0.041067444
30049000.0 0.66173408 -0.066549704
45048500.0 0.658316544 -0.091217136
60048000.0 0.653741568 -0.115382304
75047500.0 0.648131072 -0.138584768
90047000.0 0.641422208 -0.160447248
105046500.0 0.633989184 -0.183501632
120046000.0 0.626302784 -0.205845808
135045500.0 0.618186176 -0.227466896
150045000.0 0.607771904 -0.248381264
165044500.0 0.597462144 -0.268941568
180044000.0 0.586123264 -0.289475808
195043500.0 0.573953216 -0.309990816
210043000.0 0.5606896 -0.329296096
225042500.0 0.547155264 -0.348745536
240042000.0 0.532531456 -0.367688704
255041500.0 0.516627552 -0.386252256
270041000.0 0.500513248 -0.404304704
285040500.0 0.484117792 -0.420710528
300040000.0 0.469929728 -0.427368
315039500.0 0.454257696 -0.442707552
330039000.0 0.436304192 -0.45536896
345038500.0 0.420960768 -0.46892848
360038000.0 0.403692576 -0.4808608
375037500.0 0.385446176 -0.492367488
390037000.0 0.368593696 -0.502111488
405036500.0 0.351434336 -0.511583744
420036000.0 0.334785536 -0.52032
435035500.0 0.317100992 -0.526519648
450035000.0 0.29809072 -0.531295232
465034500.0 0.282240288 -0.539089472
480034000.0 0.263024096 -0.543805056
495033500.0 0.244949456 -0.550265024
510033000.0 0.228061872 -0.554939264
525032500.0 0.209555648 -0.55756928
540032000.0 0.19166224 -0.559540352
555031500.0 0.174831376 -0.562797184
570031000.0 0.157639584 -0.564305728
585030500.0 0.140573072 -0.56401856
600030000.0 0.127029984 -0.575079104
615029500.0 0.108284112 -0.574915968
630029000.0 0.092369464 -0.574604736
645028500.0 0.077022288 -0.575072064
660028000.0 0.06228588 -0.572795456
675027500.0 0.047865852 -0.57159616
690027000.0 0.031320446 -0.570953856
705026500.0 0.017028008 -0.567171008
720026000.0 0.001640398 -0.568264
735025500.0 -0.01072995 -0.56542176
750025000.0 -0.02503956 -0.561789056
765024500.0 -0.036198444 -0.561530752
780024000.0 -0.03382238 -0.557752
795023500.0 -0.059248988 -0.557787456
810023000.0 -0.072871464 -0.553759424
825022500.0 -0.084574728 -0.55226592
840022000.0 -0.095123712 -0.548806784
855021500.0 -0.101811776 -0.54854112
870021000.0 -0.114708368 -0.544813248
885020500.0 -0.128360104 -0.542541312
900020000.0 -0.123167576 -0.54503712
915019500.0 -0.13615992 -0.544204992
930019000.0 -0.143723024 -0.546083008
945018500.0 -0.154377232 -0.54898528
960018000.0 -0.165033872 -0.547619968
975017500.0 -0.171142256 -0.549525056
990017000.0 -0.185881552 -0.555881728
1005016500.0 -0.19992064 -0.562043392
1020016000.0 -0.205121728 -0.564415488
1035015500.0 -0.22117192 -0.567211008
1050015000.0 -0.249052224 -0.580164032
1065014500.0 -0.252301072 -0.5808592
1080014000.0 -0.271957696 -0.582661888
1095013500.0 -0.290039936 -0.583389824
1110013000.0 -0.31428288 -0.585276608
1125012500.0 -0.317374336 -0.574327616
1140012000.0 -0.350802592 -0.587321216
1155011500.0 -0.370137632 -0.57191584
1170011000.0 -0.413865024 -0.58596416
1185010500.0 -0.422123648 -0.583323456
1200010000.0 -0.447090656 -0.582958656
1215009500.0 -0.475992352 -0.573993152
1230009000.0 -0.490120032 -0.571875392
1245008500.0 -0.532356096 -0.574283264
1260008000.0 -0.550033344 -0.551877952
1275007500.0 -0.59063296 -0.555468416
1290007000.0 -0.629154176 -0.532777504
1305006500.0 -0.666515584 -0.528798816
1320006000.0 -0.697812672 -0.499802752
1335005500.0 -0.726278208 -0.478417728
1350005000.0 -0.770271616 -0.446278912
1365004500.0 -0.800633792 -0.42690112
1380004000.0 -0.819067584 -0.40564752
1395003500.0 -0.837534912 -0.35064576
1410003000.0 -0.845745536 -0.319434944
1425002500.0 -0.858272896 -0.25605344
1440002000.0 -0.882142272 -0.237010544
1455001500.0 -0.894760768 -0.207119456
1470001000.0 -0.90592288 -0.154976016
1485000500.0 -0.908984704 -0.119197264
1500000000.0 -0.935782976 -0.062749908
