! Created with skrf 1.8.0 (http://scikit-rf.org).
# Hz S RI R 50.0 
!freq ReS11 ImS11
1000.0 -0.825369152 -0.082829272
15000990.0 0.009624994 0.000131036
30000980.0 0.011092306 -0.001153825
45000970.0 0.012446394 -0.003019923
60000960.0 0.013663224 -0.005473825
75000950.0 0.01442779 -0.008468314
90000940.0 0.015258738 -0.011401594
105000930.0 0.015313704 -0.01512519
120000920.0 0.01479643 -0.018888602
135000910.0 0.013714704 -0.022676962
150000900.0 0.012247412 -0.026402222
165000890.0 0.010030216 -0.029805134
180000880.0 0.007310455 -0.032904722
195000870.0 0.004233631 -0.035410748
210000860.0 0.000816401 -0.037395088
225000850.0 -0.002696125 -0.038741656
240000840.0 -0.006237703 -0.039514468
255000830.0 -0.00966189 -0.0395232
270000820.0 -0.012720492 -0.039069856
285000810.0 -0.01524051 -0.038184284
300000800.0 -0.01674493 -0.036874576
315000790.0 -0.017841752 -0.035757192
330000780.0 -0.019510562 -0.03399726
345000770.0 -0.01892156 -0.033050858
360000760.0 -0.018484446 -0.03130494
375000750.0 -0.017499252 -0.03124525
390000740.0 -0.015424402 -0.031411778
405000730.0 -0.014543614 -0.031655524
420000720.0 -0.012440122 -0.032999106
435000710.0 -0.010811858 -0.034598072
450000700.0 -0.009433166 -0.036872616
465000690.0 -0.008329317 -0.040000576
480000680.0 -0.007669161 -0.043609308
495000670.0 -0.007451508 -0.047960888
510000660.0 -0.007935916 -0.052142896
525000650.0 -0.009441538 -0.056783856
540000640.0 -0.011737768 -0.06153328
555000630.0 -0.014752232 -0.065507212
570000620.0 -0.018628944 -0.069991656
585000610.0 -0.022334082 -0.07434168
600000600.0 -0.027480318 -0.076409352
615000590.0 -0.033077504 -0.078939648
630000580.0 -0.039446508 -0.080329608
645000570.0 -0.044223152 -0.081202608
660000560.0 -0.049877756 -0.080808352
675000550.0 -0.055179304 -0.079408432
690000540.0 -0.059666076 -0.0780438
705000530.0 -0.0646492 -0.074964192
720000520.0 -0.068114336 -0.071647856
735000510.0 -0.070876 -0.068964312
750000500.0 -0.07230028 -0.065282756
765000490.0 -0.07412672 -0.061264956
780000480.0 -0.0755238 -0.056664644
795000470.0 -0.074135752 -0.056058896
810000460.0 -0.073516864 -0.053156148
825000450.0 -0.070476 -0.052059544
840000440.0 -0.068939808 -0.050324048
855000430.0 -0.06651976 -0.050233636
870000420.0 -0.063969912 -0.051224484
885000410.0 -0.062344884 -0.05274528
900000400.0 -0.062119956 -0.055542888
915000390.0 -0.058000844 -0.059831608
930000380.0 -0.057182156 -0.064284884
945000370.0 -0.057970748 -0.06960168
960000360.0 -0.059260256 -0.073266712
975000350.0 -0.055251172 -0.079331952
990000340.0 -0.063428 -0.08384184
1005000330.0 -0.065749796 -0.089362248
1020000320.0 -0.070408912 -0.09543668
1035000310.0 -0.080603664 -0.100294264
1050000300.0 -0.086268208 -0.103903272
1065000290.0 -0.093325704 -0.108591552
1080000280.0 -0.101887192 -0.110797432
1095000270.0 -0.110823456 -0.110982928
1110000260.0 -0.117648712 -0.110269856
1125000250.0 -0.12855832 -0.105567608
1140000240.0 -0.144206416 -0.102420072
1155000230.0 -0.144665216 -0.095446352
1170000220.0 -0.14539168 -0.088692424
1185000210.0 -0.154201664 -0.07892184
1200000200.0 -0.157271232 -0.077963824
1215000190.0 -0.163013168 -0.070383384
1230000180.0 -0.169105504 -0.067230568
1245000170.0 -0.167980816 -0.054920208
1260000160.0 -0.167187248 -0.054905804
1275000150.0 -0.168687664 -0.048475124
1290000140.0 -0.164934608 -0.044004328
1305000130.0 -0.169005744 -0.035213492
1320000120.0 -0.166496704 -0.042708352
1335000110.0 -0.167804 -0.035158228
1350000100.0 -0.169858688 -0.035921948
1365000090.0 -0.1746512 -0.03846086
1380000080.0 -0.162315344 -0.03355518
1395000070.0 -0.163669504 -0.036798392
1410000060.0 -0.17517656 -0.038245632
1425000050.0 -0.167708416 -0.04991744
1440000040.0 -0.175956704 -0.051980488
1455000030.0 -0.181024208 -0.061794968
1470000020.0 -0.18382 -0.056354924
1485000010.0 -0.195771056 -0.052125964
1500000000.0 -0.210977184 -0.072591976
