! Created with skrf 1.8.0 (http://scikit-rf.org).
# Hz S RI R 50.0 
!freq ReS11 ImS11
50000.0 3.560219073608284e-05 -0.00018924647269381092
15049500.0 -2.1040970906341495e-05 2.7614349458086563e-05
30049000.0 7.444485208265711e-05 -0.00010540305886384847
45048500.0 0.0006448850519522816 -0.0004007005558309642
60048000.0 0.0003801411930613776 0.0001922242820250264
75047500.0 -0.0002755176328639029 -0.0004327729701663448
90047000.0 0.00047965100516881974 -0.0007384167048999852
105046500.0 0.00031114378429084115 -0.00021632381692119398
120046000.0 -0.0005017960491476598 -0.0007458758445810285
135045500.0 -1.159355540440605e-05 -4.1184957942530906e-05
150045000.0 -3.4317079068201072e-06 -1.657241191156441e-05
165044500.0 0.0005109257158363311 -0.0009663333567810507
180044000.0 0.00021110568365080096 3.8301073883645524e-05
195043500.0 -0.00016953425186017794 0.00029834793976208864
210043000.0 -0.0010148202729410333 -0.0009160935218804656
225042500.0 0.00044937438528288014 -0.0006443039100501042
240042000.0 0.00024215199979703595 -0.000387516086072229
255041500.0 0.00038629818541561036 8.564945427059473e-05
270041000.0 0.0023439819586605916 -0.001858736787158907
285040500.0 -0.00013460701770239933 -0.0009039227287380753
300040000.0 0.0020649593492924005 0.006978689140684275
315039500.0 -0.005244721437931651 -0.0012591943964666088
330039000.0 -0.00468797556267714 0.001636947062465802
345038500.0 0.0013902506248234974 0.005824893055903522
360038000.0 -0.003972451474270335 0.003923107723814723
375037500.0 0.0367488800324029 0.04466381058791181
390037000.0 0.00623559436561275 -0.0370473372340874
405036500.0 -0.0008713880772320172 -0.002959286084447585
420036000.0 0.001952772928135442 -0.017997464676759556
435035500.0 0.004512110583715566 0.010909050632185809
450035000.0 -0.002922655237036312 -0.00044245001536379346
465034500.0 -0.00467813520285836 -0.019712062548726313
480034000.0 -0.000882722047143473 -0.0009545391874694637
495033500.0 0.0027620378867348485 -0.002542747841484609
510033000.0 0.005314913196990166 -0.0017930276164301669
525032500.0 -0.0018293861492660987 0.0018296608009559542
540032000.0 0.02445180261169098 0.003113605284289461
555031500.0 -0.021296523721234823 0.02049427745846528
570031000.0 -0.0007542043772723156 0.002355662002079969
585030500.0 -0.001146337984879255 -0.004170353369423493
600030000.0 -0.0021853908262592036 -0.00010931491729994564
615029500.0 -0.002826653349568507 0.009306222770606306
630029000.0 0.004416847096294548 0.0013745126226722875
645028500.0 -0.008896318721082385 0.0009410649626614542
660028000.0 0.006055699385277959 0.007773073564009117
675027500.0 0.0034453087044991563 -0.004062264122686432
690027000.0 0.0014506002111415162 -0.000521526184422157
705026500.0 0.003426138609765612 -0.0016313831641420712
720026000.0 -0.007040850113649962 -0.00618495500170861
735025500.0 0.003234268221082179 -0.00443337991041459
750025000.0 -0.008871775025693664 -0.011364475737006925
765024500.0 0.006685162487588265 -0.009738404816361075
780024000.0 -0.07104507713230937 -0.15248417540788725
795023500.0 -0.003852730833077233 0.0069792989693793816
810023000.0 0.009328416649212442 0.01589296462722251
825022500.0 -0.002974625387726194 -0.007782870528766976
840022000.0 -0.0017635620872594518 -0.0092608411740242
855021500.0 0.017559690970092797 -0.012951808499901591
870021000.0 0.0005662463437368923 -0.0004283153017127612
885020500.0 0.010090542900949873 0.007306685608293275
900020000.0 -0.005073833690136014 0.011015983540643773
915019500.0 0.022866352135598865 -0.026885884145857433
930019000.0 -0.0007106349607085554 0.012197572058762863
945018500.0 0.0038386980070071255 0.0010610306602970502
960018000.0 0.06435540230029599 -0.038387542974462306
975017500.0 0.002781812022814215 -0.012081818512106596
990017000.0 -0.024536673199642717 0.03991474651758202
1005016500.0 -0.014818157580709363 0.0015556597440929921
1020016000.0 7.957336856613183e-05 -0.01104960044611503
1035015500.0 0.008147630008828448 0.014400908787938855
1050015000.0 0.05930003241956372 0.03523848012588422
1065014500.0 0.044554596979222864 0.024594592514888138
1080014000.0 0.004307591938689844 0.004567382200380792
1095013500.0 -0.002546818005902318 0.001588526194196986
1110013000.0 -0.0030241866269563526 -0.006304724726960452
1125012500.0 -0.004714376979611188 0.006831521342968185
1140012000.0 -0.004648241824465042 0.007856624562070933
1155011500.0 0.035726110708826836 0.011408036573922618
1170011000.0 -0.03481302358180758 0.04650858349792002
1185010500.0 -0.007949562224090942 0.004650364278210608
1200010000.0 -0.006727776436799529 -0.009295920905127836
1215009500.0 -0.09157439433791374 0.07452649184057131
1230009000.0 -0.03343492724246369 -0.20302801482436922
1245008500.0 -0.011420682024832898 -0.028634773820571457
1260008000.0 -0.004761087060948229 0.017099969225850317
1275007500.0 -0.001073086315509046 0.012245605128264501
1290007000.0 -0.001938624441773566 -0.017738883908613397
1305006500.0 0.006859084293527023 -0.000570940752284189
1320006000.0 0.0048440341109813895 0.004850196170817762
1335005500.0 0.005576084377436106 0.008748346585254592
1350005000.0 -0.006883672773953553 -0.0029598541374861943
1365004500.0 -0.04210586432026511 0.05445108883828767
1380004000.0 0.014190421982231591 -0.03213706895604773
1395003500.0 -0.019961260319031716 -0.02082425340847427
1410003000.0 -0.026129852452335192 0.03897410469323505
1425002500.0 -0.004033235699817278 0.06853007292205084
1440002000.0 -0.04661236794140862 0.07862501446737301
1455001500.0 0.09574289646359642 -0.10429890214399305
1470001000.0 -0.1668904779391812 -0.03770530762626651
1485000500.0 0.008688169548356694 -0.02059061129518808
1500000000.0 -0.011951901949183797 0.0022092794702953215
