! Created with skrf 1.8.0 (http://scikit-rf.org).
# Hz S RI R 50.0 
!freq ReS11 ImS11
1000.0 1.3475589468150342 1.1703197609510687
15000990.0 -0.14031709255136732 0.03765915338459298
30000980.0 -0.12569714107384253 0.07148804520836494
45000970.0 -0.10390131822254396 0.10024631440931497
60000960.0 -0.07628885025109455 0.12320883615022149
75000950.0 -0.04539045186302934 0.1390127115869828
90000940.0 -0.009641104958160064 0.14763827278633962
105000930.0 0.02533242716433526 0.1480941199393123
120000920.0 0.05922001463185584 0.13865841930790193
135000910.0 0.0917088089699013 0.12675874663674938
150000900.0 0.11602978287987503 0.10480750391048571
165000890.0 0.13655407165035024 0.07773565859065949
180000880.0 0.15014634074145602 0.0462568164054772
195000870.0 0.1566405320805747 0.012303073179307233
210000860.0 0.15487137745433927 -0.022341613204731138
225000850.0 0.14493693727080928 -0.05532853443137461
240000840.0 0.1275517410660732 -0.08479187728628254
255000830.0 0.10308259768510213 -0.10872157008140647
270000820.0 0.072233641666996 -0.1278298550560335
285000810.0 0.03902516878471287 -0.13921771819730883
300000800.0 0.0037471183483615447 -0.13513114493998685
315000790.0 -0.03754195263759117 -0.1352459461080583
330000780.0 -0.0716182537358452 -0.12224426022048117
345000770.0 -0.10149513583563849 -0.09933393684301096
360000760.0 -0.1287870466944558 -0.07246586949912101
375000750.0 -0.14630499976918226 -0.03876546328858384
390000740.0 -0.15663806248518394 0.0026235785733367983
405000730.0 -0.15888604150624616 0.034988996898160804
420000720.0 -0.15331744231190036 0.07189624454702291
435000710.0 -0.1363149276859173 0.10635310117547486
450000700.0 -0.1126462254087769 0.13590867387429068
465000690.0 -0.08047466068609224 0.15972155894491175
480000680.0 -0.045724067723465885 0.17728713296608758
495000670.0 -0.007441263309149719 0.1871343492345159
510000660.0 0.03181441973742789 0.18894549819260933
525000650.0 0.06836571683863318 0.18414425240869617
540000640.0 0.10367409965984951 0.16960524021596546
555000630.0 0.1370397163548227 0.149164232630423
570000620.0 0.1633846405523911 0.1200712722337073
585000610.0 0.18698781060668077 0.08169857210211925
600000600.0 0.19866715663232087 0.048081460863912004
615000590.0 0.2038362897709199 0.007167783731101429
630000580.0 0.1954723637056656 -0.031372196319240854
645000570.0 0.18385241441921818 -0.06773919423276868
660000560.0 0.1635651894049509 -0.10285582727209257
675000550.0 0.13084234568071113 -0.12726890061845583
690000540.0 0.10159778731859297 -0.14469553408050484
705000530.0 0.05931136922763178 -0.15614377507041846
720000520.0 0.017666205172049452 -0.15512397211901977
735000510.0 -0.01692944940472292 -0.14535161040844574
750000500.0 -0.05736841209086123 -0.12735894090077024
765000490.0 -0.0873704300877048 -0.10449742496920332
780000480.0 -0.11872060963299061 -0.07206900652157408
795000470.0 -0.13666708444224046 -0.03467223134780013
810000460.0 -0.1446117729129552 0.0035584776558943037
825000450.0 -0.14984395060278857 0.04542845103458987
840000440.0 -0.13510757796934994 0.08442067733210601
855000430.0 -0.12210067322155801 0.12018399697597258
870000420.0 -0.09561075827037317 0.15144899751931162
885000410.0 -0.057980082472723425 0.17279562202425922
900000400.0 -0.04826530350814948 0.21382491042475765
915000390.0 0.005820626560599652 0.20422356210852025
930000380.0 0.04146786209696577 0.19789944259571282
945000370.0 0.08343888213987755 0.18386602768678964
960000360.0 0.12523119467559063 0.16829283159304173
975000350.0 0.17366830603899608 0.15235144067891673
990000340.0 0.18653192939669877 0.09994711929064218
1005000330.0 0.21248555591311757 0.056628917453415424
1020000320.0 0.2270500404882261 0.011387627258781891
1035000310.0 0.2198002209529499 -0.03948175121952126
1050000300.0 0.21186496275188904 -0.07794219681152807
1065000290.0 0.20719049722010238 -0.130475057339978
1080000280.0 0.18951165194627728 -0.16130330535542473
1095000270.0 0.16636124948108139 -0.19290224725652624
1110000260.0 0.13300818821538782 -0.20544604478827874
1125000250.0 0.09625678245992995 -0.21829527081757272
1140000240.0 0.06057341187830387 -0.23197386484227991
1155000230.0 -0.004458611744702807 -0.20633754103510196
1170000220.0 -0.07029429854356421 -0.22527553786048943
1185000210.0 -0.07031665442005672 -0.15815112427322575
1200000200.0 -0.0993297901532639 -0.10447130668692947
1215000190.0 -0.10201823191269095 -0.06842911843786395
1230000180.0 -0.11127940501310662 -0.012737789789015363
1245000170.0 -0.11983961526083804 0.017779084585987332
1260000160.0 -0.09792767579953603 0.07900941185436273
1275000150.0 -0.07859107658774772 0.13270656257817906
1290000140.0 -0.056903294813545634 0.13762194800677977
1305000130.0 0.0030281167704292876 0.1584648064099383
1320000120.0 0.03199769959954047 0.17838260247818236
1335000110.0 0.09416368887145854 0.14186179501557855
1350000100.0 0.12899192406813015 0.13210005009226558
1365000090.0 0.1600864071039282 0.08386849975833718
1380000080.0 0.2437148300213053 0.030176621915893598
1395000070.0 0.3028376731754786 -0.03359787245681018
1410000060.0 0.28326317615804336 -0.09316073283427338
1425000050.0 0.3129501232178404 -0.1751827570104026
1440000040.0 0.3525185655394844 -0.22809662612938514
1455000030.0 0.3496138584619748 -0.2875918553071248
1470000020.0 0.36208531451609444 -0.2867526486795817
1485000010.0 0.3427464553226056 -0.3555185888701192
1500000000.0 0.388101842370729 -0.395177461124393
