! Created with skrf 1.8.0 (http://scikit-rf.org).
# Hz S RI R 50.0 
!freq ReS11 ImS11
50000.0 -1.5399536508572975 -2.3969106226424968
15049500.0 -1.7046284241964371 0.9845514023766785
30049000.0 0.011662991257555962 -0.47091006847518124
45048500.0 0.5964207842437692 -4.7998120250037095
60048000.0 0.7277650583520023 -1.2395812915731805
75047500.0 -0.5335973452626508 -0.6926880839562436
90047000.0 -0.5275148865008857 -0.5718540740899667
105046500.0 2.9077784287947104 5.4533785077783765
120046000.0 -1.0502853251664546 0.8162629234793448
135045500.0 -4.579778548147701 -5.5026604576638
150045000.0 0.06288288288388513 2.4128528528519646
165044500.0 2.330104390542593 -1.289622351857343
180044000.0 -0.6054112045690352 0.1215836717165339
195043500.0 -1.092716832892108 0.7808464628836685
210043000.0 -4.548522352895314 -1.2476595994793753
225042500.0 2.3788686984207765 2.650012559560341
240042000.0 1.9643399484109851 -1.256411136071896
255041500.0 2.9005763648864353 -1.4687803281176677
270041000.0 -0.14158958290560233 0.09620533420984982
285040500.0 -0.25542570325421726 0.2764177662174904
300040000.0 2.109804277429535 -1.015058308667839
315039500.0 -1.054292381132661 -0.6362581226847775
330039000.0 -0.9476869444777394 -1.8435152531602663
345038500.0 2.8608072320849747 -2.204596514123825
360038000.0 -1.684362666379427 -0.0851466121373723
375037500.0 -1.2493066934030834 -1.0869963313576523
390037000.0 -1.2662330110865352 1.188726112672784
405036500.0 -3.3785563407997588 0.008236034818237458
420036000.0 0.2332434011944101 0.694448901990232
435035500.0 1.0190745649650714 -2.703174577263598
450035000.0 1.2903482660065613 1.188209711802345
465034500.0 1.3941873242703604 0.7525929122399395
480034000.0 -0.5886677472431123 -1.5439210279938256
495033500.0 -0.1220200700572201 -0.06388382005458587
510033000.0 1.398307962422896 2.7756142673983932
525032500.0 2.9109059789662632 -5.606466029756997
540032000.0 -1.922227587394182 3.3981140355348582
555031500.0 -0.17014567790680327 1.1664651276489935
570031000.0 1.815816533178469 -1.7052391282969304
585030500.0 -1.316514101026243 -0.5503872649365077
600030000.0 0.8020832383244878 -3.185573391494464
615029500.0 -0.808385297536608 -1.2494983654839504
630029000.0 0.7239680157017322 0.4088536714056998
645028500.0 -1.7863328125526825 -0.6142633360029326
660028000.0 -0.11982106682277396 -3.825833479851163
675027500.0 1.9028233616212256 1.2723690577596105
690027000.0 -0.4883604129394199 -0.28522944267180395
705026500.0 0.9858841880048974 2.0877466200111066
720026000.0 0.3096411861195472 0.42046051172428656
735025500.0 -0.36205585071830043 0.25558467169962684
750025000.0 -1.5738791042219182 0.14686097458427552
765024500.0 -1.4284013859482687 0.1167383731411019
780024000.0 2.570207578850034 2.109162474618719
795023500.0 0.706260530337184 0.24557575268548792
810023000.0 -2.5181255175612964 -2.870170791517378
825022500.0 3.1299887224946157 -0.41342183311703046
840022000.0 -0.8698520569573679 0.1549850617219699
855021500.0 11.838617532513439 2.90087899801083
870021000.0 2.186055462645584 -1.802028449193791
885020500.0 -0.17454365426863966 -0.8275010445281697
900020000.0 -0.5666473525939638 3.0172293087448474
915019500.0 0.5413348356357525 4.027977306413495
930019000.0 -0.02975470112249817 0.8202424655536221
945018500.0 0.18500992578615238 2.4082955454646995
960018000.0 0.9832638259780482 -0.3173531218958684
975017500.0 1.6767392140196293 0.4004191650284489
990017000.0 -1.3472007011558003 0.15779188527343413
1005016500.0 1.3981728821948165 -0.7568718761433811
1020016000.0 6.0480942723765825 -0.594483260843289
1035015500.0 -2.0114697962755193 3.6139486073631786
1050015000.0 -0.8480525803293683 -0.31639894449377126
1065014500.0 3.139791964232463 -1.3288917077879527
1080014000.0 -1.7832151411221187 -1.7456462094027867
1095013500.0 -0.11842085319866025 1.6806125621307741
1110013000.0 4.912730644604768 6.144507452966176
1125012500.0 -0.16267905155661272 0.08767195843019202
1140012000.0 -1.0371030576215874 -1.2389044079349683
1155011500.0 -0.40321058162485063 -0.0056837406083465256
1170011000.0 1.185612946092758 0.5131664648462493
1185010500.0 1.7253115233059921 0.5165609773652001
1200010000.0 0.9026806602532833 -2.6851809991549116
1215009500.0 2.6892068272699716 -2.5874704539148654
1230009000.0 -0.30240133707130457 0.17639074072280544
1245008500.0 -2.0227660609156914 -6.000337001526139
1260008000.0 -3.4036477000925554 -1.999415498582792
1275007500.0 0.43027162982481393 -0.2741133065729248
1290007000.0 -1.4149871458896262 -1.0656092000517663
1305006500.0 -0.3371122947293416 -1.2970089418599768
1320006000.0 1.583231074480716 -0.1020657233494121
1335005500.0 1.3398320321061314 0.4250752695068074
1350005000.0 0.9591670910904829 -0.9981600850785748
1365004500.0 -0.5566458800805715 -1.0893514381627052
1380004000.0 0.5763689362737112 -0.15988986231057614
1395003500.0 4.407734587270994 -0.9112017313884523
1410003000.0 0.4656810276267645 -1.078617892634058
1425002500.0 -5.620362181028419 0.6684630053185903
1440002000.0 -2.5809214907199696 1.9936582882584197
1455001500.0 2.3236463373929634 -0.007539318525379608
1470001000.0 1.79948620244704 -4.247470391652693
1485000500.0 -1.760114450552987 1.9685132568817365
1500000000.0 0.3179212752719102 2.4824758404643807
