! Created with skrf 1.8.0 (http://scikit-rf.org).
# Hz S RI R 50.0 
!freq ReS11 ImS11
50000.0 -0.14515573434345183 -0.0037624044821076416
15049500.0 -0.1368875403611068 0.039112845017551766
30049000.0 -0.12145149327178893 0.07324667934435117
45048500.0 -0.09932267623422801 0.10296217079944779
60048000.0 -0.07135628035725929 0.12595481195009903
75047500.0 -0.03945817339536168 0.1422821734381717
90047000.0 -0.0031734650903536697 0.15094037570993493
105046500.0 0.032433982309587286 0.1514460808856259
120046000.0 0.06632729254339846 0.14450830327172765
135045500.0 0.09766508184697012 0.1298031586460461
150045000.0 0.12488730753203256 0.10818212602641247
165044500.0 0.1448683627273856 0.08091170535175499
180044000.0 0.15904545202930856 0.049581048440529206
195043500.0 0.16519016709510284 0.01545432970530471
210043000.0 0.16357353196201058 -0.01909214753875614
225042500.0 0.15372398935481302 -0.051823590741670256
240042000.0 0.13567340767810723 -0.08133526968373082
255041500.0 0.11120871502184028 -0.1054146966075961
270041000.0 0.08063869832539496 -0.12420865523363439
285040500.0 0.04674908118255754 -0.1343227887690867
300040000.0 0.006622251332358166 -0.1360532701062278
315039500.0 -0.02963941393286973 -0.12893812985214748
330039000.0 -0.06260852327938768 -0.11495688710925236
345038500.0 -0.09416153843047124 -0.09238685550867141
360038000.0 -0.11980432805883162 -0.06438938504660897
375037500.0 -0.13717333894988334 -0.030398960040137
390037000.0 -0.1444030058720599 0.004802693658149881
405036500.0 -0.14839610824555705 0.042318683578194356
420036000.0 -0.1403050312947471 0.07970342714187062
435035500.0 -0.12419388851682338 0.11321680574270654
450035000.0 -0.09869038492394851 0.13721180224736887
465034500.0 -0.06633898414842872 0.1660587371934186
480034000.0 -0.031984744384548625 0.18486912632973296
495033500.0 0.005437529539117229 0.19353396853835902
510033000.0 0.046330176321833866 0.19333677733684682
525032500.0 0.08376022950018557 0.1892966012843253
540032000.0 0.12058491995558208 0.1724640134186147
555031500.0 0.1520710642432362 0.15213343045094116
570031000.0 0.1790570269033222 0.12246503573404725
585030500.0 0.2007532098547094 0.08866288575801078
600030000.0 0.2137087521381368 0.050098889404708656
615029500.0 0.21609341923993627 0.010520114489709272
630029000.0 0.2103906109072071 -0.027928509387815485
645028500.0 0.19645522850452438 -0.06442009583969105
660028000.0 0.17493802627561872 -0.09838859937553286
675027500.0 0.14553212590190964 -0.1236114740878268
690027000.0 0.11001291871347729 -0.13991641859231993
705026500.0 0.07245474642182503 -0.14800633243255001
720026000.0 0.030836894285387238 -0.14993906220263595
735025500.0 -0.007565622312121641 -0.1383955742939728
750025000.0 -0.04289444504776916 -0.1193150563412571
765024500.0 -0.077169267213312 -0.09476942537198701
780024000.0 -0.10755749283635366 -0.05783920082226547
795023500.0 -0.1250345996258017 -0.0254659536379663
810023000.0 -0.1296815289763336 0.014347990896583136
825022500.0 -0.1324228060811797 0.05410392042345636
840022000.0 -0.12487773586260656 0.0906401654405097
855021500.0 -0.09977434071890694 0.12645751979055364
870021000.0 -0.0776388619597013 0.15874394554645477
885020500.0 -0.04625708110013842 0.1757805180668984
900020000.0 -0.020965408684453284 0.21003234122843073
915019500.0 0.022259227340044 0.21319550884176053
930019000.0 0.058206434082879024 0.206345483199882
945018500.0 0.10649385136448973 0.19801457714296677
960018000.0 0.1442968148305894 0.16827050511737826
975017500.0 0.1765968795403617 0.1326997982408337
990017000.0 0.19571944827238447 0.10282536075161847
1005016500.0 0.2182252378852486 0.06146488361373196
1020016000.0 0.2372896500366764 0.01669494240288859
1035015500.0 0.2337913656908275 -0.031271750184319644
1050015000.0 0.22961446534812333 -0.10590037543470864
1065014500.0 0.2136080165881109 -0.11903974432348005
1080014000.0 0.19708214811527489 -0.14567533699267224
1095013500.0 0.16785966305748415 -0.19269544441726785
1110013000.0 0.13560738000690936 -0.18788729860552952
1125012500.0 0.10732075189236887 -0.2151790456809444
1140012000.0 0.0545038255526631 -0.2081395857779874
1155011500.0 0.03967486848830026 -0.18562173057609935
1170011000.0 -0.01577530214503886 -0.1435018430957749
1185010500.0 -0.035023113922390665 -0.13424304533378206
1200010000.0 -0.05878178135353755 -0.0827640117680794
1215009500.0 -0.08216888450359265 -0.03970343578800753
1230009000.0 -0.09783827428214738 0.008531700031083247
1245008500.0 -0.08274178944977034 0.043328208415330485
1260008000.0 -0.07138272503684444 0.104633799539347
1275007500.0 -0.02196540625694554 0.12295488322717982
1290007000.0 -0.022242566707542197 0.16248697040313378
1305006500.0 0.015484199615009964 0.15494718201444496
1320006000.0 0.05856831969733219 0.16631017110890906
1335005500.0 0.11117684885424513 0.12769974779684812
1350005000.0 0.14620510474060625 0.11843493018543857
1365004500.0 0.1619377990417629 0.016707255959476957
1380004000.0 0.2685251980983092 0.016882120385342165
1395003500.0 0.29573041079623624 -0.036254335783096905
1410003000.0 0.3377733831550541 -0.07840264287476469
1425002500.0 0.33539878040581544 -0.19529633774746968
1440002000.0 0.35726734473487803 -0.2546499044398581
1455001500.0 0.35156147085902023 -0.2733264433953317
1470001000.0 0.3783450642850905 -0.27346510906500704
1485000500.0 0.4025506864177022 -0.37399575240726346
1500000000.0 0.3850037879762422 -0.3444653736961287
