! Created with skrf 1.8.0 (http://scikit-rf.org).
# Hz S RI R 50.0 
!freq ReS11 ImS11
50000.0 0.8750295146917366 -0.03408439052268134
15049500.0 -1.0403886071633563 0.4417786435978636
30049000.0 -2.861633668644872 -1.4673428287605856
45048500.0 0.548078447506945 -0.6116351358050026
60048000.0 2.0340719653096677 -0.37518487867893474
75047500.0 -1.9330425496971082 0.28337451845768874
90047000.0 -0.9789037802905429 -2.049789385969834
105046500.0 0.17892374176567608 0.2741259266148882
120046000.0 -0.7559133414461502 0.8826101719159816
135045500.0 -1.2745222425510991 0.2652807697147099
150045000.0 1.0510154986463163 -0.23940810866898998
165044500.0 0.3285023899963597 -0.02377005806250629
180044000.0 1.4224410243628245 1.2207530423961235
195043500.0 -3.702674399617981 0.41134426255289336
210043000.0 1.175107184657161 2.5788369348866786
225042500.0 -1.5426993881402293 -0.7844222573863933
240042000.0 -1.6225654975257329 -3.5384492800811027
255041500.0 -1.2932215502727442 1.1468870065886372
270041000.0 1.1324475977150585 2.1407734379306524
285040500.0 0.3036988123992159 -6.447421354711074
300040000.0 5.751414893047393 -8.487825703594684
315039500.0 -1.892511180513148 1.5721059461934055
330039000.0 1.2313618244804325 0.3383678950640288
345038500.0 -2.7912887061832223 5.3905437126423115
360038000.0 -1.885721538736919 0.09753302956497292
375037500.0 0.2487984167828072 -0.32486592689976257
390037000.0 -2.373840954333867 1.19252346058522
405036500.0 -0.5416404303241822 0.5991311205343794
420036000.0 2.6037121928419236 1.962200442196406
435035500.0 4.920389759969911 1.5539795664911569
450035000.0 -1.6839886003112825 0.6031740190270078
465034500.0 -0.4483594731103211 2.4512244544106774
480034000.0 -2.3214193422209997 -3.437036258757783
495033500.0 0.2169475280472962 0.52274874217407
510033000.0 -1.5230040826316886 0.7769860318724771
525032500.0 0.9446667849953131 0.33807447662500684
540032000.0 1.0526690853745462 1.4524083367000282
555031500.0 -0.4006547120859397 -1.6184508673236564
570031000.0 -1.0417999490075442 0.5842414886044215
585030500.0 22.682319294323783 12.786489591684976
600030000.0 -0.2929662682937005 -0.19854589059081618
615029500.0 1.1122314788895677 -5.327821153835045
630029000.0 2.301373938134368 -15.28637128412853
645028500.0 -0.13067035431258722 0.2142828761565125
660028000.0 1.4693344864641849 7.439815958466103
675027500.0 -0.04115750529667635 1.5168421972297232
690027000.0 2.334269386559951 4.422669072662598
705026500.0 2.7871773653694434 -1.2609154606050212
720026000.0 1.8528040000495114 0.6077360418541023
735025500.0 0.18712221492698763 1.509106252147827
750025000.0 4.50794133351093 1.6723983449135313
765024500.0 -0.014224129295908184 -0.3077107078792992
780024000.0 0.628270790797988 0.05636373616819763
795023500.0 -0.34413682109138427 1.1738955165203495
810023000.0 2.9727886282624034 -13.961212883961709
825022500.0 -0.4271595030206283 -1.3175170012124355
840022000.0 5.117360393843322 1.4790923854563418
855021500.0 0.7986169809226862 -0.697518824561702
870021000.0 2.6170421107759085 1.5390410959424448
885020500.0 -0.33323781646241146 -0.5978338303345849
900020000.0 0.37847145495735524 -2.538044690990393
915019500.0 -0.2463414398734377 -4.906467954347551
930019000.0 -0.2935847914068147 -0.12498128618316202
945018500.0 -2.222070808524648 -0.47931040073252873
960018000.0 0.811415279004435 -3.685201802163872
975017500.0 -7.86064194138698 4.877425629923044
990017000.0 -0.6324824975810511 0.0954817243534683
1005016500.0 1.8781632237296497 -4.346599937437108
1020016000.0 -1.3334837180409842 1.8869925116303143
1035015500.0 1.0343857218566883 0.5111300789239971
1050015000.0 -0.3105558269257594 0.13037926965747945
1065014500.0 0.9760977596945707 -0.2391797235249019
1080014000.0 -8.811635044022832 -4.455738018578803
1095013500.0 2.7787011174775897 -0.74020963543508
1110013000.0 -7.4846225371164 -2.986699735932548
1125012500.0 -0.23936595224304338 -3.594178205466249
1140012000.0 0.22367328839743383 -5.1788878214582015
1155011500.0 -0.5465719531602864 0.856151053742499
1170011000.0 1.5828346405798355 -2.1720222286545092
1185010500.0 0.5785610870233837 -0.7517869128879455
1200010000.0 -1.6028466826572925 -2.5542569111631748
1215009500.0 1.648211819504007 0.4678036709529719
1230009000.0 -9.565260728141006 -1.9758437834840124
1245008500.0 1.0500099744860905 0.0973571050934336
1260008000.0 0.12823888367378425 1.4673734319542624
1275007500.0 0.5915755425296325 0.7714054133041435
1290007000.0 -1.5631080190263564 -2.0497341319162174
1305006500.0 0.9388453443912143 2.571806366106319
1320006000.0 3.5782198478720812 2.2450443651351173
1335005500.0 -0.392703709362709 1.1218406532125316
1350005000.0 -1.3259235042212922 2.190977762024592
1365004500.0 1.680718393122134 -7.786590661582881
1380004000.0 3.6023747637084043 6.880496950207132
1395003500.0 -0.33546418850274734 0.41287768376403927
1410003000.0 1.2072326901870192 -0.5302200492483137
1425002500.0 0.9889328665495242 -0.16148656807327808
1440002000.0 -0.5882892549533592 -1.0443680754084002
1455001500.0 1.1236870018564533 0.4845705612537924
1470001000.0 3.0174713172869456 2.7144962871598772
1485000500.0 -0.6327500102081305 1.6320832018513969
1500000000.0 2.3106277394790724 3.339960444996112
