! Created with skrf 1.8.0 (http://scikit-rf.org).
# Hz S RI R 50.0 
!freq ReS11 ImS11
50000.0 0.7534398343097002 -0.0053797494122515685
15049500.0 0.7192798086079616 -0.20299813474677916
30049000.0 0.6447931688680494 -0.3704916619674137
45048500.0 0.5328103936866297 -0.5133584103458376
60048000.0 0.3929906760601286 -0.6231707261501749
75047500.0 0.23281211211590028 -0.6945104548931461
90047000.0 0.05340414468649771 -0.724877139327257
105046500.0 -0.12190491911499605 -0.7144687030501422
120046000.0 -0.28757549234629054 -0.6623408277489704
135045500.0 -0.4356147630372256 -0.5726848351210231
150045000.0 -0.5570810497010231 -0.44992544424459574
165044500.0 -0.6451140925844621 -0.30274167451108763
180044000.0 -0.6960091872281513 -0.13948601850783773
195043500.0 -0.7060223861425098 0.030870869980717062
210043000.0 -0.6750350851046406 0.1978748630208515
225042500.0 -0.6049183619778459 0.35191422807748596
240042000.0 -0.5001216618588081 0.48435237046175306
255041500.0 -0.36659562901472675 0.5877906053470757
270041000.0 -0.21252345839444375 0.6560300853630163
285040500.0 -0.047876997169603364 0.683772075863488
300040000.0 0.10661526648431133 0.6738710616138021
315039500.0 0.26436249512933385 0.6265329023336811
330039000.0 0.40183040026647454 0.5411716274495532
345038500.0 0.5167726192269364 0.42776286995846413
360038000.0 0.5992123819358564 0.2917838213468168
375037500.0 0.645846935036311 0.14287587949532046
390037000.0 0.6536411744251469 -0.010458622636367544
405036500.0 0.6284013371205796 -0.1582240363130714
420036000.0 0.5675889450464578 -0.29392636118921267
435035500.0 0.4740200722744738 -0.41122056373497395
450035000.0 0.3549640649829497 -0.5026725696921541
465034500.0 0.22097890905944542 -0.5640013103331705
480034000.0 0.0792217090223771 -0.5910626683706736
495033500.0 -0.0622413938092583 -0.5852657539685754
510033000.0 -0.19623924179317023 -0.5464190560989532
525032500.0 -0.3149138850325806 -0.48116327356159144
540032000.0 -0.41344211063782976 -0.39017849032541607
555031500.0 -0.4880713602625026 -0.2818855080705522
570031000.0 -0.5339977865207892 -0.16056760748954124
585030500.0 -0.5518341108647383 -0.03411234359707383
600030000.0 -0.5416302681464089 0.0843340303157819
615029500.0 -0.5027190250155498 0.2031736553037216
630029000.0 -0.4375487075902274 0.3100236997719519
645028500.0 -0.3504457292613195 0.3983852227978096
660028000.0 -0.24916144029531206 0.4641548031673677
675027500.0 -0.13396918605332797 0.5042970909109253
690027000.0 -0.01325367040983718 0.5163106294408583
705026500.0 0.10480799746545956 0.500404235236905
720026000.0 0.21578852130999437 0.4602958877311331
735025500.0 0.31129171505973285 0.39359817169016675
750025000.0 0.38929984776260473 0.30670943134560247
765024500.0 0.44428187200761654 0.20606625509718968
780024000.0 0.4772628949775241 0.09658684319978396
795023500.0 0.47767167504875363 -0.016486337565772894
810023000.0 0.45546862935784704 -0.12621736379253043
825022500.0 0.4086537840971877 -0.22657715923645338
840022000.0 0.3392176454317795 -0.30875433538972646
855021500.0 0.2582477571932422 -0.37610105426596213
870021000.0 0.16320898737590703 -0.4239760317749699
885020500.0 0.06114728622230227 -0.447713604312181
900020000.0 -0.04210584950516831 -0.4502701088261492
915019500.0 -0.13313142705734027 -0.42749444334037173
930019000.0 -0.22163598259658243 -0.38283437379211677
945018500.0 -0.29588200032145107 -0.3275259567460806
960018000.0 -0.3583310198992684 -0.2512070342574962
975017500.0 -0.3978421996948722 -0.16961485553990593
990017000.0 -0.42677154621636243 -0.08036855252314966
1005016500.0 -0.4316064921650628 0.013178148109413153
1020016000.0 -0.41551364169159183 0.10589768148344701
1035015500.0 -0.38656580708039395 0.19536943351788666
1050015000.0 -0.34625854186318716 0.27323254353952325
1065014500.0 -0.2724484867791425 0.34605250284694716
1080014000.0 -0.1899465789649161 0.40460095388758804
1095013500.0 -0.10463357623436517 0.4452083361303884
1110013000.0 -0.0004318800154865077 0.4567236290514958
1125012500.0 0.08259002958966764 0.44601626683148043
1140012000.0 0.1906722875110478 0.4255876303632914
1155011500.0 0.26909244872637456 0.3557578140136938
1170011000.0 0.3552031130381563 0.29856051914115594
1185010500.0 0.40424499688315796 0.21687376596968125
1200010000.0 0.4434239619254251 0.11942283174178278
1215009500.0 0.45408892772448783 0.01266795737973508
1230009000.0 0.44192022974601136 -0.09258341455814831
1245008500.0 0.4059576432196614 -0.201075379257167
1260008000.0 0.34498994657759946 -0.2907168160665204
1275007500.0 0.2546688361098081 -0.3721811101730086
1290007000.0 0.15126521386659122 -0.4230380047020677
1305006500.0 0.049763226212482636 -0.4575971430551368
1320006000.0 -0.07520502205666942 -0.4636597273997954
1335005500.0 -0.18873870549839986 -0.4401358167331797
1350005000.0 -0.28928245064744024 -0.40316607110300084
1365004500.0 -0.38064642538481414 -0.338025209860657
1380004000.0 -0.48058336512866096 -0.2463588436899051
1395003500.0 -0.5357048037243535 -0.15921194175352785
1410003000.0 -0.550745339469809 -0.060057323494609245
1425002500.0 -0.5741150468333294 0.03319992468160156
1440002000.0 -0.5611117286850528 0.13558243963132446
1455001500.0 -0.5167046051115076 0.22808241055780745
1470001000.0 -0.4431436832920597 0.2958484298036949
1485000500.0 -0.38959217612526964 0.3445618242646264
1500000000.0 -0.30982708796688735 0.3870317730283497
