! Created with skrf 1.8.0 (http://scikit-rf.org).
# Hz S RI R 50.0 
!freq ReS11 ImS11
50000.0 1.0860412028069533 0.13384364729133835
15049500.0 0.9369163685977572 0.11468196943170995
30049000.0 1.2673394186788884 0.24645821886022937
45048500.0 0.380186548958194 1.7156071653487486
60048000.0 -0.9226360892246247 1.2473047072608718
75047500.0 -1.247276169809255 0.873230425444562
90047000.0 -2.7170091514033836 1.0574117217377643
105046500.0 1.6013687241119203 -0.3582229777910065
120046000.0 0.8337606249954312 2.331778926769903
135045500.0 -0.9691524364074848 -0.08871251951037827
150045000.0 1.0127398232234546 0.10078722930921734
165044500.0 2.5114107708988387 -1.2597555900433868
180044000.0 -0.8166011987471495 0.7177490439183204
195043500.0 0.162239207725631 -0.44760266681747063
210043000.0 -2.4680201614437234 2.124244829735689
225042500.0 2.6529453551607465 -1.078456983173722
240042000.0 -0.0913853316563492 0.4170633636354587
255041500.0 0.5080518663543618 -0.3452986636990777
270041000.0 -0.8709783224514817 2.887316177562761
285040500.0 -0.018981347790034922 0.4035654494330572
300040000.0 0.5494191793627008 4.111917986291123
315039500.0 1.5553555213717092 1.517547683724716
330039000.0 1.9369430537765708 0.021154371488963507
345038500.0 -0.9080400794856062 1.4443965689677232
360038000.0 -2.072251044768274 1.7035650327431469
375037500.0 3.7607595655194475 -18.955773272987223
390037000.0 0.6696590553540871 -3.175381251974818
405036500.0 -0.0709109847922734 -0.7349184671630709
420036000.0 -7.263825048977879 -2.553161324206453
435035500.0 -1.9689724823862333 -4.330662964179048
450035000.0 0.8351694275787921 0.3775980585390224
465034500.0 2.792585580780919 4.1637023200309855
480034000.0 -0.5757312847465306 -0.2801050854151722
495033500.0 0.6641702905687568 -3.0577017781169418
510033000.0 2.2887430249343423 2.757558795129896
525032500.0 -0.7086035013456605 -0.8212249104476781
540032000.0 -0.984374714431344 5.503421787871179
555031500.0 4.579225427609205 -7.422737893939151
570031000.0 -1.719905879971974 0.6560258382711504
585030500.0 -1.0010294692979318 0.4281340039575197
600030000.0 -0.037067827281011226 -0.34385502789605665
615029500.0 1.8392787847532095 -1.8455365915680864
630029000.0 0.15033087770616624 -0.2619665095917236
645028500.0 2.9702604410112454 -0.9924780312533384
660028000.0 2.3024319844792074 2.2494415698481878
675027500.0 -0.8427461176637118 -1.2858887991997978
690027000.0 -0.8938502302112628 0.33138828390618547
705026500.0 0.3491963222190252 0.06079542052643582
720026000.0 -0.2597281938380798 1.6147575073667693
735025500.0 -1.660524488805707 -0.21074868478200764
750025000.0 -1.1371658179415476 1.583539251541016
765024500.0 -0.7487085355781312 -2.6874198981457957
780024000.0 2.628183074493607 1.7955234979680401
795023500.0 1.0806139899689153 -1.5704216133823357
810023000.0 1.7307748195138783 1.4230565129118755
825022500.0 1.5294545608057701 1.0892774337911257
840022000.0 -0.6812462465712633 -0.633655131312752
855021500.0 -5.043197206736071 -2.008310876091162
870021000.0 -1.1994154657913705 -0.13659495641183808
885020500.0 -1.5556148774383425 -1.375547026192983
900020000.0 -0.8617708726310989 -1.4336871580328645
915019500.0 -4.452914547343561 -2.9789446417847145
930019000.0 -1.7752182259044018 -0.709493867999081
945018500.0 -0.6901495459969961 1.0291684696598151
960018000.0 -2.6886895704535356 -8.336545093453745
975017500.0 0.46031694840146126 -0.9590408149978011
990017000.0 1.810810356694738 -2.498769594012141
1005016500.0 -2.8413336109668466 -0.5332370594933323
1020016000.0 -0.20505154848451884 -0.16358455361667645
1035015500.0 1.2843222679965745 1.4451361384528179
1050015000.0 -0.22287857383701878 1.3761257152479256
1065014500.0 1.9838907751771837 -5.291731644812845
1080014000.0 1.3768776080678018 0.08374630726708387
1095013500.0 0.8046421767028938 -0.3558800146034981
1110013000.0 -0.27975904560214 0.04503549508178201
1125012500.0 -1.3089283704184358 0.2835381878708702
1140012000.0 -0.5170307323072058 -0.7051180888052898
1155011500.0 -0.7836054477529996 -0.46506045821764713
1170011000.0 -0.7362286202170105 -0.9601720971950302
1185010500.0 -0.3499312324200259 0.529800487675387
1200010000.0 -0.4992842798476722 0.7892316178634824
1215009500.0 3.3039281033663284 -1.1530745590360776
1230009000.0 7.28664206337667 5.634987201786492
1245008500.0 -0.3568965552165741 -0.3682271823705033
1260008000.0 1.3389602084294676 0.03496882122332759
1275007500.0 -0.9133620405025955 0.3524812094864967
1290007000.0 -1.090172013391697 0.44574595381386806
1305006500.0 -0.27806182392621964 0.2567486611601096
1320006000.0 1.4561279460982908 -0.033771279184626586
1335005500.0 -0.09938330415548807 0.4820038087992939
1350005000.0 0.7587110771244447 1.5307182627216047
1365004500.0 -0.6013707601565838 -0.4259823459096111
1380004000.0 -1.5576588422938569 1.0752947873205068
1395003500.0 2.2887127811081855 0.27243111358221683
1410003000.0 0.07422418679790674 -1.5902824284572912
1425002500.0 -1.9407243426535372 1.280024738987287
1440002000.0 1.9662507163008227 1.465998362108648
1455001500.0 2.4119945622230574 3.410122874407889
1470001000.0 -2.3084689924389554 -0.6600137109946896
1485000500.0 -0.5784740206486594 0.020080159796381798
1500000000.0 0.0530173649080533 -0.2956865699732204
