! Created with skrf 1.8.0 (http://scikit-rf.org).
# Hz S RI R 50.0 
!freq ReS11 ImS11
50000.0 -0.0003126840777146093 -0.0024582625694550644
15049500.0 -0.0003793401175052998 -0.00037754121737516573
30049000.0 9.952155982085436e-05 -0.00012449504376925335
45048500.0 -0.0008546349560972487 -0.0007881603997156719
60048000.0 0.00018199840547157542 -0.00026366959690371
75047500.0 0.00011960012676343924 -8.557251370121655e-05
90047000.0 3.7243963315657734e-05 8.034667868047631e-05
105046500.0 -0.00013908873370109285 -0.0012119298496239158
120046000.0 0.00021203080901194222 7.555910524174731e-06
135045500.0 -0.0072164043370349824 -0.006328080851107956
150045000.0 -0.00029671835099091023 -3.597968816791999e-05
165044500.0 0.00015379589069702666 0.0001863881928154002
180044000.0 -8.647261678774715e-05 2.983808896820368e-06
195043500.0 -4.6137287218397316e-05 0.0002901815702068994
210043000.0 0.0012186095982234903 -0.001203673215842795
225042500.0 -0.0009620267936338154 0.00035423002105339126
240042000.0 -0.00018568089753715072 -0.000914632570324733
255041500.0 -0.0008977059194173996 2.0080216772577133e-05
270041000.0 -4.547926086073512e-05 0.0003090082803169728
285040500.0 0.0003025598209003708 -0.00024466341073245185
300040000.0 0.00014171628496891477 0.0021459324612238574
315039500.0 -0.00032447137631450674 -0.00043268764358938823
330039000.0 0.0025632819751191765 0.002348906515626366
345038500.0 -0.0018667723178294575 -0.0021554178859730013
360038000.0 -0.0007945969825222312 0.0008078284595051942
375037500.0 -0.0013555726014459592 0.0018125768559282508
390037000.0 -0.003910539005716432 0.0004383224164977352
405036500.0 -0.0005290192398359586 -0.0002701260862759652
420036000.0 0.0007481773445987846 9.920066264598248e-05
435035500.0 0.00418514621148204 0.004071346751426086
450035000.0 -0.007390122005611423 -0.004153713443994839
465034500.0 -0.0007402416145014962 0.0015597628208614803
480034000.0 0.00041086317761196097 -0.0012347208789724661
495033500.0 0.0004231532748074004 -0.00034915714107237286
510033000.0 0.001821069164068184 0.005435853198440043
525032500.0 0.001756860804235015 -0.002182849829687687
540032000.0 -0.007039592718681022 -0.004724733480192636
555031500.0 -0.001033298252757344 0.0016196665262119972
570031000.0 0.0027320203052383007 0.0009486926588702603
585030500.0 0.0007583329153670345 -0.0023573243052885367
600030000.0 -0.0004285180459644913 -0.00739793478875819
615029500.0 -0.001574153480188439 0.0019062114284390532
630029000.0 0.00013112384035769388 0.0009958118839119006
645028500.0 -0.0015411703765179378 2.9923271717903417e-05
660028000.0 -0.0003286255305144745 -0.009232077116615514
675027500.0 2.341159175068597e-06 0.0031087479653997127
690027000.0 -0.0003679484461494508 -0.0008489866644466305
705026500.0 -0.004711037353422653 0.0010766495803693514
720026000.0 0.0006547029810235935 0.00015203746717411354
735025500.0 0.0006106147114345217 -0.0006764199190652457
750025000.0 0.0014047954764506085 -0.0013989663162261496
765024500.0 0.0011328763929196735 0.0003606855431163695
780024000.0 0.012996684210103757 0.05583509953638082
795023500.0 0.0004835469747386788 0.0011153385654751051
810023000.0 0.004996937629445287 0.0076854334739484284
825022500.0 -0.007181519079680455 0.0032868514942272923
840022000.0 -0.00023575271520482967 -0.000650278168334056
855021500.0 0.04541442467089593 0.015056186567860832
870021000.0 0.00400194862017558 -0.0010114667990640312
885020500.0 0.0002401245071442914 0.002455274105436118
900020000.0 -0.003352832859043846 0.014911852050690651
915019500.0 0.0005543568904698706 -0.012942905680903642
930019000.0 0.0014608263621785802 0.003309967944185745
945018500.0 0.0034684138758623475 0.0076219732810732
960018000.0 -0.0003268784313687705 -0.0006825542321815582
975017500.0 0.0007424244361054124 0.007979794964996309
990017000.0 0.00013051839026134758 0.0010739314218966252
1005016500.0 -0.0029198559923725755 0.00025402825620964974
1020016000.0 0.011141842107567896 -0.0533654246685109
1035015500.0 -0.006535009869409994 0.02757335893023194
1050015000.0 -0.0068036176550311765 0.007133368440277065
1065014500.0 0.004960903796683431 -0.015680570527780865
1080014000.0 -0.007606669967992574 0.007138838013548546
1095013500.0 -0.0033932386003735124 0.00859417130791302
1110013000.0 -0.04070966668432949 -0.009587406986485612
1125012500.0 -0.0012560720317369226 0.0029091671540738204
1140012000.0 -0.004434733017429849 0.0021344953826225865
1155011500.0 -0.012276020413021884 0.01098458626746385
1170011000.0 -0.0029880001885380994 -0.02291510497690088
1185010500.0 0.0003640588608949453 -0.005965010449105669
1200010000.0 -0.016421458653280104 0.014634351341057235
1215009500.0 -0.010113923110318595 0.033112024408087845
1230009000.0 0.0042859684867245385 0.0013540045437357223
1245008500.0 0.004496479911623639 0.05276350253807665
1260008000.0 0.02207091662908285 -0.06073404045162332
1275007500.0 -0.007598989825874855 -0.0033478401371819988
1290007000.0 0.02225799320852427 0.010596103013945883
1305006500.0 -0.008665688856695808 0.008260184322621244
1320006000.0 0.0022187715262980572 0.005538660304488244
1335005500.0 -0.004483398846707748 0.006911495702655743
1350005000.0 0.03752139629170229 0.021032761885985775
1365004500.0 0.02122122394285252 0.07878741439130936
1380004000.0 -0.0009703738743322143 0.013807816031473075
1395003500.0 0.013770920405393352 0.049216310202871774
1410003000.0 -0.023458033998085475 0.0018298817638124519
1425002500.0 -0.07748318291930958 -0.1833901185408885
1440002000.0 0.08052710492915646 -0.044000371578262705
1455001500.0 -0.028946865995961777 -0.032089956793284254
1470001000.0 0.06854727834212351 -0.003667676730426324
1485000500.0 0.04373072423469763 0.04141356723692945
1500000000.0 -0.10693560684604275 -0.1322651950618489
