! Created with skrf 1.8.0 (http://scikit-rf.org).
# Hz S RI R 50.0 
!freq ReS11 ImS11
1000.0 -6.09182582111625 -5.5048014022591225
15000990.0 0.7237119767610753 -0.20272089983299613
30000980.0 0.6498206277913645 -0.3706282488442764
45000970.0 0.5385923471273367 -0.5144302701903223
60000960.0 0.39918157014390276 -0.6256859434751991
75000950.0 0.23870689638947615 -0.6984657036843969
90000940.0 0.058586599044356834 -0.7303718864079348
105000930.0 -0.1179741685981897 -0.7214128877845618
120000920.0 -0.28477760417758774 -0.6697498783208536
135000910.0 -0.4341198266855076 -0.581676687442551
150000900.0 -0.5584773625682681 -0.45769204001421515
165000890.0 -0.6486296856564964 -0.31138776713615296
180000880.0 -0.7012452311687419 -0.14711944413909878
195000870.0 -0.7128487379751142 0.024454521594526903
210000860.0 -0.6831273621791591 0.1928088724237433
225000850.0 -0.6139937009418851 0.34873680429413734
240000840.0 -0.5101704579392818 0.48264207850901253
255000830.0 -0.3763963720205394 0.5884974531692563
270000820.0 -0.22220084165006007 0.6582254259726364
285000810.0 -0.057907262203041085 0.6889103245579699
300000800.0 0.09664345214453735 0.6813265948204831
315000790.0 0.25814138962759775 0.6352471717171937
330000780.0 0.39710216427753947 0.5531433002373225
345000770.0 0.5138440684965412 0.44129853665548074
360000760.0 0.5982341563525211 0.30548739640838507
375000750.0 0.6485105850504047 0.15693264060197362
390000740.0 0.6615869851009507 0.0015281676747555602
405000730.0 0.6384492986871984 -0.14540968661512446
420000720.0 0.5804469586326393 -0.28356405593437983
435000710.0 0.48954073156078903 -0.4042364848224205
450000700.0 0.3731965889428362 -0.5002555566113147
465000690.0 0.23799146686897357 -0.5658090045662623
480000680.0 0.09481065887035522 -0.5987682815474888
495000670.0 -0.04874255413811408 -0.5948073412487473
510000660.0 -0.18483722817440684 -0.5602785998812684
525000650.0 -0.30848827175565663 -0.4965011360330001
540000640.0 -0.41027674913785295 -0.4066113657779489
555000630.0 -0.4881458882723545 -0.29913398650406575
570000620.0 -0.5391052904729267 -0.17723856385943826
585000610.0 -0.561228939914537 -0.04935176084070616
600000600.0 -0.5521320938686696 0.07133616533069019
615000590.0 -0.5163357457842991 0.19290671249188338
630000580.0 -0.4533594666942865 0.30344934565726894
645000570.0 -0.36798425239183186 0.39363998335829514
660000560.0 -0.2645766226371449 0.4635304354119429
675000550.0 -0.1502210880659387 0.5080245674452896
690000540.0 -0.028834911509359098 0.5226704714348317
705000530.0 0.09014615087340412 0.5101587650015486
720000520.0 0.20376916760337244 0.47065973803839223
735000510.0 0.30316794044415585 0.40726392993963445
750000500.0 0.38336298523184076 0.32288881255701884
765000490.0 0.44264871933499933 0.2242927225816105
780000480.0 0.4773782460471806 0.1095374563052565
795000470.0 0.4846516711841343 0.0001618405186582716
810000460.0 0.467391643344405 -0.10979945668844052
825000450.0 0.4237419569865199 -0.21170285576762615
840000440.0 0.3602950952233757 -0.2999527452070894
855000430.0 0.2774690687998674 -0.37246707839230886
870000420.0 0.18269464467038377 -0.42471312481776297
885000410.0 0.08115954970274324 -0.4529224718645892
900000400.0 -0.022721478716053123 -0.4582799465386711
915000390.0 -0.12490132131758494 -0.44159178787720527
930000380.0 -0.21008091400743895 -0.4021758692403185
945000370.0 -0.28905538971572076 -0.34560147559728316
960000360.0 -0.3552884805144359 -0.27372633923405193
975000350.0 -0.4199734566867916 -0.1898448891519977
990000340.0 -0.43176767322190646 -0.09828852795162267
1005000330.0 -0.43837719172432527 -0.004912521417467119
1020000320.0 -0.4275814194796322 0.09073457321055778
1035000310.0 -0.4007526306705369 0.18232914094825975
1050000300.0 -0.35411632202792165 0.2710606032547113
1065000290.0 -0.2912303712810846 0.34183749425651916
1080000280.0 -0.20879657507520738 0.4015482985090471
1095000270.0 -0.12155260955501102 0.43862611755411873
1110000260.0 -0.021326011698798872 0.45850085819384745
1125000250.0 0.0668142070495203 0.4522292292804629
1140000240.0 0.1665915025532287 0.4371967123999112
1155000230.0 0.260553476278413 0.38530257936687023
1170000220.0 0.34825902112453133 0.3312136985622101
1185000210.0 0.40368832217364914 0.23666524815546605
1200000200.0 0.43838007871002915 0.14343198161880719
1215000190.0 0.4619203708367536 0.038840352522480186
1230000180.0 0.4587181748880868 -0.07210316753132961
1245000170.0 0.4218922963058699 -0.17728506483561748
1260000160.0 0.35896296747928486 -0.27361121681572564
1275000150.0 0.28463931598243525 -0.35640116445513015
1290000140.0 0.18950992600527872 -0.4179999537525461
1305000130.0 0.0801608066791018 -0.4550907664606615
1320000120.0 -0.03523334176148343 -0.48083266685887305
1335000110.0 -0.15138534416797753 -0.4545907518942321
1350000100.0 -0.2693426977566832 -0.4272999936986935
1365000090.0 -0.35916085875942133 -0.35206721453966305
1380000080.0 -0.4581573053848999 -0.287014804654692
1395000070.0 -0.523697845246908 -0.187939260557005
1410000060.0 -0.5704558774689991 -0.08468774182171888
1425000050.0 -0.5751321657152038 0.028146537933356548
1440000040.0 -0.572254775239598 0.13716802264010142
1455000030.0 -0.5327341340391754 0.2301411343128194
1470000020.0 -0.48897756297998246 0.2910003343174931
1485000010.0 -0.40744357438501794 0.3676520848268
1500000000.0 -0.34422253306948436 0.3796584251819885
