! Created with skrf 1.8.0 (http://scikit-rf.org).
# Hz S RI R 50.0 
!freq ReS11 ImS11
50000.0 0.0002665737822927523 -5.494625618133715e-05
15049500.0 -0.00014144883845461056 0.00010185022221277155
30049000.0 -0.0005133145289622273 0.00021208237683256772
45048500.0 -0.00013516176806813317 -0.00012379623046614638
60048000.0 -0.00023600031138804907 0.00011947776805064355
75047500.0 3.8017411460803775e-08 0.00025729240604195657
90047000.0 -0.0007125151519510568 -0.0004495113353599325
105046500.0 4.365985692525157e-05 -0.00014479838675824128
120046000.0 0.00012549188865606666 3.9966348781802894e-05
135045500.0 -0.000573651344241894 -0.00032114964356902057
150045000.0 3.928739967430374e-05 2.8810540852656986e-05
165044500.0 -0.0001753883545102896 0.0003415575240768476
180044000.0 -0.0007156838921918649 0.0004044335290081357
195043500.0 -0.0019456933836164785 -0.0007406928283456749
210043000.0 0.0007109253174014438 0.002124098243395148
225042500.0 0.00048181228610966236 -0.0006202482966347404
240042000.0 0.0031561661640911046 -0.001601722746056893
255041500.0 0.0011467752007871103 -0.0011518402123728568
270041000.0 -0.0013128808088376505 -0.003576488511916637
285040500.0 0.004881236693275783 0.008403508335823215
300040000.0 0.04024140790809605 -0.0014632449194233578
315039500.0 -0.0020741004056439557 0.004140541567929239
330039000.0 -0.002213564202644849 -0.0015125784831535012
345038500.0 0.01200154430282452 0.005886160738903303
360038000.0 -0.00250459689016057 -0.0025651095004170107
375037500.0 -0.0013916417959625917 -0.0006539352452252069
390037000.0 -0.023967995693202526 0.0331212753191038
405036500.0 -0.002643040635203289 -0.0011825563321413042
420036000.0 -0.004710913488859487 0.00531725744847119
435035500.0 0.01162234514171998 -0.003136405393983294
450035000.0 -0.003241846527844149 -0.0017129545403503264
465034500.0 0.0006571677467027857 0.0038993510312005774
480034000.0 -0.003972051172566564 0.0016281076572600543
495033500.0 0.00017450586070581653 -0.001355098084811956
510033000.0 0.00034972844039005526 0.0033178956926125445
525032500.0 -0.0005050659412440182 -0.0007281036254745699
540032000.0 0.0013150896841401913 0.0020963945425103744
555031500.0 0.0015221080811334802 0.003068143654069384
570031000.0 0.00010012679235609435 -0.001991492538016933
585030500.0 -0.10405787810292008 0.19282724531272422
600030000.0 0.0010980293383860246 -0.003060533006956525
615029500.0 0.043378333874345296 0.010282958709425026
630029000.0 0.0014240187683960746 0.18534735437006483
645028500.0 0.005687965962216456 0.0022372987258023726
660028000.0 0.01714739434891059 0.04548214950132375
675027500.0 0.013441538150732438 -0.004383776838859498
690027000.0 -0.01314498213837555 0.03732799635353723
705026500.0 0.01144870215855418 0.00817108685819738
720026000.0 -0.005720600295481127 -0.006604121899286626
735025500.0 0.0014218146167250313 0.0075327492831735844
750025000.0 0.01736411103386596 0.016661823912183266
765024500.0 0.002432444458955561 -0.005093525170626003
780024000.0 0.024835769240430156 -0.0040766563800860404
795023500.0 -0.006782084595746619 -0.0001018028782024116
810023000.0 -0.12241718508763186 0.0014307901097215232
825022500.0 -0.0040700402828185754 -0.010620850506610546
840022000.0 -0.0334675625031965 -0.03662781521180904
855021500.0 -0.00885044699902008 -0.004664902979328582
870021000.0 0.011165787285098951 0.0009392457812551387
885020500.0 0.0002213048433116398 -0.005631357663299281
900020000.0 0.006692618597707387 -0.00462995929058208
915019500.0 0.04795320518338411 -0.01524271217968151
930019000.0 -0.002046155121917235 -0.003634606757751774
945018500.0 -0.04051011365218264 0.014319545564562091
960018000.0 0.05677424132739656 0.004750869643392867
975017500.0 0.12099040217382317 -0.03582768788905556
990017000.0 0.0007762677814124562 -0.0004381196253132403
1005016500.0 0.04055237992524855 -0.008233624679585728
1020016000.0 -0.03479348794810989 0.07107032122595097
1035015500.0 0.007308797948140033 -1.0352701404475245e-05
1050015000.0 0.01835174668197393 0.017087806686001468
1065014500.0 0.001042242524281706 -0.0011948233859595868
1080014000.0 -0.20313527578925 0.14252357668563426
1095013500.0 -0.008189797230718375 -0.014979959804804587
1110013000.0 -0.09445066768047854 -0.01784140587445947
1125012500.0 0.010679018523340736 -0.04477035455952529
1140012000.0 0.004049476094659972 -0.10283860336354568
1155011500.0 0.07591841773785704 0.0037298208364212678
1170011000.0 0.11484971662887064 0.012026303123994612
1185010500.0 0.014089399423624867 0.005636459695795231
1200010000.0 0.033004560679835315 0.07897458013990676
1215009500.0 0.028706587923746293 -0.016568870927525858
1230009000.0 -0.275004393290076 -0.057981230425769636
1245008500.0 0.0006803457880259201 0.004008305706555311
1260008000.0 -0.08160894718580124 -0.08896048551274131
1275007500.0 -0.024628326428590783 -0.010713940909975439
1290007000.0 -0.14198664559457833 -0.06567054064105668
1305006500.0 -0.018415297820997954 -0.03220621700807898
1320006000.0 -0.11711976647180726 0.03069973507825557
1335005500.0 0.015036844521004362 -0.03087958974634163
1350005000.0 0.08546364479146851 -0.03799101550595402
1365004500.0 -0.4179126544194538 -0.7165286083224306
1380004000.0 -0.45609947711488646 0.07444176707669271
1395003500.0 0.014529095822756515 -0.02506361995951511
1410003000.0 -0.032692738722336134 0.013782944222540425
1425002500.0 0.004215020938615793 0.01263391813898352
1440002000.0 0.043174948676353346 -0.02757114822152473
1455001500.0 -0.0005950592588177647 -0.010270672759768097
1470001000.0 -0.1860159662740233 -0.26150276509661696
1485000500.0 0.006605393921179709 0.08192756224153736
1500000000.0 -0.016134078059066928 -0.2276415826197705
