! Created with skrf 1.8.0 (http://scikit-rf.org).
# Hz S RI R 50.0 
!freq ReS11 ImS11
50000.0 -0.14782487049549076 -0.0034966272932031093
15049500.0 -0.13975008776526743 0.03868731911242929
30049000.0 -0.12477103324668795 0.0726052892908162
45048500.0 -0.10286540774116677 0.10199944947421838
60048000.0 -0.07541250095897752 0.12504713812127669
75047500.0 -0.04355464189341242 0.141202257178015
90047000.0 -0.007540247179412298 0.15019385834915885
105046500.0 0.027660248165718195 0.15036208160169257
120046000.0 0.06175718030516714 0.143242146652283
135045500.0 0.09314853914063989 0.12873446944853642
150045000.0 0.11958802513699955 0.10680887221456023
165044500.0 0.14059898000136972 0.07955876692314917
180044000.0 0.15411626794573463 0.047925829688929306
195043500.0 0.16042841775097003 0.013316196412031338
210043000.0 0.15920369920872743 -0.0215872310889856
225042500.0 0.14963471803229034 -0.0550068813676636
240042000.0 0.13248563735904179 -0.08468907271258411
255041500.0 0.10747806181729251 -0.10964182065378314
270041000.0 0.07774299579394466 -0.12858946207968866
285040500.0 0.043914994331594605 -0.13970154610302635
300040000.0 0.004823949299598769 -0.14249492683234227
315039500.0 -0.03204496436454641 -0.13737020065840924
330039000.0 -0.06682952359628873 -0.12188711720035751
345038500.0 -0.09894449209572267 -0.10162998393685496
360038000.0 -0.12334534919309745 -0.07369880845565727
375037500.0 -0.1421266294819638 -0.04098261527367376
390037000.0 -0.14981831532582188 -0.004798235276351746
405036500.0 -0.15484176636351882 0.03187467622223374
420036000.0 -0.1481030909200212 0.0688338642147899
435035500.0 -0.1312558255242109 0.10451117117569937
450035000.0 -0.10913595003074214 0.13406926333188557
465034500.0 -0.07680039671824676 0.15826163476792765
480034000.0 -0.04356098156614914 0.1763867621695362
495033500.0 -0.004208027377623611 0.1867775327629616
510033000.0 0.032869756594983215 0.18837302137631828
525032500.0 0.0715342801148499 0.18273344642776035
540032000.0 0.10816249108607603 0.1692005491173606
555031500.0 0.1407095344145956 0.14690925164709295
570031000.0 0.1684573904570742 0.11925588229546814
585030500.0 0.1885052814510343 0.08539636376318123
600030000.0 0.20406757775652562 0.04819115718170836
615029500.0 0.2073834217098705 0.0070493834035760036
630029000.0 0.20325167849557246 -0.03202420398813812
645028500.0 0.1880511927903661 -0.06887078991552882
660028000.0 0.16524672727849005 -0.10142826571898485
675027500.0 0.13879021588066617 -0.12741110828415175
690027000.0 0.10402482376867438 -0.14825177165266779
705026500.0 0.06780493879061275 -0.1548970459004956
720026000.0 0.025274264054876445 -0.15759243469486503
735025500.0 -0.012991461943253159 -0.148919894993399
750025000.0 -0.048580961882102175 -0.1323841979331756
765024500.0 -0.08330009350633638 -0.10798906388094898
780024000.0 -0.10638160585200827 -0.07402029627042128
795023500.0 -0.1301694562631855 -0.03798446830082029
810023000.0 -0.14158123432843447 -0.0022284804311746317
825022500.0 -0.14226007179218847 0.04168518709173826
840022000.0 -0.1341938560058182 0.0804929120221211
855021500.0 -0.11700112517376164 0.11774038828704196
870021000.0 -0.08417474955994848 0.14156451271828147
885020500.0 -0.05207088562581352 0.16870798153659355
900020000.0 -0.034852117098874605 0.20419916689333883
915019500.0 0.004762370937247318 0.2096253719541583
930019000.0 0.05386673870764596 0.20614400704331381
945018500.0 0.08669512851715785 0.18532941974845876
960018000.0 0.13542128057264566 0.1690112660282291
975017500.0 0.16764877371336756 0.13566082654839373
990017000.0 0.1842040523504471 0.10365858241680288
1005016500.0 0.2054993857238467 0.05955799073495041
1020016000.0 0.21617597125940644 0.009946996812189407
1035015500.0 0.2303127067898942 -0.03466313278140934
1050015000.0 0.24489787020823187 -0.0858289703443555
1065014500.0 0.20977345834122557 -0.11703067061274017
1080014000.0 0.19529488206795664 -0.16538447823896874
1095013500.0 0.1634633764937539 -0.19640203262364836
1110013000.0 0.12772325572347298 -0.212237958928305
1125012500.0 0.09065696295212806 -0.2213119025174713
1140012000.0 0.04869427345454391 -0.2111427469341428
1155011500.0 0.03785789958388387 -0.20694448742550503
1170011000.0 -0.02927511132340998 -0.17690282496929188
1185010500.0 -0.053578986857787336 -0.15916142967922456
1200010000.0 -0.09780909529783866 -0.11490277681330995
1215009500.0 -0.09627066519807655 -0.06760091339564381
1230009000.0 -0.11051917838876145 -0.010813880373108984
1245008500.0 -0.10779186188538277 0.03253363963229984
1260008000.0 -0.08821026946924496 0.07684444066911121
1275007500.0 -0.06975872218162639 0.11789965307635283
1290007000.0 -0.030820883270494807 0.1429878980100982
1305006500.0 -0.0030041542105609122 0.15227084542202116
1320006000.0 0.054745521379744984 0.15106440282902858
1335005500.0 0.08878750983153773 0.12819921991955474
1350005000.0 0.16142503194726068 0.09423590032392203
1365004500.0 0.17478337105214525 -0.018148490076730923
1380004000.0 0.22461928689559368 0.029689525009596995
1395003500.0 0.2677270531710902 -0.05023405567169874
1410003000.0 0.29972315363615226 -0.1233616377448533
1425002500.0 0.31107307192316874 -0.15902475957809062
1440002000.0 0.3286780298700861 -0.23826047140313578
1455001500.0 0.31819977337853406 -0.3069155411257768
1470001000.0 0.3410235891625002 -0.3220382008113409
1485000500.0 0.34762489863882384 -0.36952441426341426
1500000000.0 0.3406117487198133 -0.35534721559291044
