! Created with skrf 1.8.0 (http://scikit-rf.org).
# Hz S RI R 50.0 
!freq ReS11 ImS11
50000.0 0.7566022012835496 -0.005493423164628777
15049500.0 0.7224671557879191 -0.20305628995549313
30049000.0 0.6483539095835804 -0.3710315248124409
45048500.0 0.5371804046863657 -0.5143888229112076
60048000.0 0.3974070820016846 -0.6249083387645116
75047500.0 0.23713926330067484 -0.6973577935812285
90047000.0 0.057265537340796084 -0.7287085463522127
105046500.0 -0.11889266740084743 -0.7193006617211734
120046000.0 -0.2852734098129883 -0.6682847907809132
135045500.0 -0.434302211637761 -0.5786278961946076
150045000.0 -0.5572944952559853 -0.45650110474578787
165044500.0 -0.6467714108122296 -0.30941163984957315
180044000.0 -0.6991895388143827 -0.14594154290679098
195043500.0 -0.7105742215735997 0.024840598447345576
210043000.0 -0.6809324007915294 0.19245929462742897
225042500.0 -0.6121422718528408 0.34782897039094474
240042000.0 -0.5082283207768148 0.4815336457183805
255041500.0 -0.3750430702364815 0.586418541867019
270041000.0 -0.22193556167808998 0.6569300129717816
285040500.0 -0.05740936514285031 0.6870869084472326
300040000.0 0.09685442150730521 0.678898662667086
315039500.0 0.25646486197248297 0.6340624376942614
330039000.0 0.39787666356170126 0.5521708677003302
345038500.0 0.5141047308167978 0.43979128087509806
360038000.0 0.598965120354472 0.3048472789914906
375037500.0 0.6488619347661212 0.15607810851170284
390037000.0 0.6622845138865399 0.0025812957517214875
405036500.0 0.638489728268047 -0.1473578712751082
420036000.0 0.5798096127469532 -0.28501494750107836
435035500.0 0.48923145481526165 -0.4060459991654503
450035000.0 0.3693943985671378 -0.5040746549651287
465034500.0 0.23646929876193426 -0.5668689043694858
480034000.0 0.09336233580363393 -0.5970050776901549
495033500.0 -0.051526079599739975 -0.5940627206058439
510033000.0 -0.18675974815440927 -0.5583719014296925
525032500.0 -0.31003123702647073 -0.49411127291540213
540032000.0 -0.41082530577157944 -0.4048355200921946
555031500.0 -0.4883204147870028 -0.2953753239911837
570031000.0 -0.5387155945719889 -0.17338061701048302
585030500.0 -0.5596119816849993 -0.04569004546477563
600030000.0 -0.5505457763607868 0.0741667359802949
615029500.0 -0.5133322936941098 0.1955679065137741
630029000.0 -0.44969407389685323 0.30336866971688986
645028500.0 -0.364874265394071 0.3943938747663174
660028000.0 -0.2624746874860566 0.46365106531775196
675027500.0 -0.14683964881730524 0.5063100854661494
690027000.0 -0.02812390371423535 0.5221713020803791
705026500.0 0.09252367090686552 0.5079787178184109
720026000.0 0.20328094589883353 0.46979650109681137
735025500.0 0.30359275210392184 0.4057589698452044
750025000.0 0.3834996735985721 0.3219805818659161
765024500.0 0.4433299415874984 0.22224072609906356
780024000.0 0.47598865976439164 0.11215785763808538
795023500.0 0.4850316750402795 -0.00022877530283887262
810023000.0 0.46678872329927407 -0.11214749565964661
825022500.0 0.42299670038558923 -0.21470552738304405
840022000.0 0.35884622258530363 -0.30395929249913667
855021500.0 0.2769340480447209 -0.3736198302326706
870021000.0 0.18021236589825418 -0.42604346505235496
885020500.0 0.08063900286331852 -0.45423807917323744
900020000.0 -0.02569366992446234 -0.46041219054846383
915019500.0 -0.12489587171439884 -0.4389259069511365
930019000.0 -0.21300355271487117 -0.40032613061462846
945018500.0 -0.2922343339769227 -0.34214146144243995
960018000.0 -0.35717377677811296 -0.27068913419877816
975017500.0 -0.40444596000983984 -0.18476947952822775
990017000.0 -0.4314788536976337 -0.09593822398214263
1005016500.0 -0.44069947279804084 -0.0008836323974891206
1020016000.0 -0.4321400482133527 0.09399748266623018
1035015500.0 -0.39673045799500695 0.1851472269034832
1050015000.0 -0.3532864625916324 0.25688938988238075
1065014500.0 -0.2832054387195818 0.3406765582512248
1080014000.0 -0.20792938177673465 0.3969782115084046
1095013500.0 -0.11866525464158335 0.43751578886815573
1110013000.0 -0.02479384655944348 0.45857263055503067
1125012500.0 0.07022567211512519 0.4513475289676902
1140012000.0 0.17435409749483186 0.432250279700438
1155011500.0 0.24475032411418837 0.3859328521240497
1170011000.0 0.341274579560926 0.3212398981843969
1185010500.0 0.39702281061607797 0.2379849566860673
1200010000.0 0.4399650146176206 0.1376259435488786
1215009500.0 0.4560544762058752 0.03605915488567542
1230009000.0 0.455281322655408 -0.07054666074056039
1245008500.0 0.42775169431429405 -0.176994878315513
1260008000.0 0.3592110326434908 -0.27369713058406453
1275007500.0 0.2832953739735055 -0.3629278302628214
1290007000.0 0.18330197967293194 -0.41744500819922614
1305006500.0 0.06673189739448665 -0.4593288121828794
1320006000.0 -0.042877334685013514 -0.4743830853143281
1335005500.0 -0.15970441175740735 -0.4566216968287042
1350005000.0 -0.26522595810376426 -0.4084400934126425
1365004500.0 -0.36634602565538843 -0.3577703400559632
1380004000.0 -0.4658372703763806 -0.2634956439352173
1395003500.0 -0.5204868658598137 -0.17345434262491521
1410003000.0 -0.5671502319656948 -0.0675314005413502
1425002500.0 -0.5779401255104215 0.03796996118551415
1440002000.0 -0.5716805536141768 0.12617916382691535
1455001500.0 -0.5301860917381909 0.23633720001355502
1470001000.0 -0.4794486233430176 0.3001419553839811
1485000500.0 -0.42537827908033465 0.3733254854356623
1500000000.0 -0.3100979108097158 0.40800551680560443
