! Created with skrf 1.8.0 (http://scikit-rf.org).
# Hz S RI R 50.0 
!freq ReS11 ImS11 ReS21 ImS21 ReS12 ImS12 ReS22 ImS22
50000.0 0.0 0.0 -0.816282030582707 -0.012902962365149092 0.0 0.0 0.0 0.0
15049500.0 0.0 0.0 -0.7859173772402512 0.19975183736009788 0.0 0.0 0.0 0.0
30049000.0 0.0 0.0 -0.7167620845913366 0.3745917830627654 0.0 0.0 0.0 0.0
45048500.0 0.0 0.0 -0.6088119470941643 0.528462157391193 0.0 0.0 0.0 0.0
60048000.0 0.0 0.0 -0.47111783045343725 0.6517558717404786 0.0 0.0 0.0 0.0
75047500.0 0.0 0.0 -0.31155821583337384 0.7384205629049995 0.0 0.0 0.0 0.0
90047000.0 0.0 0.0 -0.12935946571758716 0.7851635688551001 0.0 0.0 0.0 0.0
105046500.0 0.0 0.0 0.05209531370774858 0.7935456983810424 0.0 0.0 0.0 0.0
120046000.0 0.0 0.0 0.22718890953648865 0.7608467874872809 0.0 0.0 0.0 0.0
135045500.0 0.0 0.0 0.39010657377446345 0.689768769990832 0.0 0.0 0.0 0.0
150045000.0 0.0 0.0 0.5325372149776569 0.5838112643027015 0.0 0.0 0.0 0.0
165044500.0 0.0 0.0 0.6471581336232917 0.45016242278909896 0.0 0.0 0.0 0.0
180044000.0 0.0 0.0 0.7283966660925836 0.29560359329067637 0.0 0.0 0.0 0.0
195043500.0 0.0 0.0 0.7747038576072882 0.12767423768753267 0.0 0.0 0.0 0.0
210043000.0 0.0 0.0 0.7820816433321052 -0.046254102970264006 0.0 0.0 0.0 0.0
225042500.0 0.0 0.0 0.7508018481917548 -0.21701330549314374 0.0 0.0 0.0 0.0
240042000.0 0.0 0.0 0.68224707565598 -0.377427597060335 0.0 0.0 0.0 0.0
255041500.0 0.0 0.0 0.5789135351888364 -0.5183574920028048 0.0 0.0 0.0 0.0
270041000.0 0.0 0.0 0.44759703489441705 -0.632708920814295 0.0 0.0 0.0 0.0
285040500.0 0.0 0.0 0.2938074058191914 -0.7152576581104566 0.0 0.0 0.0 0.0
300040000.0 0.0 0.0 0.13927956243750675 -0.7583060991542254 0.0 0.0 0.0 0.0
315039500.0 0.0 0.0 -0.03285787047922943 -0.768348916387587 0.0 0.0 0.0 0.0
330039000.0 0.0 0.0 -0.20323054979057878 -0.7417725064257327 0.0 0.0 0.0 0.0
345038500.0 0.0 0.0 -0.36287712653735327 -0.6776352115109044 0.0 0.0 0.0 0.0
360038000.0 0.0 0.0 -0.5027303096883612 -0.577518037563011 0.0 0.0 0.0 0.0
375037500.0 0.0 0.0 -0.6145601298467173 -0.45156506891839426 0.0 0.0 0.0 0.0
390037000.0 0.0 0.0 -0.6935884017452517 -0.3030845974539708 0.0 0.0 0.0 0.0
405036500.0 0.0 0.0 -0.7407557059313432 -0.14787050056849038 0.0 0.0 0.0 0.0
420036000.0 0.0 0.0 -0.7482298249272787 0.014229288568986998 0.0 0.0 0.0 0.0
435035500.0 0.0 0.0 -0.716898649379674 0.17678679817120507 0.0 0.0 0.0 0.0
450035000.0 0.0 0.0 -0.6484440844052141 0.3324345962336915 0.0 0.0 0.0 0.0
465034500.0 0.0 0.0 -0.5504511604273207 0.4638831004044236 0.0 0.0 0.0 0.0
480034000.0 0.0 0.0 -0.4262781348066824 0.5712233639759723 0.0 0.0 0.0 0.0
495033500.0 0.0 0.0 -0.283137357272838 0.6468499636538245 0.0 0.0 0.0 0.0
510033000.0 0.0 0.0 -0.13025600777082097 0.6875492295612694 0.0 0.0 0.0 0.0
525032500.0 0.0 0.0 0.025280024308267254 0.6932916230463627 0.0 0.0 0.0 0.0
540032000.0 0.0 0.0 0.1776627101671613 0.6655207715488302 0.0 0.0 0.0 0.0
555031500.0 0.0 0.0 0.31804406224506 0.6050580548736448 0.0 0.0 0.0 0.0
570031000.0 0.0 0.0 0.442881835390067 0.5160757192480769 0.0 0.0 0.0 0.0
585030500.0 0.0 0.0 0.5405733174190661 0.40466094766144045 0.0 0.0 0.0 0.0
600030000.0 0.0 0.0 0.6132995170972612 0.284314319467571 0.0 0.0 0.0 0.0
615029500.0 0.0 0.0 0.6559404506754609 0.1425755421456324 0.0 0.0 0.0 0.0
630029000.0 0.0 0.0 0.666441955925602 -0.0038446637901866196 0.0 0.0 0.0 0.0
645028500.0 0.0 0.0 0.6444919028745891 -0.14886601626110488 0.0 0.0 0.0 0.0
660028000.0 0.0 0.0 0.5948949765987803 -0.2852247922823171 0.0 0.0 0.0 0.0
675027500.0 0.0 0.0 0.5144022382557393 -0.4047476746192962 0.0 0.0 0.0 0.0
690027000.0 0.0 0.0 0.41266152536700357 -0.5057406888377155 0.0 0.0 0.0 0.0
705026500.0 0.0 0.0 0.28961929109440987 -0.5784585715213821 0.0 0.0 0.0 0.0
720026000.0 0.0 0.0 0.15747156422096514 -0.6246666479394876 0.0 0.0 0.0 0.0
735025500.0 0.0 0.0 0.017283398304715872 -0.6407835761401973 0.0 0.0 0.0 0.0
750025000.0 0.0 0.0 -0.12392748686935712 -0.6252064388914914 0.0 0.0 0.0 0.0
765024500.0 0.0 0.0 -0.2545899626942991 -0.5804477415515255 0.0 0.0 0.0 0.0
780024000.0 0.0 0.0 -0.3739806640817578 -0.49420642866645553 0.0 0.0 0.0 0.0
795023500.0 0.0 0.0 -0.4733291998867561 -0.41097489198250514 0.0 0.0 0.0 0.0
810023000.0 0.0 0.0 -0.545774260865211 -0.29330629249885976 0.0 0.0 0.0 0.0
825022500.0 0.0 0.0 -0.5956301278802252 -0.16495717106108934 0.0 0.0 0.0 0.0
840022000.0 0.0 0.0 -0.6140533179307397 -0.02889796221280799 0.0 0.0 0.0 0.0
855021500.0 0.0 0.0 -0.6054337702038068 0.10788222603084682 0.0 0.0 0.0 0.0
870021000.0 0.0 0.0 -0.5665879991309651 0.23903147265515326 0.0 0.0 0.0 0.0
885020500.0 0.0 0.0 -0.5019511743738406 0.3582226663257243 0.0 0.0 0.0 0.0
900020000.0 0.0 0.0 -0.3881566894530371 0.46470144044845335 0.0 0.0 0.0 0.0
915019500.0 0.0 0.0 -0.28133545894009465 0.5396330845007218 0.0 0.0 0.0 0.0
930019000.0 0.0 0.0 -0.15281827593575317 0.595601080674016 0.0 0.0 0.0 0.0
945018500.0 0.0 0.0 -0.026117740010880647 0.6159092204237191 0.0 0.0 0.0 0.0
960018000.0 0.0 0.0 0.11086033842829697 0.6066409267295663 0.0 0.0 0.0 0.0
975017500.0 0.0 0.0 0.24300410236072084 0.5747614573001075 0.0 0.0 0.0 0.0
990017000.0 0.0 0.0 0.36060127797338276 0.5106095752311667 0.0 0.0 0.0 0.0
1005016500.0 0.0 0.0 0.4611087209043021 0.42136441390310536 0.0 0.0 0.0 0.0
1020016000.0 0.0 0.0 0.5540234642405799 0.3135666710999167 0.0 0.0 0.0 0.0
1035015500.0 0.0 0.0 0.612154767127673 0.18338670250263428 0.0 0.0 0.0 0.0
1050015000.0 0.0 0.0 0.6392380949788964 0.044963095028365443 0.0 0.0 0.0 0.0
1065014500.0 0.0 0.0 0.6433108362854983 -0.09819413400831882 0.0 0.0 0.0 0.0
1080014000.0 0.0 0.0 0.6142070828798228 -0.24186649046643705 0.0 0.0 0.0 0.0
1095013500.0 0.0 0.0 0.5565186566608578 -0.3812787154061178 0.0 0.0 0.0 0.0
1110013000.0 0.0 0.0 0.4596444293117731 -0.5051946387706913 0.0 0.0 0.0 0.0
1125012500.0 0.0 0.0 0.34523820758837837 -0.5945352847417241 0.0 0.0 0.0 0.0
1140012000.0 0.0 0.0 0.20558380586023736 -0.6756875365746646 0.0 0.0 0.0 0.0
1155011500.0 0.0 0.0 0.05132534570874695 -0.7342488949657857 0.0 0.0 0.0 0.0
1170011000.0 0.0 0.0 -0.122183212496962 -0.7510464653469903 0.0 0.0 0.0 0.0
1185010500.0 0.0 0.0 -0.2860158396311382 -0.7011978623921773 0.0 0.0 0.0 0.0
1200010000.0 0.0 0.0 -0.45953255432826784 -0.639304202934301 0.0 0.0 0.0 0.0
1215009500.0 0.0 0.0 -0.6035736265505813 -0.5258974974292707 0.0 0.0 0.0 0.0
1230009000.0 0.0 0.0 -0.7295162549540339 -0.3928301281776791 0.0 0.0 0.0 0.0
1245008500.0 0.0 0.0 -0.8082625513861046 -0.22869511201403772 0.0 0.0 0.0 0.0
1260008000.0 0.0 0.0 -0.8537209323714999 -0.04610317168851578 0.0 0.0 0.0 0.0
1275007500.0 0.0 0.0 -0.8774724985432301 0.15051031653019453 0.0 0.0 0.0 0.0
1290007000.0 0.0 0.0 -0.8402481701115204 0.35091401650489734 0.0 0.0 0.0 0.0
1305006500.0 0.0 0.0 -0.749249044432143 0.5287545895559042 0.0 0.0 0.0 0.0
1320006000.0 0.0 0.0 -0.6122502606103081 0.681917211158783 0.0 0.0 0.0 0.0
1335005500.0 0.0 0.0 -0.46224432173630997 0.814456202965589 0.0 0.0 0.0 0.0
1350005000.0 0.0 0.0 -0.29184980622095996 0.8928567069071848 0.0 0.0 0.0 0.0
1365004500.0 0.0 0.0 -0.06166320353253665 0.9294747557454015 0.0 0.0 0.0 0.0
1380004000.0 0.0 0.0 0.10415040117649214 0.9658160266213897 0.0 0.0 0.0 0.0
1395003500.0 0.0 0.0 0.3162319191670934 0.9093686236051485 0.0 0.0 0.0 0.0
1410003000.0 0.0 0.0 0.4920049181653943 0.8330226685038561 0.0 0.0 0.0 0.0
1425002500.0 0.0 0.0 0.6572374796728212 0.7231833390542042 0.0 0.0 0.0 0.0
1440002000.0 0.0 0.0 0.773850778303309 0.5847798809671565 0.0 0.0 0.0 0.0
1455001500.0 0.0 0.0 0.887173402965071 0.42344133336456297 0.0 0.0 0.0 0.0
1470001000.0 0.0 0.0 0.9423477259763751 0.26175384633632365 0.0 0.0 0.0 0.0
1485000500.0 0.0 0.0 0.9756706942670802 0.0979745116118189 0.0 0.0 0.0 0.0
1500000000.0 0.0 0.0 0.9604077832703963 -0.08728827474096533 0.0 0.0 0.0 0.0
