! Created with skrf 1.8.0 (http://scikit-rf.org).
# Hz S RI R 50.0 
!freq ReS11 ImS11
50000.0 0.07006724443811738 1.3674519242394645
15049500.0 3.0525204135701927 -5.285745846496987
30049000.0 0.7216191422503623 -0.8121998612105064
45048500.0 1.919292957355977 2.0369460766367826
60048000.0 -0.486355678173762 -0.12760676200444274
75047500.0 0.28993058346034634 1.2347864645383984
90047000.0 -2.0155117453857603 -1.1538202058886098
105046500.0 -1.028097485854672 -0.5700647335506409
120046000.0 0.3447394515825933 0.16421774412887752
135045500.0 10.593515501674696 -1.8482424692979096
150045000.0 -1.9956732852103853 -5.353272928257638
165044500.0 -3.18149623098456 0.23038461002469648
180044000.0 0.8889033570556393 7.270101416320419
195043500.0 -7.373170085660778 7.849815575481736
210043000.0 0.6887581211612683 -0.4724645304606198
225042500.0 0.6220527500273675 0.5932174353539974
240042000.0 0.6374044118138801 0.1519017362007801
255041500.0 0.889418384989964 -0.8072136896976991
270041000.0 -1.9611653867118375 -1.3695215195420838
285040500.0 -1.3294888756170855 0.2530193073970813
300040000.0 -0.49771935212754126 -1.1770513142490233
315039500.0 10.39386185018328 21.08618861031538
330039000.0 0.762222883375249 0.3213129918916371
345038500.0 -1.0626155073098127 -0.1710321444124905
360038000.0 -0.3925611904328804 5.461301319139184
375037500.0 0.8250235384174666 -1.0474309852769692
390037000.0 0.3297771361278952 -2.445348916479265
405036500.0 0.15833471379262104 -1.9662558348838706
420036000.0 1.7811515973458953 -1.1629915223323437
435035500.0 -4.5874129139492235 -2.72003998088373
450035000.0 1.317175715028159 -0.24814157205229456
465034500.0 0.06711266499402792 -1.1260542201842287
480034000.0 5.1329236251217445 1.6057973756636081
495033500.0 0.49933652585987537 1.81213949116491
510033000.0 0.2546817450289562 -0.16539339188717356
525032500.0 6.679286608964587 -0.08394658489139795
540032000.0 0.5357601192647998 0.36953776044298686
555031500.0 -1.7326175082934936 -1.1415584829680454
570031000.0 3.0431667436936025 -0.17932305840172807
585030500.0 2.229045396775819 1.3986298418727259
600030000.0 -3.5484566527901658 1.9774302711959881
615029500.0 9.348368790489229 1.0721947193523436
630029000.0 0.9133988613203518 -0.2044502230645904
645028500.0 0.6362906071105401 -0.5633358254829699
660028000.0 0.8695929581166392 -0.23728213187163247
675027500.0 2.2760809164413445 0.029925977162030794
690027000.0 0.9723535736135192 -0.316172377705921
705026500.0 2.5921723952982187 -5.368378094696333
720026000.0 -0.32977919924836413 -2.3562110975824395
735025500.0 -0.6356983717684989 -0.0005829024866096679
750025000.0 -1.8721516105368816 -2.4725991631935393
765024500.0 -0.16691879509826588 0.5196603013318781
780024000.0 0.8601200398983607 1.157786846627402
795023500.0 0.07628313367588943 0.8586860716710635
810023000.0 1.5269043108791256 -2.545636609628895
825022500.0 1.3816334578186285 2.5267692920699667
840022000.0 1.951171636182568 -2.913156438179164
855021500.0 -7.795824171468912 12.196715209586735
870021000.0 2.89211048485463 -2.182204385554913
885020500.0 -0.32118247418394097 2.587232191153063
900020000.0 0.10572963642632315 1.1784657608029179
915019500.0 2.3342043269798673 -0.7967414548702985
930019000.0 2.828693191845938 0.17259429370907917
945018500.0 -0.26104160649317815 1.8521895642798334
960018000.0 1.2363847884355998 1.970385509457878
975017500.0 -3.5449477838840235 7.474482296459681
990017000.0 0.9605576513277075 0.3822979254081587
1005016500.0 -1.9012666608097353 -1.0159647136099939
1020016000.0 -1.4288619400711573 0.46074931525560914
1035015500.0 -1.762457038673416 2.0353486981692646
1050015000.0 -1.0914631990730543 0.8523248717431974
1065014500.0 2.059462422243506 0.6984217639663161
1080014000.0 -0.3775234472757821 -2.8752469213927254
1095013500.0 -2.27665679258422 -1.694359309990588
1110013000.0 -0.8635669297482812 -0.39167210359548355
1125012500.0 0.20914709419117997 -0.2866272999505929
1140012000.0 -0.35678336959625473 0.16424916850162974
1155011500.0 0.7548573330172217 1.7015749775778986
1170011000.0 -0.0662574437816139 1.5854043887764913
1185010500.0 -1.2014337511230566 0.05190008109089021
1200010000.0 2.384485740521328 2.327998694874373
1215009500.0 -1.1687300728193262 -1.0986018844683207
1230009000.0 -1.9695158613153194 1.4735678554634712
1245008500.0 -1.9286219349802864 0.32886232490146966
1260008000.0 -0.2580550745456312 0.5188092661612648
1275007500.0 0.03897651851116239 2.753474746005611
1290007000.0 -0.7551585447888497 1.029861421892894
1305006500.0 -1.0952543152677277 2.231622490021767
1320006000.0 0.40671291513268404 0.09037233759163311
1335005500.0 0.6090068827808118 -0.4356659215275313
1350005000.0 -3.666753864014296 -1.4630475445437772
1365004500.0 2.763772688579697 -7.829363138038518
1380004000.0 1.4043148297217913 0.16078316442064086
1395003500.0 -2.580592565728989 -4.108328929449509
1410003000.0 -0.9353967572376581 -0.8829020158053105
1425002500.0 0.7486231374155803 1.1534299102663335
1440002000.0 0.08675187876801523 -1.391801624950453
1455001500.0 -1.8355669326789352 -2.2034421188493423
1470001000.0 0.4683310966544557 -7.8711665316358905
1485000500.0 1.8568638060648592 -0.8862890001330525
1500000000.0 0.9743298982386392 -1.076990266621738
