! Created with skrf 1.8.0 (http://scikit-rf.org).
# Hz S RI R 50.0 
!freq ReS11 ImS11
50000.0 -0.00039347736514359476 0.0006172145068256322
15049500.0 -0.00098177199053406 0.0007115223522660942
30049000.0 0.0001511475169801493 0.00010195149610853319
45048500.0 -7.02912233762188e-05 -0.00041643250493795636
60048000.0 -9.023345184735704e-05 4.645592605843205e-05
75047500.0 -0.0004025894483014197 1.942939922049033e-06
90047000.0 -8.258161435902734e-05 0.0005084123722706062
105046500.0 8.284733016327724e-05 -9.79291394723229e-05
120046000.0 -1.0593636004708178e-05 7.172823096937664e-05
135045500.0 0.0071712041936462636 -0.0025755218648610143
150045000.0 0.0004342268311671275 0.0007490311521118584
165044500.0 0.0008021528009975462 -3.735066481579066e-05
180044000.0 0.00010223788002034633 -0.002076426987678311
195043500.0 0.003496593175195723 0.001314290786011741
210043000.0 -8.984414195994085e-05 3.04383077261553e-05
225042500.0 -0.00017823828042567947 0.00017809286905165863
240042000.0 -6.220530777821825e-05 -3.64225476312761e-05
255041500.0 9.527348318720648e-05 -0.0002492604947629914
270041000.0 0.00014844192402511553 -0.00044183166223125633
285040500.0 4.30369263782554e-06 0.0001687819080979622
300040000.0 -0.0014590520308021605 -0.0016392000453053538
315039500.0 0.03444341216835233 -0.002199447315991293
330039000.0 -0.0002212262271586556 0.0005630062726032256
345038500.0 7.248139735472627e-05 0.0001493590303258773
360038000.0 0.0006195535623034663 -0.009270709942454073
375037500.0 6.473551644877689e-05 0.0004390751334764982
390037000.0 -0.024066384348138212 -0.010546498432495117
405036500.0 0.0013508395971961694 -0.0002834149204263335
420036000.0 0.0008301899505895598 0.0016054855026566763
435035500.0 0.006370454191859442 -0.0017888379316087946
450035000.0 -0.0010304689844071466 0.0019836997485446696
465034500.0 -0.0017474506671520875 0.0018695191926799632
480034000.0 0.0038986593122094407 -0.005686084570758423
495033500.0 0.00017095019421397217 0.0032673380387308144
510033000.0 -0.00047451758672948204 -0.00035319437549123086
525032500.0 -6.0460709475272396e-05 -0.015490495419947868
540032000.0 0.00029616924252979723 -0.0006825862291909619
555031500.0 -0.0031868135051574807 -0.0013171269287799079
570031000.0 0.0003934917660674667 0.0025571156499866123
585030500.0 -0.0032880380283289695 -0.0076882994344273595
600030000.0 -0.0038264952315888007 -0.00971412795904587
615029500.0 -0.0009477373235296389 -0.009529447345546982
630029000.0 -0.00029838760583367056 0.0003136549052648645
645028500.0 0.001125198831808693 -0.0014789597775135717
660028000.0 0.0006204107125008863 7.457369648200813e-05
675027500.0 0.00031045445241045864 -0.001677173727339029
690027000.0 -0.0005705860676857476 0.00032413153324077626
705026500.0 -0.01176775607068858 0.0006586707871239614
720026000.0 0.0032463564326868344 -0.004306039943349228
735025500.0 -0.00010055295060640382 -0.0007802509701874293
750025000.0 0.0033144703487287346 0.009140447810222488
765024500.0 0.0005929317190383285 -0.0003731411278994256
780024000.0 -0.013472845448845857 -0.0232739636802915
795023500.0 0.0005168771126367157 0.0013191564591396516
810023000.0 -0.009898961725055848 -0.007705038629950448
825022500.0 0.0022494246150496777 0.0034252237081898247
840022000.0 0.009034970431451942 -0.011331349843885813
855021500.0 -0.02220777249290732 -0.021858034880203613
870021000.0 -0.005057675967343159 -0.009734137987396713
885020500.0 -0.017102105171734595 -0.0020527693258213416
900020000.0 0.005983614621857896 0.0033781083994265933
915019500.0 -0.0016211595801662259 0.005673267698475341
930019000.0 -0.0077765414167735355 -0.0032508112702212613
945018500.0 0.002806961563980513 -0.002794957203789964
960018000.0 -0.008452332205489379 -0.004437119213597345
975017500.0 0.043005455793333855 -0.02193891209555501
990017000.0 0.0011725202456266918 0.00013238271733679915
1005016500.0 0.004573981796910078 0.0021363907879479943
1020016000.0 -0.0015764288922444712 -0.0018353920720797286
1035015500.0 0.011597152456475787 -0.00024471674437933244
1050015000.0 0.017343572199520527 0.012605460535634456
1065014500.0 -0.008485903706233165 -0.013528107166665448
1080014000.0 -0.022296574540712922 0.019513481437400435
1095013500.0 -0.01075929027850352 -0.010008265575268287
1110013000.0 0.003019904341321792 -0.00042373401919459144
1125012500.0 -0.0018827482043330714 0.0028886756378860633
1140012000.0 0.0015839764619790054 -0.001494233833407912
1155011500.0 0.0400292386989788 -0.053976486775672225
1170011000.0 0.002710811221896548 0.04231456193109678
1185010500.0 0.0009229956034497824 -0.002131941118746415
1200010000.0 -0.038406961584040264 0.011684888766551969
1215009500.0 0.007751650475778468 0.011216235040269938
1230009000.0 -0.015408064716004997 -0.020690264386889236
1245008500.0 -0.007517835423016223 -0.02049391342618316
1260008000.0 0.005518247911145979 -0.010522205344968711
1275007500.0 0.023361579753753216 0.004624560220073235
1290007000.0 -0.00992105019528975 0.007364263672185561
1305006500.0 0.002437357434014201 -0.03252098809110215
1320006000.0 0.002336996005158496 -0.004800368258974679
1335005500.0 -0.007695957007525021 -0.005569515827972876
1350005000.0 0.04575939696592592 -0.023938617957010012
1365004500.0 0.7276016006687075 0.46087787985667983
1380004000.0 0.005635132885327758 0.009533765681683619
1395003500.0 -0.047454286906411354 0.009472853889103372
1410003000.0 0.0044828460957101815 -0.0023565716871330714
1425002500.0 -0.026970857412930843 0.047573115613175815
1440002000.0 0.028845549093546165 0.0007740594586581573
1455001500.0 -0.04750007114566928 -0.0627628331637541
1470001000.0 -0.05786001314529942 -0.05153038211896101
1485000500.0 -0.006039156344303873 0.022806185337601023
1500000000.0 0.046376075999105544 0.007390129280363809
