! Created with skrf 1.8.0 (http://scikit-rf.org).
# Hz S RI R 50.0 
!freq ReS11 ImS11 ReS21 ImS21 ReS12 ImS12 ReS22 ImS22
50000.0 0.0 0.0 1.979e-05 -2.2658e-05 0.0 0.0 0.0 0.0
15049500.0 0.0 0.0 -5.779e-05 -1.5294e-05 0.0 0.0 0.0 0.0
30049000.0 0.0 0.0 -4.3028e-05 -1.524e-05 0.0 0.0 0.0 0.0
45048500.0 0.0 0.0 -3.8655e-05 8.421e-06 0.0 0.0 0.0 0.0
60048000.0 0.0 0.0 -3.9742e-05 -2.779e-06 0.0 0.0 0.0 0.0
75047500.0 0.0 0.0 -2.3937e-05 1.7817e-05 0.0 0.0 0.0 0.0
90047000.0 0.0 0.0 -6.2258e-05 1.2903e-05 0.0 0.0 0.0 0.0
105046500.0 0.0 0.0 -4.5463e-05 -3.1805e-05 0.0 0.0 0.0 0.0
120046000.0 0.0 0.0 -2.132e-05 1.0367e-05 0.0 0.0 0.0 0.0
135045500.0 0.0 0.0 -7.5961e-05 3.2878e-05 0.0 0.0 0.0 0.0
150045000.0 0.0 0.0 -1.171e-05 3.9885e-05 0.0 0.0 0.0 0.0
165044500.0 0.0 0.0 -4.43e-05 4.7983e-05 0.0 0.0 0.0 0.0
180044000.0 0.0 0.0 1.401e-06 4.366e-05 0.0 0.0 0.0 0.0
195043500.0 0.0 0.0 -3.0143e-05 4.8917e-05 0.0 0.0 0.0 0.0
210043000.0 0.0 0.0 -4.8e-06 3.7346e-05 0.0 0.0 0.0 0.0
225042500.0 0.0 0.0 -5.973e-06 5.7553e-05 0.0 0.0 0.0 0.0
240042000.0 0.0 0.0 1.4233e-05 3.7617e-05 0.0 0.0 0.0 0.0
255041500.0 0.0 0.0 7.305e-06 5.8663e-05 0.0 0.0 0.0 0.0
270041000.0 0.0 0.0 3.783e-05 4.6041e-05 0.0 0.0 0.0 0.0
285040500.0 0.0 0.0 3.0098e-05 2.4124e-05 0.0 0.0 0.0 0.0
300040000.0 0.0 0.0 0.00021443 0.000163781 0.0 0.0 0.0 0.0
315039500.0 0.0 0.0 9.948e-06 -0.00026581 0.0 0.0 0.0 0.0
330039000.0 0.0 0.0 -0.00016075 0.00019246 0.0 0.0 0.0 0.0
345038500.0 0.0 0.0 -0.000253825 -1.7394e-05 0.0 0.0 0.0 0.0
360038000.0 0.0 0.0 6.1779e-05 0.000351938 0.0 0.0 0.0 0.0
375037500.0 0.0 0.0 -0.00011463 8.6717e-05 0.0 0.0 0.0 0.0
390037000.0 0.0 0.0 0.000237548 8.054e-06 0.0 0.0 0.0 0.0
405036500.0 0.0 0.0 0.000104138 -0.000167632 0.0 0.0 0.0 0.0
420036000.0 0.0 0.0 3.9365e-05 0.000258813 0.0 0.0 0.0 0.0
435035500.0 0.0 0.0 0.000144271 -2.4511e-05 0.0 0.0 0.0 0.0
450035000.0 0.0 0.0 0.000222331 9.6892e-05 0.0 0.0 0.0 0.0
465034500.0 0.0 0.0 0.000397631 -0.000250206 0.0 0.0 0.0 0.0
480034000.0 0.0 0.0 0.000356095 -0.00015792 0.0 0.0 0.0 0.0
495033500.0 0.0 0.0 0.000622917 -4.5951e-05 0.0 0.0 0.0 0.0
510033000.0 0.0 0.0 0.000362867 -0.00046695 0.0 0.0 0.0 0.0
525032500.0 0.0 0.0 0.000594884 -0.000474887 0.0 0.0 0.0 0.0
540032000.0 0.0 0.0 0.000600797 -0.000184818 0.0 0.0 0.0 0.0
555031500.0 0.0 0.0 0.000361705 -0.000473824 0.0 0.0 0.0 0.0
570031000.0 0.0 0.0 0.000247978 -7.8905e-05 0.0 0.0 0.0 0.0
585030500.0 0.0 0.0 0.000239436 -0.000963695 0.0 0.0 0.0 0.0
600030000.0 0.0 0.0 0.000294406 0.000104438 0.0 0.0 0.0 0.0
615029500.0 0.0 0.0 0.000422625 8.67e-06 0.0 0.0 0.0 0.0
630029000.0 0.0 0.0 0.00013372 -0.00026648 0.0 0.0 0.0 0.0
645028500.0 0.0 0.0 8.6342e-05 -0.000216339 0.0 0.0 0.0 0.0
660028000.0 0.0 0.0 0.000438437 -0.000250436 0.0 0.0 0.0 0.0
675027500.0 0.0 0.0 -0.000150281 -0.000554567 0.0 0.0 0.0 0.0
690027000.0 0.0 0.0 0.000447771 -0.000749939 0.0 0.0 0.0 0.0
705026500.0 0.0 0.0 -0.000115197 -0.001047318 0.0 0.0 0.0 0.0
720026000.0 0.0 0.0 0.000372065 -0.000172633 0.0 0.0 0.0 0.0
735025500.0 0.0 0.0 -0.000111994 -0.000470867 0.0 0.0 0.0 0.0
750025000.0 0.0 0.0 -3.1148e-05 -0.000193747 0.0 0.0 0.0 0.0
765024500.0 0.0 0.0 1.3987e-05 -0.000763624 0.0 0.0 0.0 0.0
780024000.0 0.0 0.0 -0.00065916 -0.000753742 0.0 0.0 0.0 0.0
795023500.0 0.0 0.0 8.3594e-05 -0.000496616 0.0 0.0 0.0 0.0
810023000.0 0.0 0.0 -8.4592e-05 -0.000860937 0.0 0.0 0.0 0.0
825022500.0 0.0 0.0 -0.000409698 -0.000267338 0.0 0.0 0.0 0.0
840022000.0 0.0 0.0 -8.9324e-05 -0.000516593 0.0 0.0 0.0 0.0
855021500.0 0.0 0.0 -9.1079e-05 -0.000670107 0.0 0.0 0.0 0.0
870021000.0 0.0 0.0 -0.000443978 -0.000271557 0.0 0.0 0.0 0.0
885020500.0 0.0 0.0 -0.000448377 -0.00038887 0.0 0.0 0.0 0.0
900020000.0 0.0 0.0 -0.001106936 -0.002371755 0.0 0.0 0.0 0.0
915019500.0 0.0 0.0 0.00043774 0.00102275 0.0 0.0 0.0 0.0
930019000.0 0.0 0.0 0.000103268 -0.000796225 0.0 0.0 0.0 0.0
945018500.0 0.0 0.0 0.000351408 -0.00175906 0.0 0.0 0.0 0.0
960018000.0 0.0 0.0 -0.000396761 -0.00203245 0.0 0.0 0.0 0.0
975017500.0 0.0 0.0 0.000824368 -0.000444351 0.0 0.0 0.0 0.0
990017000.0 0.0 0.0 -0.000197998 -0.000184805 0.0 0.0 0.0 0.0
1005016500.0 0.0 0.0 -0.000748656 7.4509e-05 0.0 0.0 0.0 0.0
1020016000.0 0.0 0.0 -0.000987864 -0.001281084 0.0 0.0 0.0 0.0
1035015500.0 0.0 0.0 -0.000188239 -0.001494464 0.0 0.0 0.0 0.0
1050015000.0 0.0 0.0 0.001387817 0.001882104 0.0 0.0 0.0 0.0
1065014500.0 0.0 0.0 0.00242573 0.000668675 0.0 0.0 0.0 0.0
1080014000.0 0.0 0.0 -0.001009904 -0.001587713 0.0 0.0 0.0 0.0
1095013500.0 0.0 0.0 0.000316001 -0.001309333 0.0 0.0 0.0 0.0
1110013000.0 0.0 0.0 0.001201274 0.000101039 0.0 0.0 0.0 0.0
1125012500.0 0.0 0.0 -0.000433419 0.001188092 0.0 0.0 0.0 0.0
1140012000.0 0.0 0.0 -0.001042006 0.000528839 0.0 0.0 0.0 0.0
1155011500.0 0.0 0.0 0.003469372 -0.002144783 0.0 0.0 0.0 0.0
1170011000.0 0.0 0.0 0.000804322 -0.002319832 0.0 0.0 0.0 0.0
1185010500.0 0.0 0.0 -0.002136489 -0.001517963 0.0 0.0 0.0 0.0
1200010000.0 0.0 0.0 -0.002467199 0.002910994 0.0 0.0 0.0 0.0
1215009500.0 0.0 0.0 0.000816605 0.00287761 0.0 0.0 0.0 0.0
1230009000.0 0.0 0.0 -0.001723418 0.002914961 0.0 0.0 0.0 0.0
1245008500.0 0.0 0.0 -0.002097537 0.003846262 0.0 0.0 0.0 0.0
1260008000.0 0.0 0.0 -0.000722854 0.000469668 0.0 0.0 0.0 0.0
1275007500.0 0.0 0.0 -0.001934757 0.008266594 0.0 0.0 0.0 0.0
1290007000.0 0.0 0.0 -0.005771954 -0.001697593 0.0 0.0 0.0 0.0
1305006500.0 0.0 0.0 0.003685582 -0.004293682 0.0 0.0 0.0 0.0
1320006000.0 0.0 0.0 0.008610796 0.003444889 0.0 0.0 0.0 0.0
1335005500.0 0.0 0.0 -0.003900625 -0.000379417 0.0 0.0 0.0 0.0
1350005000.0 0.0 0.0 -0.000854237 0.0007998 0.0 0.0 0.0 0.0
1365004500.0 0.0 0.0 -0.008542202 0.002188981 0.0 0.0 0.0 0.0
1380004000.0 0.0 0.0 0.00056683 0.005476058 0.0 0.0 0.0 0.0
1395003500.0 0.0 0.0 0.010089426 0.003699526 0.0 0.0 0.0 0.0
1410003000.0 0.0 0.0 0.001003745 -0.001283465 0.0 0.0 0.0 0.0
1425002500.0 0.0 0.0 0.002487024 0.001247282 0.0 0.0 0.0 0.0
1440002000.0 0.0 0.0 0.00933616 0.00608931 0.0 0.0 0.0 0.0
1455001500.0 0.0 0.0 -0.005651174 0.00538708 0.0 0.0 0.0 0.0
1470001000.0 0.0 0.0 0.01275202 -0.002145924 0.0 0.0 0.0 0.0
1485000500.0 0.0 0.0 -0.008382344 0.004197807 0.0 0.0 0.0 0.0
1500000000.0 0.0 0.0 0.016224032 0.019765862 0.0 0.0 0.0 0.0
