! Created with skrf 1.8.0 (http://scikit-rf.org).
# Hz S RI R 50.0 
!freq ReS11 ImS11
300000000.0 0.002125715 -0.026233404
303000000.0 0.00479286 -0.030208356
306000000.0 0.005820075 -0.030565594
309000000.0 0.007276284 -0.029528054
312000000.0 0.008052596 -0.028767564
315000000.0 0.010539308 -0.027813876
318000000.0 0.012525548 -0.027497338
321000000.0 0.014544062 -0.026774788
324000000.0 0.01526493 -0.026047722
327000000.0 0.017854762 -0.02528365
330000000.0 0.018893962 -0.024453076
333000000.0 0.02030331 -0.023748352
336000000.0 0.02116948 -0.022998332
339000000.0 0.023034704 -0.021495882
342000000.0 0.025010204 -0.020540188
345000000.0 0.025728472 -0.018838752
348000000.0 0.027019368 -0.017697956
351000000.0 0.028164144 -0.01560078
354000000.0 0.029916688 -0.01490287
357000000.0 0.030194402 -0.012395778
360000000.0 0.030649114 -0.012629296
363000000.0 0.031883494 -0.010096298
366000000.0 0.033003292 -0.008174228
369000000.0 0.033586876 -0.006398185
372000000.0 0.034955044 -0.005006423
375000000.0 0.035042864 -0.002888293
378000000.0 0.037211692 -0.001768507
381000000.0 0.037075 -0.000451122
384000000.0 0.037713928 0.001698418
387000000.0 0.03735816 0.003594844
390000000.0 0.040404536 0.005003468
393000000.0 0.038640192 0.007380259
396000000.0 0.039334132 0.009276754
399000000.0 0.0385398 0.010672034
402000000.0 0.039031932 0.01329935
405000000.0 0.038003996 0.015468892
408000000.0 0.038379428 0.017218998
411000000.0 0.037802148 0.01857228
414000000.0 0.038179876 0.02074958
417000000.0 0.036957804 0.02228432
420000000.0 0.036700356 0.025281408
423000000.0 0.036895016 0.026863538
426000000.0 0.035933224 0.028747388
429000000.0 0.033572416 0.031002032
432000000.0 0.03330946 0.033152166
435000000.0 0.03302547 0.03531352
438000000.0 0.032215226 0.037039692
441000000.0 0.03163591 0.0388699
444000000.0 0.030059834 0.040266472
447000000.0 0.02863128 0.042146888
450000000.0 0.026696486 0.0436028
453000000.0 0.026270564 0.045601284
456000000.0 0.024376846 0.04803426
459000000.0 0.022658684 0.048927836
462000000.0 0.020943774 0.050582544
465000000.0 0.018757244 0.05149342
468000000.0 0.016638458 0.054254408
471000000.0 0.015690478 0.054217228
474000000.0 0.01396609 0.054490892
477000000.0 0.01224255 0.056619252
480000000.0 0.009927964 0.057216756
483000000.0 0.007977919 0.058206924
486000000.0 0.006053697 0.059356248
489000000.0 0.003406643 0.059079296
492000000.0 0.001039512 0.060320728
495000000.0 -0.001055956 0.060295556
498000000.0 -0.003127783 0.060735728
501000000.0 -0.004813217 0.060811052
504000000.0 -0.008208199 0.06077486
507000000.0 -0.011131908 0.062372112
510000000.0 -0.012854804 0.060597832
513000000.0 -0.013752284 0.061893708
516000000.0 -0.01636858 0.061042588
519000000.0 -0.019310128 0.060757608
522000000.0 -0.021922376 0.059763924
525000000.0 -0.02350934 0.059256532
528000000.0 -0.025885478 0.0579608
531000000.0 -0.028733826 0.057386504
534000000.0 -0.030361088 0.055299624
537000000.0 -0.032570622 0.05529798
540000000.0 -0.034767516 0.054186836
543000000.0 -0.036953612 0.052398516
546000000.0 -0.038372832 0.051501432
549000000.0 -0.040821008 0.050747568
552000000.0 -0.042256644 0.049977948
555000000.0 -0.045210252 0.047036072
558000000.0 -0.047224232 0.045699172
561000000.0 -0.048262096 0.044716128
564000000.0 -0.049417204 0.043397696
567000000.0 -0.051886196 0.0422695
570000000.0 -0.05284278 0.039471628
573000000.0 -0.053465348 0.038685688
576000000.0 -0.055310104 0.035814944
579000000.0 -0.057230708 0.033123128
582000000.0 -0.057713776 0.032550148
585000000.0 -0.059628072 0.03033798
588000000.0 -0.058997576 0.02802914
591000000.0 -0.058818936 0.02678414
594000000.0 -0.060330864 0.02413106
597000000.0 -0.062385696 0.021906292
600000000.0 -0.063739836 0.019072042
