! Created with skrf 1.8.0 (http://scikit-rf.org).
# Hz S RI R 50.0 
!freq ReS11 ImS11
300000000.0 0.931248632382335 -0.021898300924448576
303000000.0 0.9998375049889267 -0.011839575936193556
306000000.0 1.0028017827067865 -0.010949987285869883
309000000.0 1.0030039846705328 -0.011679086990021325
312000000.0 0.9987788574619966 -0.012327976737930525
315000000.0 0.994272195029055 -0.012818099247142915
318000000.0 0.9988610490749876 -0.012213909277043779
321000000.0 1.000826089722544 -0.012247611611296562
324000000.0 0.999860536946698 -0.012344668937886619
327000000.0 0.9986110695664182 -0.01375331035212121
330000000.0 0.9926600823150612 -0.011909117115446914
333000000.0 0.9976783970783132 -0.013961572723331844
336000000.0 1.0003217750231328 -0.014590945762111007
339000000.0 1.000395515932311 -0.013763991787606306
342000000.0 0.9970731524861596 -0.014698882393532451
345000000.0 0.9921304736677011 -0.015392430777731976
348000000.0 0.9964468208471676 -0.014651881006680372
351000000.0 0.9894279548350168 -0.036153292812083425
354000000.0 0.9986271770929779 -0.016501090962535967
357000000.0 0.9960736892027408 -0.016071885314392235
360000000.0 0.9909518874627634 -0.016725997453559092
363000000.0 0.9957227133774175 -0.017079424676170653
366000000.0 0.9974181991045497 -0.01779607522469305
369000000.0 0.9978031969327346 -0.01813265394414351
372000000.0 0.9950185590634777 -0.01781220392209628
375000000.0 0.9893202830736749 -0.018198289263870637
378000000.0 0.9943721541196051 -0.018474077148338017
381000000.0 0.996801587393611 -0.019770154283551496
384000000.0 0.9963926667684959 -0.01928670202897837
387000000.0 0.9945446692764883 -0.01919995401802011
390000000.0 0.9992384260039426 -0.07601940460563832
393000000.0 0.992972214607567 -0.020056664931373806
396000000.0 0.9946177417295677 -0.021820198926397843
399000000.0 0.9945230460815245 -0.021674611996239837
402000000.0 0.9909268499551996 -0.018959531924431634
405000000.0 0.9850749233017579 -0.021283785755969616
408000000.0 0.9877881182073944 -0.02071098092472631
411000000.0 0.9896560416047161 -0.02212716179776329
414000000.0 0.9906313264577382 -0.021601094127994016
417000000.0 0.9886968206202432 -0.02017057585045878
420000000.0 0.9829948203986016 -0.022456097407100462
423000000.0 0.9896003081094615 -0.02287019807953799
426000000.0 0.9917041193736975 -0.023368990320306874
429000000.0 0.9713735004003154 -0.02613683851295826
432000000.0 0.9892167192960607 -0.022290430333651055
435000000.0 0.9840054043317645 -0.020694006598856205
438000000.0 0.987954938808415 -0.022866170774869497
441000000.0 0.9918284752012724 -0.024136560191589745
444000000.0 0.9929182795738487 -0.023515510439103486
447000000.0 0.9901707529347648 -0.02257475566705388
450000000.0 0.9849087087297156 -0.023024696325088124
453000000.0 0.9895612493352988 -0.02390664425854892
456000000.0 0.9934368009499056 -0.024052825485963433
459000000.0 0.9882614367316639 -0.02661199159407461
462000000.0 0.9921512878241742 -0.020881250383240638
465000000.0 0.9854628735479646 -0.019894679507779987
468000000.0 0.9852741490954955 -0.02464198529738486
471000000.0 0.9951411463851407 -0.021883126424922923
474000000.0 0.9945634909851866 -0.02188325214515454
477000000.0 0.9942909709304025 -0.02283129212836557
480000000.0 0.9869511347305198 -0.021259225483720424
483000000.0 0.9932148944513695 -0.021651155889770807
486000000.0 0.9945937901498968 -0.02181136825026158
489000000.0 0.9957816151873234 -0.02093807740235628
492000000.0 0.9951008744176607 -0.018668210950162623
495000000.0 0.9876113949557314 -0.017412337492604315
498000000.0 0.994125764253307 -0.01796393863324142
501000000.0 0.9978513938911062 -0.017782166318735203
504000000.0 0.9983790660365984 -0.017315747169815095
507000000.0 0.9995344629602682 -0.01714195747392732
510000000.0 0.9897105097027685 -0.016284356858937466
513000000.0 0.9962446955164557 -0.015793962804179426
516000000.0 0.9994176619735208 -0.016592044618393167
519000000.0 0.9992636250269394 -0.014796930233253089
522000000.0 0.995588269658936 -0.014374004317334144
525000000.0 0.9902056838489103 -0.013477698172257533
528000000.0 0.9954598897829204 -0.013578589043540987
531000000.0 0.9987524544118783 -0.013096639226304732
534000000.0 0.998461245454193 -0.012097991628106344
537000000.0 0.9963903132973941 -0.011007481305117006
540000000.0 0.9917839686716731 -0.00947263849976778
543000000.0 0.9962138349648277 -0.010485732714820381
546000000.0 0.9989978885177331 -0.009953602192064159
549000000.0 1.0002115883458018 -0.008872737232330145
552000000.0 0.9969267727961285 -0.008807827243467889
555000000.0 0.9920624061955626 -0.007011117336570064
558000000.0 0.9968905271477514 -0.0065002642917554665
561000000.0 0.9991255176493731 -0.00699844403761991
564000000.0 0.9995182203605447 -0.006507466068742105
567000000.0 0.9965552274597786 -0.004858885370967326
570000000.0 0.9922166703929359 -0.004817787213883108
573000000.0 0.9971944330990492 -0.004978394575504471
576000000.0 1.0009268593393927 -0.004637434249063426
579000000.0 0.9992326810782063 -0.00437535500300211
582000000.0 0.997890580572835 -0.002976211487252028
585000000.0 0.9941396837927055 0.001764452573300149
588000000.0 0.9865601542270892 -0.0033585265144610017
591000000.0 0.9653520471804007 0.008557508105378682
594000000.0 0.9771747794729173 0.0013685428135467876
597000000.0 0.9845404450231304 -0.0004999237715926757
600000000.0 0.9933624743236344 -0.001666691571720908
