! Created with skrf 1.8.0 (http://scikit-rf.org).
# Hz S RI R 50.0 
!freq ReS11 ImS11
300000000.0 0.0051832668603281375 0.033756891163557526
303000000.0 0.001836093684059142 0.035388661881314544
306000000.0 0.0005089896962322657 0.03730539290718763
309000000.0 -0.0010372634842486497 0.03824488625209489
312000000.0 0.005604744195000035 0.028191677982885886
315000000.0 -0.003809476943941562 0.03818517499148022
318000000.0 -0.005952877678331521 0.038623899012946765
321000000.0 -0.007191395346243618 0.03752175692590097
324000000.0 -0.008259125083228151 0.037506578457863406
327000000.0 -0.010414038170797817 0.03731874328535221
330000000.0 -0.012068264848022425 0.03810507511629903
333000000.0 -0.012304600419917544 0.03858711671439458
336000000.0 -0.012030649302410086 0.0379091748623331
339000000.0 -0.015046238887057299 0.0369831582244865
342000000.0 -0.01648470618184812 0.03746634505528223
345000000.0 -0.017556891965017283 0.03689558217157262
348000000.0 -0.017502173596595266 0.03573014820397212
351000000.0 -0.019109788423786925 0.03477741644764983
354000000.0 -0.020527027653020505 0.034788296534117386
357000000.0 -0.020070837419229253 0.033032490910112955
360000000.0 -0.020722392917218616 0.03440313822049505
363000000.0 -0.020983822004962866 0.03178758234159321
366000000.0 -0.02203742931787642 0.030237090042040837
369000000.0 -0.02259334097711968 0.030130092730425474
372000000.0 -0.024215165819876996 0.028892364391909897
375000000.0 -0.02444804153756667 0.027869668378051608
378000000.0 -0.02620586733052261 0.027644007357727284
381000000.0 -0.026005668839699913 0.026788297980794986
384000000.0 -0.026297607792303786 0.025266584413178795
387000000.0 -0.025198700238377055 0.024884912799492717
390000000.0 -0.013025341709127284 0.004936798337764691
393000000.0 -0.025162405681007638 0.022358573003645087
396000000.0 -0.026421446849510803 0.019817878676779494
399000000.0 -0.02376472843367938 0.02043117230556808
402000000.0 -0.02501072681646874 0.017965390019126573
405000000.0 -0.020671177059302052 0.01596783789060353
408000000.0 -0.021530352129599015 0.015126275172737652
411000000.0 -0.020892406558560936 0.014215122991714905
414000000.0 -0.020053532395179156 0.013648796402069483
417000000.0 -0.018683917154260685 0.011288694029447884
420000000.0 -0.022722904573486243 0.009745416602990173
423000000.0 -0.019656232359199353 0.008550502448899565
426000000.0 -0.02030378253759399 0.007104354000778759
429000000.0 -0.015550745511616951 -0.007585657921068541
432000000.0 -0.01787854984812336 0.0045455971966472785
435000000.0 -0.016043729098245956 0.001837728697412055
438000000.0 -0.013706781622502353 0.00044940759112337115
441000000.0 -0.014619974513633914 -3.647619391572517e-05
444000000.0 -0.011940697283909356 -0.001798551482957189
447000000.0 -0.012796521592454639 -0.005703334936583737
450000000.0 -0.01146534765732942 -0.004721503287946149
453000000.0 -0.009307199072197694 -0.0059901400225082675
456000000.0 -0.010613730716001317 -0.0067411134246917566
459000000.0 -0.0057485010657383935 -0.012402801254945346
462000000.0 -0.005534885224546727 -0.00883477006903548
465000000.0 -0.004853373866628298 -0.011305849059755414
468000000.0 -0.016185982533927498 -0.0098305593412706
471000000.0 -0.002708268327611643 -0.013027200509878661
474000000.0 -0.0014407573683266456 -0.01276457195379708
477000000.0 -0.001037745523191002 -0.01724621755382726
480000000.0 -0.0005061993643262474 -0.015439364654331527
483000000.0 0.003581018636487197 -0.016972443271997605
486000000.0 0.004821464212319916 -0.018591013231779235
489000000.0 0.0067869252746858245 -0.017467707118198252
492000000.0 0.008567362404560392 -0.020312149304158214
495000000.0 0.010198373664168526 -0.022181697405173305
498000000.0 0.012329338757620363 -0.019759993237906046
501000000.0 0.012653781510809379 -0.02014699863311352
504000000.0 0.016952758672469464 -0.02088673186457433
507000000.0 0.019953893910583928 -0.026822885924215504
510000000.0 0.019829633472752347 -0.023336457543572695
513000000.0 0.0208342816887463 -0.02393576483924567
516000000.0 0.022732356128910548 -0.0238573609209053
519000000.0 0.026226753615677268 -0.02245300591445848
522000000.0 0.02867622979990086 -0.02462426430264583
525000000.0 0.029518936639680332 -0.023712629347791957
528000000.0 0.030914119215777507 -0.021480726860779713
531000000.0 0.033872217378293504 -0.022211000458453766
534000000.0 0.034510781107943346 -0.02083181374857433
537000000.0 0.03618682512404553 -0.021051885221073895
540000000.0 0.037869636207980534 -0.020966922839937025
543000000.0 0.039174151487457995 -0.02035248397619214
546000000.0 0.04190883148230981 -0.01985247226308632
549000000.0 0.043733208430825996 -0.019676545961200564
552000000.0 0.044344439562703036 -0.01942388728365246
555000000.0 0.047739727253096845 -0.01797057056175776
558000000.0 0.048645636203699556 -0.01778619247147229
561000000.0 0.04965116277552736 -0.016134552257865885
564000000.0 0.04986144507369746 -0.01675444436220245
567000000.0 0.05312537800229758 -0.0159195511498683
570000000.0 0.052439813700740016 -0.015104526422942964
573000000.0 0.053190480957986425 -0.01366321280467397
576000000.0 0.05378082156011531 -0.011836301864847578
579000000.0 0.05728600350145781 -0.008602562758397696
582000000.0 0.05682889654638332 -0.011876636639169947
585000000.0 0.05124370827460845 -0.009192219006680241
588000000.0 0.05828427522645111 -0.007136141817185494
591000000.0 0.060131001057379 -0.006619054837888896
594000000.0 0.05885342512071594 -0.005301279638431407
597000000.0 0.061033460556197495 -0.002797892218472919
600000000.0 0.061403196763324064 -0.0015353407818065794
