! Created with skrf 1.8.0 (http://scikit-rf.org).
# Hz S RI R 50.0 
!freq ReS11 ImS11
300000000.0 0.003871022 -0.00192261
303000000.0 0.004272161 -0.004340486
306000000.0 0.00492485 -0.00383539
309000000.0 0.005577947 -0.003016614
312000000.0 0.006115474 -0.004155804
315000000.0 0.006136153 -0.001566134
318000000.0 0.006929436 -0.00231209
321000000.0 0.007348166 -0.0008679
324000000.0 0.007851516 -0.000609512
327000000.0 0.007510194 -0.000848372
330000000.0 0.007643933 0.000566013
333000000.0 0.008532952 0.001725913
336000000.0 0.008151368 0.000997972
339000000.0 0.008065506 0.00199787
342000000.0 0.008866346 0.003038884
345000000.0 0.009163754 0.00349155
348000000.0 0.009531246 0.004168802
351000000.0 0.008369416 0.004924349
354000000.0 0.009075838 0.004938687
357000000.0 0.010054784 0.006053718
360000000.0 0.009651458 0.006712086
363000000.0 0.009119608 0.007370458
366000000.0 0.009330998 0.008331893
369000000.0 0.009339998 0.008725414
372000000.0 0.00927138 0.009613942
375000000.0 0.009528614 0.010456504
378000000.0 0.009038316 0.010800118
381000000.0 0.0086979 0.011164906
384000000.0 0.008584 0.01224095
387000000.0 0.008032833 0.013516202
390000000.0 0.014128794 0.00451554
393000000.0 0.007506536 0.014613286
396000000.0 0.007432897 0.014901496
399000000.0 0.007301559 0.015188104
402000000.0 0.006243527 0.015217026
405000000.0 0.00598739 0.017601348
408000000.0 0.005994906 0.017377084
411000000.0 0.005271857 0.017165996
414000000.0 0.005450925 0.017806484
417000000.0 0.003837789 0.01873969
420000000.0 0.003672691 0.019660722
423000000.0 0.002877944 0.02038147
426000000.0 0.002642451 0.020032312
429000000.0 0.002438151 0.020137662
432000000.0 0.001279813 0.022147606
435000000.0 0.000227541 0.022441018
438000000.0 -0.001200261 0.022977852
441000000.0 -0.001608022 0.023150034
444000000.0 -0.002352664 0.023423106
447000000.0 -0.002913946 0.024037092
450000000.0 -0.003374804 0.024591426
453000000.0 -0.005029727 0.024394484
456000000.0 -0.005768962 0.024913206
459000000.0 -0.00587662 0.025136094
462000000.0 -0.00738043 0.025506776
465000000.0 -0.007214989 0.025488556
468000000.0 -0.008936222 0.026610882
471000000.0 -0.009954198 0.026039998
474000000.0 -0.010514046 0.025287914
477000000.0 -0.01162786 0.025265634
480000000.0 -0.01262763 0.026172168
483000000.0 -0.013764054 0.025403092
486000000.0 -0.014624038 0.025036514
489000000.0 -0.01557654 0.02511285
492000000.0 -0.01605589 0.025454212
495000000.0 -0.017122642 0.02438607
498000000.0 -0.018688954 0.02464112
501000000.0 -0.018867872 0.023624504
504000000.0 -0.019136418 0.02312716
507000000.0 -0.020988114 0.023553292
510000000.0 -0.02162855 0.023000094
513000000.0 -0.02202855 0.022525276
516000000.0 -0.02297168 0.02061791
519000000.0 -0.02420084 0.02138443
522000000.0 -0.024021018 0.020809242
525000000.0 -0.02520059 0.020622394
528000000.0 -0.025488 0.018946028
531000000.0 -0.026524564 0.018374166
534000000.0 -0.028105356 0.016964588
537000000.0 -0.028292792 0.018203036
540000000.0 -0.028084924 0.016493334
543000000.0 -0.028049784 0.015559864
546000000.0 -0.029271584 0.014814266
549000000.0 -0.029938438 0.014098196
552000000.0 -0.030323642 0.013587046
555000000.0 -0.030685616 0.012268312
558000000.0 -0.031639748 0.011216438
561000000.0 -0.030556128 0.01007146
564000000.0 -0.031590574 0.00976942
567000000.0 -0.032483902 0.008214246
570000000.0 -0.03278508 0.007677684
573000000.0 -0.031931364 0.006691282
576000000.0 -0.031949032 0.004764646
579000000.0 -0.032698058 0.003106623
582000000.0 -0.031879154 0.003758028
585000000.0 -0.033544954 0.003255498
588000000.0 -0.031388302 0.002608246
591000000.0 -0.031303 0.003377283
594000000.0 -0.032222648 0.001220163
597000000.0 -0.031873662 0.000362314
600000000.0 -0.032095644 -0.001923177
