! Created with skrf 1.8.0 (http://scikit-rf.org).
# Hz S RI R 50.0 
!freq ReS11 ImS11
300000000.0 0.9344909297273797 -0.017986968703970495
303000000.0 0.9999979420573835 -0.0067638282116318895
306000000.0 1.003410044425237 -0.005493994719170986
309000000.0 1.0042801180038614 -0.006946712237831503
312000000.0 0.9927308829734902 -0.007430471738904677
315000000.0 0.9959284466816567 -0.005732806848933873
318000000.0 1.0004154947015984 -0.008019785240551145
321000000.0 1.0023751191603432 -0.008769904520644271
324000000.0 1.0028043530704687 -0.009708296521487792
327000000.0 0.9988093456461712 -0.007999373676340415
330000000.0 0.9959799151624489 -0.009108883587212482
333000000.0 1.0009268536532072 -0.009327529414480179
336000000.0 1.0023706160842634 -0.009973080092867249
339000000.0 1.0023201047325332 -0.009725624956528596
342000000.0 0.9997477099812236 -0.010783135342716358
345000000.0 0.9942995598138061 -0.01142734983862087
348000000.0 0.9990122071366544 -0.011085829579788237
351000000.0 1.0148228974146796 0.002297305555976206
354000000.0 1.0018865532016792 -0.012044184667850028
357000000.0 0.9990131062535382 -0.012150315759676799
360000000.0 0.9941590783090467 -0.012002407149016597
363000000.0 0.9985937674534984 -0.013547991618391748
366000000.0 1.0013324439960347 -0.013440778294296036
369000000.0 1.0013549694273687 -0.013610954408484645
372000000.0 0.9982439496662364 -0.013177825949626095
375000000.0 0.9935831882705127 -0.013822586603809358
378000000.0 0.9986434429887573 -0.014684724526295167
381000000.0 1.0010625602460654 -0.014586279753800625
384000000.0 1.0002401794476592 -0.014151819898215836
387000000.0 0.9979581386262749 -0.014909894444833597
390000000.0 0.9843581700924395 -0.005563027730810846
393000000.0 0.9968100893563605 -0.015865467042785002
396000000.0 0.9999602744992269 -0.016773027653408303
399000000.0 0.9989043566244622 -0.013971992861400885
402000000.0 0.9971008604535107 -0.014698980104593102
405000000.0 0.9908317130284273 -0.015476304398938366
408000000.0 0.9963819746069784 -0.015390737352811676
411000000.0 0.9995528936555368 -0.015308454139685746
414000000.0 0.9989516071437411 -0.01466984962471554
417000000.0 0.998248135967701 -0.015431200938269845
420000000.0 0.9897333167788107 -0.013581241577155385
423000000.0 0.9963082055151458 -0.015434246698191614
426000000.0 0.9982783006701819 -0.015194338703497635
429000000.0 1.0171551695016736 -0.01230655254629735
432000000.0 0.9958406249222354 -0.014087797497316909
435000000.0 0.9912555296011323 -0.01653709261585384
438000000.0 0.9945199703740422 -0.01508479262771556
441000000.0 0.9984532030779196 -0.017808788589326604
444000000.0 0.9987516008022321 -0.015077140256609865
447000000.0 0.9973858687758574 -0.0159232127856846
450000000.0 0.9899260968844078 -0.015216137489993498
453000000.0 0.9956761280114652 -0.015420003128359555
456000000.0 0.997879794534334 -0.01799443990110865
459000000.0 1.0021364291101809 -0.02070963348497302
462000000.0 0.9978856989240942 -0.014421480251587177
465000000.0 0.9911014355978967 -0.014420152998599434
468000000.0 1.0036701633861647 -0.0028050510590518964
471000000.0 0.999186764343767 -0.015773639317803918
474000000.0 0.9995530331917625 -0.014612321559082287
477000000.0 0.9961933768700755 -0.01498068911492051
480000000.0 0.9910724159441879 -0.012726225072579964
483000000.0 0.9979934668229496 -0.013437712755218136
486000000.0 1.0015676836219483 -0.014358174618718128
489000000.0 0.9985452969947337 -0.013287218758138406
492000000.0 0.9987348783248745 -0.012279846738448164
495000000.0 0.9934487338024482 -0.011382842673975534
498000000.0 0.9991469895358249 -0.013298695221255562
501000000.0 1.0016056609774082 -0.01212052203719891
504000000.0 1.0015399466658255 -0.0114095845156973
507000000.0 0.9997625420569173 -0.010013355092224653
510000000.0 0.9946244071355409 -0.011160263757347825
513000000.0 1.000292912910437 -0.0093244017306213
516000000.0 1.0025539380070159 -0.009917585186632922
519000000.0 1.0020232290927484 -0.010017809349246332
522000000.0 1.0001750067482305 -0.008168043146402253
525000000.0 0.9957431349475256 -0.007663980484303362
528000000.0 1.0013496061306928 -0.008356627826571641
531000000.0 1.0049774831750524 -0.007776857840707885
534000000.0 1.0045480563167075 -0.007225361853052436
537000000.0 1.0023131664584382 -0.006748057651791854
540000000.0 0.9968305718590111 -0.00480577253750242
543000000.0 1.003093025166996 -0.006135470893682948
546000000.0 1.0056560466498137 -0.005812296853802636
549000000.0 1.006369812840398 -0.00507901893682648
552000000.0 1.0030920739615385 -0.0036261703524288758
555000000.0 0.9983307822565818 -0.002191881816797635
558000000.0 1.0043580457512693 -0.0038523395220801545
561000000.0 1.0063571210193183 -0.0029148772008798333
564000000.0 1.0062472132783649 -0.002296549410287879
567000000.0 1.0034155817633805 -0.0013599707068666553
570000000.0 0.9986371751685343 -0.00018380495164276378
573000000.0 1.0043582689061792 -0.0011166655745091065
576000000.0 1.0076590106697103 -0.0012578339318227508
579000000.0 1.0069060340837785 0.0013022406769343455
582000000.0 1.0039493157214865 0.0009519663945857065
585000000.0 1.0046918217913205 -0.004374067739916526
588000000.0 0.9913121610343644 0.0032587614274361913
591000000.0 0.9775169923615775 0.011002934124325283
594000000.0 0.9853447877452278 0.006520014156185898
597000000.0 0.991540409961052 0.004814866600592484
600000000.0 1.002264462959412 0.0024839325600453867
