! Created with skrf 1.8.0 (http://scikit-rf.org).
# Hz S RI R 50.0 
!freq ReS11 ImS11
300000000.0 0.0012570628710848557 0.009000297830295738
303000000.0 0.0011505511128353638 0.011357395221425162
306000000.0 -0.0008233323075414815 0.010787484857771987
309000000.0 -0.0008039654451540727 0.012137474061928806
312000000.0 -0.0036893103288405016 0.021191853232714667
315000000.0 -4.2109527837683094e-05 0.010007440494486666
318000000.0 -0.0018886675519037967 0.012261580215774785
321000000.0 -0.00021368840341854783 0.011792827470067041
324000000.0 -0.0017811148532295281 0.012004177770097681
327000000.0 -0.0012910924509203015 0.011415303830997016
330000000.0 -0.0017877250456937246 0.011823391728573726
333000000.0 -0.002158052928465017 0.0100519315092829
336000000.0 -0.0015303440151285758 0.011081457298605414
339000000.0 -0.0007384749857212621 0.011360327716605969
342000000.0 -0.0018112440927169032 0.011498020547922774
345000000.0 -0.0010663435074347873 0.011585195202120717
348000000.0 -0.0010045161887174332 0.010853825776259617
351000000.0 -0.010556098739223058 0.018329813024434937
354000000.0 -0.0014375544961820956 0.011813221866188627
357000000.0 -0.0020597284482741425 0.011523095473310544
360000000.0 -0.0009803423019945755 0.011814255875857344
363000000.0 0.00011473635944030275 0.011646153221664733
366000000.0 -0.0010228353400156998 0.011244475484481754
369000000.0 -0.00047563291468199267 0.01164892961736416
372000000.0 -0.0012409863584339357 0.010842029993487937
375000000.0 -0.0001853953035958604 0.011794461522334211
378000000.0 0.0008585601901377479 0.011370014515220841
381000000.0 0.0016474778152257693 0.011703788580386731
384000000.0 0.001713357602013049 0.010452957906035815
387000000.0 0.0033805573403319165 0.011887109290325675
390000000.0 -0.013290198215835566 0.026951413377044934
393000000.0 0.0051719385451061955 0.010695006448108479
396000000.0 0.004572079429284241 0.011239960876415928
399000000.0 0.00507040790668037 0.010889141905780938
402000000.0 0.004324308142372796 0.012748559860551616
405000000.0 0.005449578540249727 0.010360646569033263
408000000.0 0.006657808314420747 0.0092864499285141
411000000.0 0.006703628327264607 0.011354727428302838
414000000.0 0.006017072457802631 0.012521524596553119
417000000.0 0.010541982747015377 0.01100978263424231
420000000.0 0.008035632787333899 0.009998805439120259
423000000.0 0.00991465546706039 0.010643946174081483
426000000.0 0.010665729749615447 0.011769248565563406
429000000.0 0.010390933537899197 0.018914368828548685
432000000.0 0.012706862584211555 0.011283417552723062
435000000.0 0.013354978053814122 0.009725300434441694
438000000.0 0.01465844962194438 0.009024291582849293
441000000.0 0.013584467402519281 0.010069471870026749
444000000.0 0.015016114879670162 0.00956080568134407
447000000.0 0.01552863224139942 0.010990786969744213
450000000.0 0.01546121429036938 0.009571761702970695
453000000.0 0.016738076390452314 0.0101276092992331
456000000.0 0.01636382696643096 0.009827928514228996
459000000.0 0.015062935209365387 0.007659628970362278
462000000.0 0.017936699314677645 0.011358814774684483
465000000.0 0.016536993004107898 0.009123114267761823
468000000.0 0.021988376141643215 0.010020593564955747
471000000.0 0.021892946242067186 0.011278027323715899
474000000.0 0.02136127752344947 0.011407784577136117
477000000.0 0.023237287516152092 0.010616147442057362
480000000.0 0.023240643294469773 0.011963551090207601
483000000.0 0.024211185633522377 0.012438054918262255
486000000.0 0.023888052677422767 0.011307753384809553
489000000.0 0.02706535786614158 0.012494662122854766
492000000.0 0.026084185848594302 0.009788470062176409
495000000.0 0.026840895826547487 0.014093471073904384
498000000.0 0.02785222491693903 0.0121773988939401
501000000.0 0.02675843600180506 0.015333857588807768
504000000.0 0.025933750477228953 0.012994344386730765
507000000.0 0.023632831141166044 0.014483830424547523
510000000.0 0.028726012945870984 0.012879269958318645
513000000.0 0.027580032252508144 0.013991119201947615
516000000.0 0.02849193807397784 0.014352422890865168
519000000.0 0.029509417672687714 0.014191403287688137
522000000.0 0.02861443578741459 0.01467008628398219
525000000.0 0.030937953560820648 0.013981018671997605
528000000.0 0.031047623810037454 0.015886602944250268
531000000.0 0.030196566273804664 0.016706276501060567
534000000.0 0.03230493304850195 0.01763044756847904
537000000.0 0.031400649392681876 0.015530157190653142
540000000.0 0.03160219962349448 0.01672243592628911
543000000.0 0.03050333267085849 0.018407677896572966
546000000.0 0.03259162208126911 0.018519219600785168
549000000.0 0.0324816305591915 0.018246934049548677
552000000.0 0.0322812494889535 0.017961487521010167
555000000.0 0.03267490677619192 0.01834290133903177
558000000.0 0.032182732135671216 0.019212715727425285
561000000.0 0.03165201542273332 0.020517632732822227
564000000.0 0.03372825206083915 0.020242916862704668
567000000.0 0.033990252585933314 0.02063518544728804
570000000.0 0.033507492295371775 0.01973089711884445
573000000.0 0.032117780440922054 0.021425212738800877
576000000.0 0.031889459883835465 0.0225618496009095
579000000.0 0.03190770385157346 0.022275366950328397
582000000.0 0.03318135150873523 0.022589802236237393
585000000.0 0.032977758374782104 0.0259927472428207
588000000.0 0.030199478845293122 0.021087277918167956
591000000.0 0.029934397590654166 0.023630767723064657
594000000.0 0.031097694585331064 0.02410328212514728
597000000.0 0.034268979444397996 0.022013124484765615
600000000.0 0.028359664606755347 0.026162578864574938
