! Created with skrf 1.8.0 (http://scikit-rf.org).
# Hz S RI R 50.0 
!freq ReS11 ImS11 ReS21 ImS21 ReS12 ImS12 ReS22 ImS22
300000000.0 0.0 0.0 1.0311957867809598 -0.11682052046610458 0.0 0.0 0.0 0.0
303000000.0 0.0 0.0 0.9695768598340118 -0.09866047753507108 0.0 0.0 0.0 0.0
306000000.0 0.0 0.0 0.9685688872438442 -0.09869823846046397 0.0 0.0 0.0 0.0
309000000.0 0.0 0.0 0.9657797417183133 -0.09703311422421129 0.0 0.0 0.0 0.0
312000000.0 0.0 0.0 0.974075993067024 -0.09539345173365137 0.0 0.0 0.0 0.0
315000000.0 0.0 0.0 0.9756227728721625 -0.0989042815803305 0.0 0.0 0.0 0.0
318000000.0 0.0 0.0 0.969872980649451 -0.10059104672145516 0.0 0.0 0.0 0.0
321000000.0 0.0 0.0 0.9679997519894684 -0.10053191144418697 0.0 0.0 0.0 0.0
324000000.0 0.0 0.0 0.9658801847014735 -0.10155465432501412 0.0 0.0 0.0 0.0
327000000.0 0.0 0.0 0.9681138977831208 -0.10095381033328689 0.0 0.0 0.0 0.0
330000000.0 0.0 0.0 0.9734667032021305 -0.10315087480790514 0.0 0.0 0.0 0.0
333000000.0 0.0 0.0 0.9690840292940375 -0.10534742329183412 0.0 0.0 0.0 0.0
336000000.0 0.0 0.0 0.96294349481557 -0.10454009106412952 0.0 0.0 0.0 0.0
339000000.0 0.0 0.0 0.9651829267312452 -0.10360591544185253 0.0 0.0 0.0 0.0
342000000.0 0.0 0.0 0.9671652297894606 -0.10714455572595832 0.0 0.0 0.0 0.0
345000000.0 0.0 0.0 0.9714216784511515 -0.10873215382379804 0.0 0.0 0.0 0.0
348000000.0 0.0 0.0 0.9674756487605866 -0.1075558672574779 0.0 0.0 0.0 0.0
351000000.0 0.0 0.0 0.973809816259049 -0.1273705653784638 0.0 0.0 0.0 0.0
354000000.0 0.0 0.0 0.9653147215832497 -0.10990029903848081 0.0 0.0 0.0 0.0
357000000.0 0.0 0.0 0.9680139990460885 -0.10933719689033494 0.0 0.0 0.0 0.0
360000000.0 0.0 0.0 0.9709062885561214 -0.11269710693273785 0.0 0.0 0.0 0.0
363000000.0 0.0 0.0 0.9666203459236472 -0.11192869731134222 0.0 0.0 0.0 0.0
366000000.0 0.0 0.0 0.9631040799708537 -0.11240671259164645 0.0 0.0 0.0 0.0
369000000.0 0.0 0.0 0.9635408344560227 -0.11258937389663708 0.0 0.0 0.0 0.0
372000000.0 0.0 0.0 0.9661798271031243 -0.11301110270699587 0.0 0.0 0.0 0.0
375000000.0 0.0 0.0 0.9695263728225021 -0.11550794276291036 0.0 0.0 0.0 0.0
378000000.0 0.0 0.0 0.9646989534705345 -0.1152605229238697 0.0 0.0 0.0 0.0
381000000.0 0.0 0.0 0.9630881581774943 -0.11571954302262266 0.0 0.0 0.0 0.0
384000000.0 0.0 0.0 0.962573968168923 -0.11581054202685452 0.0 0.0 0.0 0.0
387000000.0 0.0 0.0 0.9639791113420558 -0.11703431639438698 0.0 0.0 0.0 0.0
390000000.0 0.0 0.0 0.9870573802236767 -0.10727721552374493 0.0 0.0 0.0 0.0
393000000.0 0.0 0.0 0.9648446849856067 -0.11799445893021591 0.0 0.0 0.0 0.0
396000000.0 0.0 0.0 0.9620836972857826 -0.11925793616973307 0.0 0.0 0.0 0.0
399000000.0 0.0 0.0 0.961069327904356 -0.11899394017152543 0.0 0.0 0.0 0.0
402000000.0 0.0 0.0 0.9628687847145508 -0.12102141362238006 0.0 0.0 0.0 0.0
405000000.0 0.0 0.0 0.9685657742405032 -0.12168176157513542 0.0 0.0 0.0 0.0
408000000.0 0.0 0.0 0.9647728932763874 -0.12094673327332277 0.0 0.0 0.0 0.0
411000000.0 0.0 0.0 0.9616564638408749 -0.1209642597423106 0.0 0.0 0.0 0.0
414000000.0 0.0 0.0 0.9612275102324033 -0.12255736395374292 0.0 0.0 0.0 0.0
417000000.0 0.0 0.0 0.9626569709039305 -0.12416998974905652 0.0 0.0 0.0 0.0
420000000.0 0.0 0.0 0.9678359165749805 -0.12149925717860367 0.0 0.0 0.0 0.0
423000000.0 0.0 0.0 0.9630571429144491 -0.12455964943360733 0.0 0.0 0.0 0.0
426000000.0 0.0 0.0 0.9613345033388443 -0.12166157324840896 0.0 0.0 0.0 0.0
429000000.0 0.0 0.0 0.9487868218751467 -0.10786824029992652 0.0 0.0 0.0 0.0
432000000.0 0.0 0.0 0.9614579947329833 -0.12482260353065373 0.0 0.0 0.0 0.0
435000000.0 0.0 0.0 0.9666960418726499 -0.1269488932396209 0.0 0.0 0.0 0.0
438000000.0 0.0 0.0 0.9604421242094042 -0.12408895461814828 0.0 0.0 0.0 0.0
441000000.0 0.0 0.0 0.9594789703745619 -0.12813948397391697 0.0 0.0 0.0 0.0
444000000.0 0.0 0.0 0.9607085320239597 -0.12762125475299788 0.0 0.0 0.0 0.0
447000000.0 0.0 0.0 0.9598875722103224 -0.13166613793665152 0.0 0.0 0.0 0.0
450000000.0 0.0 0.0 0.9707698528220248 -0.12933868202133353 0.0 0.0 0.0 0.0
453000000.0 0.0 0.0 0.9631423587588738 -0.13271906578106557 0.0 0.0 0.0 0.0
456000000.0 0.0 0.0 0.9599397344212991 -0.13126088988282048 0.0 0.0 0.0 0.0
459000000.0 0.0 0.0 0.954451396252679 -0.13617703681157176 0.0 0.0 0.0 0.0
462000000.0 0.0 0.0 0.96252998337054 -0.1330903888947966 0.0 0.0 0.0 0.0
465000000.0 0.0 0.0 0.965841532622636 -0.1344429134349899 0.0 0.0 0.0 0.0
468000000.0 0.0 0.0 0.9782386756592897 -0.13842747890361465 0.0 0.0 0.0 0.0
471000000.0 0.0 0.0 0.9575480084569835 -0.13232989476799958 0.0 0.0 0.0 0.0
474000000.0 0.0 0.0 0.9601413579311417 -0.13409196169697113 0.0 0.0 0.0 0.0
477000000.0 0.0 0.0 0.9587532874777386 -0.13480319255385176 0.0 0.0 0.0 0.0
480000000.0 0.0 0.0 0.9634659294689056 -0.13756719263036435 0.0 0.0 0.0 0.0
483000000.0 0.0 0.0 0.9617914182813033 -0.13867742965941035 0.0 0.0 0.0 0.0
486000000.0 0.0 0.0 0.9599649927955591 -0.13911349767459735 0.0 0.0 0.0 0.0
489000000.0 0.0 0.0 0.9566206272717755 -0.1369862122520888 0.0 0.0 0.0 0.0
492000000.0 0.0 0.0 0.9592767162603744 -0.14143143691742585 0.0 0.0 0.0 0.0
495000000.0 0.0 0.0 0.9647830540471534 -0.14290702274480271 0.0 0.0 0.0 0.0
498000000.0 0.0 0.0 0.9604052775871595 -0.1442226430452199 0.0 0.0 0.0 0.0
501000000.0 0.0 0.0 0.9564089917830523 -0.14385264231410455 0.0 0.0 0.0 0.0
504000000.0 0.0 0.0 0.9583380304423206 -0.14394001283387434 0.0 0.0 0.0 0.0
507000000.0 0.0 0.0 0.9630642823553545 -0.1468102712738149 0.0 0.0 0.0 0.0
510000000.0 0.0 0.0 0.9612051006234079 -0.145652216601492 0.0 0.0 0.0 0.0
513000000.0 0.0 0.0 0.9567761598951664 -0.14606818919746684 0.0 0.0 0.0 0.0
516000000.0 0.0 0.0 0.9553751726006231 -0.1477379886045395 0.0 0.0 0.0 0.0
519000000.0 0.0 0.0 0.9567670727704639 -0.14960204993997897 0.0 0.0 0.0 0.0
522000000.0 0.0 0.0 0.9600011846482064 -0.1501148960329873 0.0 0.0 0.0 0.0
525000000.0 0.0 0.0 0.9631012598823537 -0.15222004701849284 0.0 0.0 0.0 0.0
528000000.0 0.0 0.0 0.9590672397904332 -0.1526673208111882 0.0 0.0 0.0 0.0
531000000.0 0.0 0.0 0.9555837220149186 -0.15215550910176776 0.0 0.0 0.0 0.0
534000000.0 0.0 0.0 0.9554960768950447 -0.15148705747081645 0.0 0.0 0.0 0.0
537000000.0 0.0 0.0 0.9567055610173723 -0.15448300937711484 0.0 0.0 0.0 0.0
540000000.0 0.0 0.0 0.960838916883375 -0.15657713942818857 0.0 0.0 0.0 0.0
543000000.0 0.0 0.0 0.9564194469574223 -0.15562370269044506 0.0 0.0 0.0 0.0
546000000.0 0.0 0.0 0.9552442389994509 -0.1556075802751245 0.0 0.0 0.0 0.0
549000000.0 0.0 0.0 0.9536883444615809 -0.15701852241798753 0.0 0.0 0.0 0.0
552000000.0 0.0 0.0 0.9567549841524672 -0.15868319650040077 0.0 0.0 0.0 0.0
555000000.0 0.0 0.0 0.9607240552805303 -0.16044188640596413 0.0 0.0 0.0 0.0
558000000.0 0.0 0.0 0.9553189206536411 -0.16067772011518877 0.0 0.0 0.0 0.0
561000000.0 0.0 0.0 0.9526879866904623 -0.16067097310765208 0.0 0.0 0.0 0.0
564000000.0 0.0 0.0 0.9519077981760052 -0.16186520959967834 0.0 0.0 0.0 0.0
567000000.0 0.0 0.0 0.95410747042478 -0.16305755546969197 0.0 0.0 0.0 0.0
570000000.0 0.0 0.0 0.957530028202431 -0.16659941496037237 0.0 0.0 0.0 0.0
573000000.0 0.0 0.0 0.9535792888154694 -0.165570315799918 0.0 0.0 0.0 0.0
576000000.0 0.0 0.0 0.9522417603547442 -0.16639951356602178 0.0 0.0 0.0 0.0
579000000.0 0.0 0.0 0.9500095608049133 -0.16711646372188985 0.0 0.0 0.0 0.0
582000000.0 0.0 0.0 0.9521054628099697 -0.16731130604662267 0.0 0.0 0.0 0.0
585000000.0 0.0 0.0 0.9527050202104616 -0.1753416401162396 0.0 0.0 0.0 0.0
588000000.0 0.0 0.0 0.9632747916143384 -0.17281682927786288 0.0 0.0 0.0 0.0
591000000.0 0.0 0.0 0.9856659404396916 -0.17364120088284668 0.0 0.0 0.0 0.0
594000000.0 0.0 0.0 0.9710529159144011 -0.17234052338147338 0.0 0.0 0.0 0.0
597000000.0 0.0 0.0 0.959603398904428 -0.1748629474662538 0.0 0.0 0.0 0.0
600000000.0 0.0 0.0 0.953949532437374 -0.17524204117462094 0.0 0.0 0.0 0.0
