! Created with skrf 1.8.0 (http://scikit-rf.org).
# Hz S RI R 50.0 
!freq ReS11 ImS11 ReS21 ImS21 ReS12 ImS12 ReS22 ImS22
50000.0 0.0 0.0 3.8583e-05 1.3961e-05 0.0 0.0 0.0 0.0
15049500.0 0.0 0.0 -4.7839e-05 -2.303e-06 0.0 0.0 0.0 0.0
30049000.0 0.0 0.0 -3.8766e-05 -2.4518e-05 0.0 0.0 0.0 0.0
45048500.0 0.0 0.0 -4.66e-07 -2.8659e-05 0.0 0.0 0.0 0.0
60048000.0 0.0 0.0 -5.1809e-05 1.9419e-05 0.0 0.0 0.0 0.0
75047500.0 0.0 0.0 -4.9386e-05 -1.4802e-05 0.0 0.0 0.0 0.0
90047000.0 0.0 0.0 -3.9332e-05 7.17e-07 0.0 0.0 0.0 0.0
105046500.0 0.0 0.0 -1.0927e-05 1.4521e-05 0.0 0.0 0.0 0.0
120046000.0 0.0 0.0 -6.8823e-05 1.3297e-05 0.0 0.0 0.0 0.0
135045500.0 0.0 0.0 -7.5284e-05 4.4978e-05 0.0 0.0 0.0 0.0
150045000.0 0.0 0.0 -3.1408e-05 4.7841e-05 0.0 0.0 0.0 0.0
165044500.0 0.0 0.0 -2.3753e-05 4.061e-05 0.0 0.0 0.0 0.0
180044000.0 0.0 0.0 1.7805e-05 4.693e-05 0.0 0.0 0.0 0.0
195043500.0 0.0 0.0 -2.8654e-05 1.7651e-05 0.0 0.0 0.0 0.0
210043000.0 0.0 0.0 -1.5278e-05 6.2958e-05 0.0 0.0 0.0 0.0
225042500.0 0.0 0.0 1.5322e-05 4.4513e-05 0.0 0.0 0.0 0.0
240042000.0 0.0 0.0 -1.262e-05 4.229e-05 0.0 0.0 0.0 0.0
255041500.0 0.0 0.0 8.86e-06 5.9589e-05 0.0 0.0 0.0 0.0
270041000.0 0.0 0.0 1.86e-06 5.8805e-05 0.0 0.0 0.0 0.0
285040500.0 0.0 0.0 3.545e-05 3.9025e-05 0.0 0.0 0.0 0.0
300040000.0 0.0 0.0 -0.000154557 -0.000246215 0.0 0.0 0.0 0.0
315039500.0 0.0 0.0 3.3405e-05 -9.1588e-05 0.0 0.0 0.0 0.0
330039000.0 0.0 0.0 9.4475e-05 -4.5312e-05 0.0 0.0 0.0 0.0
345038500.0 0.0 0.0 -0.000164378 -0.00022785 0.0 0.0 0.0 0.0
360038000.0 0.0 0.0 -5.5363e-05 -7.4348e-05 0.0 0.0 0.0 0.0
375037500.0 0.0 0.0 2.5218e-05 -0.000148514 0.0 0.0 0.0 0.0
390037000.0 0.0 0.0 0.000517313 0.000418916 0.0 0.0 0.0 0.0
405036500.0 0.0 0.0 -0.000183861 0.000422468 0.0 0.0 0.0 0.0
420036000.0 0.0 0.0 -0.000139012 3.4472e-05 0.0 0.0 0.0 0.0
435035500.0 0.0 0.0 0.000371575 0.000192384 0.0 0.0 0.0 0.0
450035000.0 0.0 0.0 -0.000332174 0.000248075 0.0 0.0 0.0 0.0
465034500.0 0.0 0.0 -6.818e-05 -0.000270246 0.0 0.0 0.0 0.0
480034000.0 0.0 0.0 0.000441908 0.000112375 0.0 0.0 0.0 0.0
495033500.0 0.0 0.0 4.4426e-05 9.9146e-05 0.0 0.0 0.0 0.0
510033000.0 0.0 0.0 0.000566813 -0.000410558 0.0 0.0 0.0 0.0
525032500.0 0.0 0.0 0.000559165 -0.000146458 0.0 0.0 0.0 0.0
540032000.0 0.0 0.0 0.000304892 -0.000422602 0.0 0.0 0.0 0.0
555031500.0 0.0 0.0 0.000210466 -0.000565791 0.0 0.0 0.0 0.0
570031000.0 0.0 0.0 0.000409054 -0.000197486 0.0 0.0 0.0 0.0
585030500.0 0.0 0.0 0.000127222 -0.000307259 0.0 0.0 0.0 0.0
600030000.0 0.0 0.0 0.000506555 -0.000696122 0.0 0.0 0.0 0.0
615029500.0 0.0 0.0 -3.5579e-05 -0.000150274 0.0 0.0 0.0 0.0
630029000.0 0.0 0.0 8.2518e-05 -0.000381951 0.0 0.0 0.0 0.0
645028500.0 0.0 0.0 0.000418067 -0.000647968 0.0 0.0 0.0 0.0
660028000.0 0.0 0.0 0.000232492 -0.000551406 0.0 0.0 0.0 0.0
675027500.0 0.0 0.0 -0.00016626 -0.000638963 0.0 0.0 0.0 0.0
690027000.0 0.0 0.0 1.4761e-05 -0.000305334 0.0 0.0 0.0 0.0
705026500.0 0.0 0.0 -0.000284064 -0.000682258 0.0 0.0 0.0 0.0
720026000.0 0.0 0.0 0.00053455 -0.000775259 0.0 0.0 0.0 0.0
735025500.0 0.0 0.0 0.000549009 -0.000495617 0.0 0.0 0.0 0.0
750025000.0 0.0 0.0 -7.2376e-05 -0.000659007 0.0 0.0 0.0 0.0
765024500.0 0.0 0.0 -0.000111819 -0.000631428 0.0 0.0 0.0 0.0
780024000.0 0.0 0.0 -0.000206582 -0.000274829 0.0 0.0 0.0 0.0
795023500.0 0.0 0.0 -0.000345266 -0.00054302 0.0 0.0 0.0 0.0
810023000.0 0.0 0.0 -0.000326562 -0.000663972 0.0 0.0 0.0 0.0
825022500.0 0.0 0.0 9.0367e-05 -0.000242102 0.0 0.0 0.0 0.0
840022000.0 0.0 0.0 -0.000150164 -0.000530114 0.0 0.0 0.0 0.0
855021500.0 0.0 0.0 -0.000386408 -0.000753548 0.0 0.0 0.0 0.0
870021000.0 0.0 0.0 -0.000242837 5.432e-05 0.0 0.0 0.0 0.0
885020500.0 0.0 0.0 -0.00024013 -0.000354262 0.0 0.0 0.0 0.0
900020000.0 0.0 0.0 0.001578501 0.001521052 0.0 0.0 0.0 0.0
915019500.0 0.0 0.0 0.00010586 -0.000878379 0.0 0.0 0.0 0.0
930019000.0 0.0 0.0 -0.000221072 -0.002411877 0.0 0.0 0.0 0.0
945018500.0 0.0 0.0 0.001073237 -0.000553372 0.0 0.0 0.0 0.0
960018000.0 0.0 0.0 0.000485555 -0.001878289 0.0 0.0 0.0 0.0
975017500.0 0.0 0.0 -0.000359748 -0.000156818 0.0 0.0 0.0 0.0
990017000.0 0.0 0.0 0.000556961 0.000294501 0.0 0.0 0.0 0.0
1005016500.0 0.0 0.0 0.002301836 4.2313e-05 0.0 0.0 0.0 0.0
1020016000.0 0.0 0.0 -0.000182263 -0.001396786 0.0 0.0 0.0 0.0
1035015500.0 0.0 0.0 -0.000890797 -0.000662878 0.0 0.0 0.0 0.0
1050015000.0 0.0 0.0 0.00058063 -0.000548643 0.0 0.0 0.0 0.0
1065014500.0 0.0 0.0 -0.001415974 -0.003086562 0.0 0.0 0.0 0.0
1080014000.0 0.0 0.0 0.002514494 -0.000580048 0.0 0.0 0.0 0.0
1095013500.0 0.0 0.0 0.000127294 -0.00285291 0.0 0.0 0.0 0.0
1110013000.0 0.0 0.0 -0.001029926 -0.002799991 0.0 0.0 0.0 0.0
1125012500.0 0.0 0.0 -0.00073624 -0.001002315 0.0 0.0 0.0 0.0
1140012000.0 0.0 0.0 -0.000866326 0.000634071 0.0 0.0 0.0 0.0
1155011500.0 0.0 0.0 4.818e-05 0.000187766 0.0 0.0 0.0 0.0
1170011000.0 0.0 0.0 -0.002782883 0.000771363 0.0 0.0 0.0 0.0
1185010500.0 0.0 0.0 0.000831175 -0.000118786 0.0 0.0 0.0 0.0
1200010000.0 0.0 0.0 -0.002915913 0.000189712 0.0 0.0 0.0 0.0
1215009500.0 0.0 0.0 -0.000657676 0.000510523 0.0 0.0 0.0 0.0
1230009000.0 0.0 0.0 -0.003977289 0.000113705 0.0 0.0 0.0 0.0
1245008500.0 0.0 0.0 0.006062974 -0.003710692 0.0 0.0 0.0 0.0
1260008000.0 0.0 0.0 -0.008106549 0.001246776 0.0 0.0 0.0 0.0
1275007500.0 0.0 0.0 -0.000626805 -0.001442208 0.0 0.0 0.0 0.0
1290007000.0 0.0 0.0 -0.003827134 -0.001187435 0.0 0.0 0.0 0.0
1305006500.0 0.0 0.0 0.003624941 0.000722305 0.0 0.0 0.0 0.0
1320006000.0 0.0 0.0 0.003153226 -0.0011314 0.0 0.0 0.0 0.0
1335005500.0 0.0 0.0 -0.007371706 -0.002234966 0.0 0.0 0.0 0.0
1350005000.0 0.0 0.0 0.002593188 0.002371235 0.0 0.0 0.0 0.0
1365004500.0 0.0 0.0 0.006860439 0.008166263 0.0 0.0 0.0 0.0
1380004000.0 0.0 0.0 0.001573949 -0.002410205 0.0 0.0 0.0 0.0
1395003500.0 0.0 0.0 0.004974821 0.001096757 0.0 0.0 0.0 0.0
1410003000.0 0.0 0.0 -0.003383845 0.004766459 0.0 0.0 0.0 0.0
1425002500.0 0.0 0.0 1.371e-05 0.004664577 0.0 0.0 0.0 0.0
1440002000.0 0.0 0.0 0.0177553 0.01625642 0.0 0.0 0.0 0.0
1455001500.0 0.0 0.0 0.022416862 0.002922182 0.0 0.0 0.0 0.0
1470001000.0 0.0 0.0 -0.001431789 -0.006657861 0.0 0.0 0.0 0.0
1485000500.0 0.0 0.0 0.003594331 0.016351014 0.0 0.0 0.0 0.0
1500000000.0 0.0 0.0 0.001389527 0.011884588 0.0 0.0 0.0 0.0
