! Created with skrf 1.8.0 (http://scikit-rf.org).
# Hz S RI R 50.0 
!freq ReS11 ImS11 ReS21 ImS21 ReS12 ImS12 ReS22 ImS22
50000.0 0.0 0.0 -0.000185248 0.00024168 0.0 0.0 0.0 0.0
15049500.0 0.0 0.0 -3.791e-05 9.421e-06 0.0 0.0 0.0 0.0
30049000.0 0.0 0.0 1.3174e-05 -2.771e-05 0.0 0.0 0.0 0.0
45048500.0 0.0 0.0 -1.94e-06 -4.4768e-05 0.0 0.0 0.0 0.0
60048000.0 0.0 0.0 2.2984e-05 -3.6779e-05 0.0 0.0 0.0 0.0
75047500.0 0.0 0.0 2.094e-06 7.477e-06 0.0 0.0 0.0 0.0
90047000.0 0.0 0.0 -1.8542e-05 3.744e-06 0.0 0.0 0.0 0.0
105046500.0 0.0 0.0 -4.4028e-05 1.9595e-05 0.0 0.0 0.0 0.0
120046000.0 0.0 0.0 -2.3996e-05 3.9837e-05 0.0 0.0 0.0 0.0
135045500.0 0.0 0.0 -5.722e-06 -1.2478e-05 0.0 0.0 0.0 0.0
150045000.0 0.0 0.0 -1.1603e-05 -3.834e-06 0.0 0.0 0.0 0.0
165044500.0 0.0 0.0 -1.6497e-05 4.0438e-05 0.0 0.0 0.0 0.0
180044000.0 0.0 0.0 4.1444e-05 1.817e-06 0.0 0.0 0.0 0.0
195043500.0 0.0 0.0 4.0338e-05 9.524e-06 0.0 0.0 0.0 0.0
210043000.0 0.0 0.0 5.702e-06 1.2586e-05 0.0 0.0 0.0 0.0
225042500.0 0.0 0.0 1.3341e-05 -8.78e-07 0.0 0.0 0.0 0.0
240042000.0 0.0 0.0 1.641e-06 1.8052e-05 0.0 0.0 0.0 0.0
255041500.0 0.0 0.0 -4.1882e-05 -4.561e-06 0.0 0.0 0.0 0.0
270041000.0 0.0 0.0 -2.0844e-05 -2.2971e-05 0.0 0.0 0.0 0.0
285040500.0 0.0 0.0 -4.53e-06 -4.2081e-05 0.0 0.0 0.0 0.0
300040000.0 0.0 0.0 -0.000149387 0.000132518 0.0 0.0 0.0 0.0
315039500.0 0.0 0.0 5.4e-07 0.000140177 0.0 0.0 0.0 0.0
330039000.0 0.0 0.0 0.000363642 -0.000194931 0.0 0.0 0.0 0.0
345038500.0 0.0 0.0 -0.00031774 8.1048e-05 0.0 0.0 0.0 0.0
360038000.0 0.0 0.0 0.00034092 -8.7702e-05 0.0 0.0 0.0 0.0
375037500.0 0.0 0.0 0.000271102 -0.000224642 0.0 0.0 0.0 0.0
390037000.0 0.0 0.0 -0.000263541 -0.000215849 0.0 0.0 0.0 0.0
405036500.0 0.0 0.0 -3.9074e-05 -5.392e-06 0.0 0.0 0.0 0.0
420036000.0 0.0 0.0 0.000113263 0.000134666 0.0 0.0 0.0 0.0
435035500.0 0.0 0.0 -0.000187621 0.000497764 0.0 0.0 0.0 0.0
450035000.0 0.0 0.0 -0.000424024 0.000270281 0.0 0.0 0.0 0.0
465034500.0 0.0 0.0 -0.000323114 0.000615865 0.0 0.0 0.0 0.0
480034000.0 0.0 0.0 0.000179145 -0.000232555 0.0 0.0 0.0 0.0
495033500.0 0.0 0.0 -0.000463946 0.000109842 0.0 0.0 0.0 0.0
510033000.0 0.0 0.0 -0.000175774 7.0493e-05 0.0 0.0 0.0 0.0
525032500.0 0.0 0.0 0.000113321 -0.000615756 0.0 0.0 0.0 0.0
540032000.0 0.0 0.0 0.000269101 -5.327e-05 0.0 0.0 0.0 0.0
555031500.0 0.0 0.0 -0.000298566 -0.00052372 0.0 0.0 0.0 0.0
570031000.0 0.0 0.0 0.001047112 -0.000396317 0.0 0.0 0.0 0.0
585030500.0 0.0 0.0 -0.000212193 0.000255785 0.0 0.0 0.0 0.0
600030000.0 0.0 0.0 0.000542511 0.000293558 0.0 0.0 0.0 0.0
615029500.0 0.0 0.0 0.000288954 -0.000462854 0.0 0.0 0.0 0.0
630029000.0 0.0 0.0 0.000199607 0.000530086 0.0 0.0 0.0 0.0
645028500.0 0.0 0.0 0.000561667 -5.8157e-05 0.0 0.0 0.0 0.0
660028000.0 0.0 0.0 3.971e-05 -0.00010468 0.0 0.0 0.0 0.0
675027500.0 0.0 0.0 -0.000346561 0.000208019 0.0 0.0 0.0 0.0
690027000.0 0.0 0.0 0.000532189 -0.000710369 0.0 0.0 0.0 0.0
705026500.0 0.0 0.0 -2.1632e-05 0.000697068 0.0 0.0 0.0 0.0
720026000.0 0.0 0.0 -0.001129641 -0.000107575 0.0 0.0 0.0 0.0
735025500.0 0.0 0.0 8.281e-05 0.000105394 0.0 0.0 0.0 0.0
750025000.0 0.0 0.0 0.000718997 0.000300917 0.0 0.0 0.0 0.0
765024500.0 0.0 0.0 -0.000296408 -0.000815923 0.0 0.0 0.0 0.0
780024000.0 0.0 0.0 -9.0293e-05 -0.000719332 0.0 0.0 0.0 0.0
795023500.0 0.0 0.0 8.5207e-05 -0.000745284 0.0 0.0 0.0 0.0
810023000.0 0.0 0.0 -0.00042862 -0.000412959 0.0 0.0 0.0 0.0
825022500.0 0.0 0.0 -0.000715311 2.1222e-05 0.0 0.0 0.0 0.0
840022000.0 0.0 0.0 -8.2374e-05 -0.000769566 0.0 0.0 0.0 0.0
855021500.0 0.0 0.0 -0.000365237 -0.000248211 0.0 0.0 0.0 0.0
870021000.0 0.0 0.0 -0.000299109 -0.000655481 0.0 0.0 0.0 0.0
885020500.0 0.0 0.0 -3.8139e-05 -0.000429634 0.0 0.0 0.0 0.0
900020000.0 0.0 0.0 0.000159268 0.000516877 0.0 0.0 0.0 0.0
915019500.0 0.0 0.0 0.001667874 0.000636214 0.0 0.0 0.0 0.0
930019000.0 0.0 0.0 -0.0010115 0.001755351 0.0 0.0 0.0 0.0
945018500.0 0.0 0.0 0.001549316 0.000820327 0.0 0.0 0.0 0.0
960018000.0 0.0 0.0 -0.002773502 -0.001793183 0.0 0.0 0.0 0.0
975017500.0 0.0 0.0 -0.001351907 -0.002081363 0.0 0.0 0.0 0.0
990017000.0 0.0 0.0 0.000894399 -0.000793206 0.0 0.0 0.0 0.0
1005016500.0 0.0 0.0 0.001210884 -0.001285128 0.0 0.0 0.0 0.0
1020016000.0 0.0 0.0 0.000427089 -0.000905165 0.0 0.0 0.0 0.0
1035015500.0 0.0 0.0 0.000540959 -0.005865668 0.0 0.0 0.0 0.0
1050015000.0 0.0 0.0 0.003087489 0.005885047 0.0 0.0 0.0 0.0
1065014500.0 0.0 0.0 0.00041147 0.000541888 0.0 0.0 0.0 0.0
1080014000.0 0.0 0.0 0.00179269 -0.002329756 0.0 0.0 0.0 0.0
1095013500.0 0.0 0.0 0.000563045 -0.000115471 0.0 0.0 0.0 0.0
1110013000.0 0.0 0.0 0.003455534 -0.003171436 0.0 0.0 0.0 0.0
1125012500.0 0.0 0.0 -0.006548024 -0.002777503 0.0 0.0 0.0 0.0
1140012000.0 0.0 0.0 -0.000267343 0.004143164 0.0 0.0 0.0 0.0
1155011500.0 0.0 0.0 -0.000464074 -0.003232717 0.0 0.0 0.0 0.0
1170011000.0 0.0 0.0 0.005758683 0.00309354 0.0 0.0 0.0 0.0
1185010500.0 0.0 0.0 0.001579679 0.006530118 0.0 0.0 0.0 0.0
1200010000.0 0.0 0.0 -0.002918076 -0.004266768 0.0 0.0 0.0 0.0
1215009500.0 0.0 0.0 -0.002612903 -0.002976844 0.0 0.0 0.0 0.0
1230009000.0 0.0 0.0 -0.001233077 -0.00166823 0.0 0.0 0.0 0.0
1245008500.0 0.0 0.0 0.006748897 -0.000643927 0.0 0.0 0.0 0.0
1260008000.0 0.0 0.0 -0.000752334 0.003671991 0.0 0.0 0.0 0.0
1275007500.0 0.0 0.0 0.003246217 -0.004639396 0.0 0.0 0.0 0.0
1290007000.0 0.0 0.0 -0.001717496 0.000364852 0.0 0.0 0.0 0.0
1305006500.0 0.0 0.0 0.006192643 0.004277127 0.0 0.0 0.0 0.0
1320006000.0 0.0 0.0 -0.002532593 -0.007854061 0.0 0.0 0.0 0.0
1335005500.0 0.0 0.0 0.008556718 0.000131924 0.0 0.0 0.0 0.0
1350005000.0 0.0 0.0 0.000832312 -0.007043894 0.0 0.0 0.0 0.0
1365004500.0 0.0 0.0 -0.008721376 0.004167586 0.0 0.0 0.0 0.0
1380004000.0 0.0 0.0 0.001027017 0.014312566 0.0 0.0 0.0 0.0
1395003500.0 0.0 0.0 0.018786322 -0.004814408 0.0 0.0 0.0 0.0
1410003000.0 0.0 0.0 -0.001907812 -0.004154842 0.0 0.0 0.0 0.0
1425002500.0 0.0 0.0 0.008830564 -0.016467474 0.0 0.0 0.0 0.0
1440002000.0 0.0 0.0 -0.002067162 0.001670893 0.0 0.0 0.0 0.0
1455001500.0 0.0 0.0 0.0143642 0.003666173 0.0 0.0 0.0 0.0
1470001000.0 0.0 0.0 0.006730597 0.01983723 0.0 0.0 0.0 0.0
1485000500.0 0.0 0.0 0.010185324 -0.006562145 0.0 0.0 0.0 0.0
1500000000.0 0.0 0.0 -0.001009936 -0.018711844 0.0 0.0 0.0 0.0
