! Created with skrf 1.8.0 (http://scikit-rf.org).
# Hz S RI R 50.0 
!freq ReS11 ImS11 ReS21 ImS21 ReS12 ImS12 ReS22 ImS22
50000.0 0.0 0.0 0.24993334306657505 -0.0040179460214374765 0.0 0.0 0.0 0.0
15049500.0 0.0 0.0 0.2505554159682731 -0.0016876443801649456 0.0 0.0 0.0 0.0
30049000.0 0.0 0.0 0.2502816910213942 -0.0023941751894828527 0.0 0.0 0.0 0.0
45048500.0 0.0 0.0 0.2501499134342016 -0.0028384718109326487 0.0 0.0 0.0 0.0
60048000.0 0.0 0.0 0.25025245922142375 -0.00322545140550835 0.0 0.0 0.0 0.0
75047500.0 0.0 0.0 0.2506413136928307 -0.0039524212187534435 0.0 0.0 0.0 0.0
90047000.0 0.0 0.0 0.2511216651181174 -0.004847327554680971 0.0 0.0 0.0 0.0
105046500.0 0.0 0.0 0.25131023109264894 -0.005863126726751033 0.0 0.0 0.0 0.0
120046000.0 0.0 0.0 0.2513143697469038 -0.007136553486636157 0.0 0.0 0.0 0.0
135045500.0 0.0 0.0 0.2512985996928351 -0.008527694560965342 0.0 0.0 0.0 0.0
150045000.0 0.0 0.0 0.25091741534976436 -0.009826304632035713 0.0 0.0 0.0 0.0
165044500.0 0.0 0.0 0.2506542493970147 -0.010996855227992073 0.0 0.0 0.0 0.0
180044000.0 0.0 0.0 0.2501554244948369 -0.012054967480828701 0.0 0.0 0.0 0.0
195043500.0 0.0 0.0 0.24981775775982246 -0.012895225767386477 0.0 0.0 0.0 0.0
210043000.0 0.0 0.0 0.24960870192687476 -0.01360019023977305 0.0 0.0 0.0 0.0
225042500.0 0.0 0.0 0.24978137480207635 -0.014186919073585701 0.0 0.0 0.0 0.0
240042000.0 0.0 0.0 0.24993148750923064 -0.014833082458988902 0.0 0.0 0.0 0.0
255041500.0 0.0 0.0 0.25062431563531734 -0.016014622888659343 0.0 0.0 0.0 0.0
270041000.0 0.0 0.0 0.2512823259085429 -0.017115856766563384 0.0 0.0 0.0 0.0
285040500.0 0.0 0.0 0.2516314304820184 -0.01804765456964481 0.0 0.0 0.0 0.0
300040000.0 0.0 0.0 0.25111945210222764 -0.023608279627252086 0.0 0.0 0.0 0.0
315039500.0 0.0 0.0 0.25049474603629074 -0.024306799077008126 0.0 0.0 0.0 0.0
330039000.0 0.0 0.0 0.24946090485432937 -0.026569073154155142 0.0 0.0 0.0 0.0
345038500.0 0.0 0.0 0.24851288760304685 -0.026538139147419273 0.0 0.0 0.0 0.0
360038000.0 0.0 0.0 0.24774857044077195 -0.0271796275191846 0.0 0.0 0.0 0.0
375037500.0 0.0 0.0 0.24633169942943167 -0.02697023244978347 0.0 0.0 0.0 0.0
390037000.0 0.0 0.0 0.2459805065156534 -0.02492451004279459 0.0 0.0 0.0 0.0
405036500.0 0.0 0.0 0.24593230823949008 -0.02493283546482647 0.0 0.0 0.0 0.0
420036000.0 0.0 0.0 0.24695754073275067 -0.024778151583847725 0.0 0.0 0.0 0.0
435035500.0 0.0 0.0 0.2477993675598741 -0.023871577619255617 0.0 0.0 0.0 0.0
450035000.0 0.0 0.0 0.2507897364717369 -0.024243827625824756 0.0 0.0 0.0 0.0
465034500.0 0.0 0.0 0.2506068298950842 -0.02654741039503687 0.0 0.0 0.0 0.0
480034000.0 0.0 0.0 0.25144022769423674 -0.027146172993997412 0.0 0.0 0.0 0.0
495033500.0 0.0 0.0 0.2514820799549246 -0.02845777206253422 0.0 0.0 0.0 0.0
510033000.0 0.0 0.0 0.25138967505503984 -0.029355436851959068 0.0 0.0 0.0 0.0
525032500.0 0.0 0.0 0.25184489663934945 -0.02916044968198333 0.0 0.0 0.0 0.0
540032000.0 0.0 0.0 0.25152380322645684 -0.030380465088413532 0.0 0.0 0.0 0.0
555031500.0 0.0 0.0 0.2512301756132955 -0.02956934345784513 0.0 0.0 0.0 0.0
570031000.0 0.0 0.0 0.25165971636084494 -0.029601438023724076 0.0 0.0 0.0 0.0
585030500.0 0.0 0.0 0.2526469352214657 -0.02858220014581922 0.0 0.0 0.0 0.0
600030000.0 0.0 0.0 0.2533164174819986 -0.02991264062394029 0.0 0.0 0.0 0.0
615029500.0 0.0 0.0 0.2538053150198959 -0.029995046770937568 0.0 0.0 0.0 0.0
630029000.0 0.0 0.0 0.2563038782363035 -0.031116720505859126 0.0 0.0 0.0 0.0
645028500.0 0.0 0.0 0.2571316345132779 -0.03291946816668262 0.0 0.0 0.0 0.0
660028000.0 0.0 0.0 0.25772751126594323 -0.034469080708408276 0.0 0.0 0.0 0.0
675027500.0 0.0 0.0 0.25981933471262425 -0.03716489355828454 0.0 0.0 0.0 0.0
690027000.0 0.0 0.0 0.25803951384681717 -0.039481232361194524 0.0 0.0 0.0 0.0
705026500.0 0.0 0.0 0.2566191696235048 -0.04171932005556303 0.0 0.0 0.0 0.0
720026000.0 0.0 0.0 0.25400387414952574 -0.043239724737738294 0.0 0.0 0.0 0.0
735025500.0 0.0 0.0 0.25297419761506484 -0.043076346135991796 0.0 0.0 0.0 0.0
750025000.0 0.0 0.0 0.2512187981810374 -0.04268285433975268 0.0 0.0 0.0 0.0
765024500.0 0.0 0.0 0.2494037267603016 -0.04245508660202542 0.0 0.0 0.0 0.0
780024000.0 0.0 0.0 0.25268575514138214 -0.04227939224520962 0.0 0.0 0.0 0.0
795023500.0 0.0 0.0 0.24926139229007313 -0.039491827843303684 0.0 0.0 0.0 0.0
810023000.0 0.0 0.0 0.24971455172222806 -0.03729296715336463 0.0 0.0 0.0 0.0
825022500.0 0.0 0.0 0.2525374752817793 -0.038567733853478184 0.0 0.0 0.0 0.0
840022000.0 0.0 0.0 0.2532061731873015 -0.04017503337421114 0.0 0.0 0.0 0.0
855021500.0 0.0 0.0 0.2567665213425217 -0.03951959064745456 0.0 0.0 0.0 0.0
870021000.0 0.0 0.0 0.25477483667174555 -0.04264499657774871 0.0 0.0 0.0 0.0
885020500.0 0.0 0.0 0.2565801390981001 -0.046535632640255106 0.0 0.0 0.0 0.0
900020000.0 0.0 0.0 0.25391977534351684 -0.04363232128569737 0.0 0.0 0.0 0.0
915019500.0 0.0 0.0 0.254206880991389 -0.046260566041938345 0.0 0.0 0.0 0.0
930019000.0 0.0 0.0 0.24985879934932462 -0.04541242539466901 0.0 0.0 0.0 0.0
945018500.0 0.0 0.0 0.251430122933655 -0.05087479631882145 0.0 0.0 0.0 0.0
960018000.0 0.0 0.0 0.24889537926148267 -0.04209821020291172 0.0 0.0 0.0 0.0
975017500.0 0.0 0.0 0.2523764136635513 -0.04833612284579702 0.0 0.0 0.0 0.0
990017000.0 0.0 0.0 0.25279951796906264 -0.04371339859022143 0.0 0.0 0.0 0.0
1005016500.0 0.0 0.0 0.25366476296338764 -0.04119456266292893 0.0 0.0 0.0 0.0
1020016000.0 0.0 0.0 0.24894764867440589 -0.03872089660039331 0.0 0.0 0.0 0.0
1035015500.0 0.0 0.0 0.24536749861989232 -0.045592166274195996 0.0 0.0 0.0 0.0
1050015000.0 0.0 0.0 0.23301361505496632 -0.03703947366058093 0.0 0.0 0.0 0.0
1065014500.0 0.0 0.0 0.2439467065962871 -0.04488402158202656 0.0 0.0 0.0 0.0
1080014000.0 0.0 0.0 0.24307129209038542 -0.04353640054254486 0.0 0.0 0.0 0.0
1095013500.0 0.0 0.0 0.23110040678695795 -0.03962534488788235 0.0 0.0 0.0 0.0
1110013000.0 0.0 0.0 0.22756876074571344 -0.045337600454782745 0.0 0.0 0.0 0.0
1125012500.0 0.0 0.0 0.2238198816713708 -0.04865627173990283 0.0 0.0 0.0 0.0
1140012000.0 0.0 0.0 0.228923384805144 -0.041362379557259514 0.0 0.0 0.0 0.0
1155011500.0 0.0 0.0 0.21397793175813318 -0.04777329743640546 0.0 0.0 0.0 0.0
1170011000.0 0.0 0.0 0.21519308394284906 -0.03750317820651156 0.0 0.0 0.0 0.0
1185010500.0 0.0 0.0 0.2048131959058845 -0.03926783066477553 0.0 0.0 0.0 0.0
1200010000.0 0.0 0.0 0.2192408598703846 -0.029108047675403762 0.0 0.0 0.0 0.0
1215009500.0 0.0 0.0 0.2104884994605625 -0.03713834683323301 0.0 0.0 0.0 0.0
1230009000.0 0.0 0.0 0.21718104252304515 -0.036106450828911806 0.0 0.0 0.0 0.0
1245008500.0 0.0 0.0 0.21837417211178795 -0.03452489393409851 0.0 0.0 0.0 0.0
1260008000.0 0.0 0.0 0.2294155928892664 -0.036913079306616005 0.0 0.0 0.0 0.0
1275007500.0 0.0 0.0 0.22523031948499897 -0.04556262922912761 0.0 0.0 0.0 0.0
1290007000.0 0.0 0.0 0.23091773270474145 -0.0507844855842277 0.0 0.0 0.0 0.0
1305006500.0 0.0 0.0 0.22721485564442692 -0.06159719403406808 0.0 0.0 0.0 0.0
1320006000.0 0.0 0.0 0.21012991091173736 -0.08607576810745976 0.0 0.0 0.0 0.0
1335005500.0 0.0 0.0 0.23839189453342657 -0.07694356622516618 0.0 0.0 0.0 0.0
1350005000.0 0.0 0.0 0.23000403561540897 -0.08078701957099609 0.0 0.0 0.0 0.0
1365004500.0 0.0 0.0 0.2234859344363421 -0.0843630358418893 0.0 0.0 0.0 0.0
1380004000.0 0.0 0.0 0.23289549534736842 -0.07386139871187593 0.0 0.0 0.0 0.0
1395003500.0 0.0 0.0 0.24677830141990723 -0.12244423150487108 0.0 0.0 0.0 0.0
1410003000.0 0.0 0.0 0.24647519609937452 -0.09021385442207172 0.0 0.0 0.0 0.0
1425002500.0 0.0 0.0 0.249147282812676 -0.11740683751211037 0.0 0.0 0.0 0.0
1440002000.0 0.0 0.0 0.24613951175578563 -0.10426327302632901 0.0 0.0 0.0 0.0
1455001500.0 0.0 0.0 0.2505750112498037 -0.133369977378423 0.0 0.0 0.0 0.0
1470001000.0 0.0 0.0 0.24931448271796036 -0.14558535411169538 0.0 0.0 0.0 0.0
1485000500.0 0.0 0.0 0.253136917031765 -0.1413604177561455 0.0 0.0 0.0 0.0
1500000000.0 0.0 0.0 0.26966125519159007 -0.16348068047594844 0.0 0.0 0.0 0.0
