! Created with skrf 1.8.0 (http://scikit-rf.org).
# Hz S RI R 50.0 
!freq ReS11 ImS11 ReS21 ImS21 ReS12 ImS12 ReS22 ImS22
50000.0 0.0 0.0 -0.000250579 -0.000106415 0.0 0.0 0.0 0.0
15049500.0 0.0 0.0 -1.485e-06 2.255e-05 0.0 0.0 0.0 0.0
30049000.0 0.0 0.0 -3.9317e-05 -2.7895e-05 0.0 0.0 0.0 0.0
45048500.0 0.0 0.0 -4.0253e-05 4.042e-06 0.0 0.0 0.0 0.0
60048000.0 0.0 0.0 2.6236e-05 -3.05e-07 0.0 0.0 0.0 0.0
75047500.0 0.0 0.0 -2.2669e-05 -3.546e-06 0.0 0.0 0.0 0.0
90047000.0 0.0 0.0 -1.6479e-05 3.5675e-05 0.0 0.0 0.0 0.0
105046500.0 0.0 0.0 -1.527e-05 -4.752e-06 0.0 0.0 0.0 0.0
120046000.0 0.0 0.0 -2.5246e-05 2.5754e-05 0.0 0.0 0.0 0.0
135045500.0 0.0 0.0 4.75e-06 1.14e-06 0.0 0.0 0.0 0.0
150045000.0 0.0 0.0 2.5986e-05 2.6341e-05 0.0 0.0 0.0 0.0
165044500.0 0.0 0.0 6.154e-06 -1.0852e-05 0.0 0.0 0.0 0.0
180044000.0 0.0 0.0 1.9107e-05 -4.76e-07 0.0 0.0 0.0 0.0
195043500.0 0.0 0.0 2.2229e-05 1.158e-05 0.0 0.0 0.0 0.0
210043000.0 0.0 0.0 1.1934e-05 1.3627e-05 0.0 0.0 0.0 0.0
225042500.0 0.0 0.0 9.397e-06 -9.507e-06 0.0 0.0 0.0 0.0
240042000.0 0.0 0.0 -1.4393e-05 1.5941e-05 0.0 0.0 0.0 0.0
255041500.0 0.0 0.0 1.64e-05 -2.2092e-05 0.0 0.0 0.0 0.0
270041000.0 0.0 0.0 4.576e-05 -5.448e-06 0.0 0.0 0.0 0.0
285040500.0 0.0 0.0 -1.2426e-05 -2.1054e-05 0.0 0.0 0.0 0.0
300040000.0 0.0 0.0 0.000680266 0.000192564 0.0 0.0 0.0 0.0
315039500.0 0.0 0.0 0.000297179 0.00015163 0.0 0.0 0.0 0.0
330039000.0 0.0 0.0 0.000710845 -0.000207687 0.0 0.0 0.0 0.0
345038500.0 0.0 0.0 -0.000262017 -0.00056648 0.0 0.0 0.0 0.0
360038000.0 0.0 0.0 0.00022553 0.000113639 0.0 0.0 0.0 0.0
375037500.0 0.0 0.0 0.000341438 6.6658e-05 0.0 0.0 0.0 0.0
390037000.0 0.0 0.0 -4.7678e-05 -6.4486e-05 0.0 0.0 0.0 0.0
405036500.0 0.0 0.0 0.000442093 -9.315e-05 0.0 0.0 0.0 0.0
420036000.0 0.0 0.0 -0.000113419 -0.000348487 0.0 0.0 0.0 0.0
435035500.0 0.0 0.0 0.000300005 0.000116675 0.0 0.0 0.0 0.0
450035000.0 0.0 0.0 -0.0001921 -0.000452357 0.0 0.0 0.0 0.0
465034500.0 0.0 0.0 -0.00040516 -0.000361743 0.0 0.0 0.0 0.0
480034000.0 0.0 0.0 -0.000392539 -3.9554e-05 0.0 0.0 0.0 0.0
495033500.0 0.0 0.0 -0.000132141 -0.00041066 0.0 0.0 0.0 0.0
510033000.0 0.0 0.0 -0.000193088 0.000316619 0.0 0.0 0.0 0.0
525032500.0 0.0 0.0 -0.000142056 -0.000511603 0.0 0.0 0.0 0.0
540032000.0 0.0 0.0 -0.000229628 0.000184164 0.0 0.0 0.0 0.0
555031500.0 0.0 0.0 0.000170546 -0.000570692 0.0 0.0 0.0 0.0
570031000.0 0.0 0.0 -0.0002012 -0.000208437 0.0 0.0 0.0 0.0
585030500.0 0.0 0.0 -0.000542622 0.000198338 0.0 0.0 0.0 0.0
600030000.0 0.0 0.0 0.000332865 0.000490928 0.0 0.0 0.0 0.0
615029500.0 0.0 0.0 -0.000799165 0.0003134 0.0 0.0 0.0 0.0
630029000.0 0.0 0.0 -0.000226908 -0.000249262 0.0 0.0 0.0 0.0
645028500.0 0.0 0.0 0.000370344 -2.2338e-05 0.0 0.0 0.0 0.0
660028000.0 0.0 0.0 0.000493977 8.9702e-05 0.0 0.0 0.0 0.0
675027500.0 0.0 0.0 0.000288462 -0.000197887 0.0 0.0 0.0 0.0
690027000.0 0.0 0.0 9.2053e-05 -0.0004023 0.0 0.0 0.0 0.0
705026500.0 0.0 0.0 -0.000701637 -7.0666e-05 0.0 0.0 0.0 0.0
720026000.0 0.0 0.0 -0.000261703 -0.000686276 0.0 0.0 0.0 0.0
735025500.0 0.0 0.0 0.000230709 -3.0225e-05 0.0 0.0 0.0 0.0
750025000.0 0.0 0.0 -0.000188784 0.000563292 0.0 0.0 0.0 0.0
765024500.0 0.0 0.0 0.000582456 0.000289868 0.0 0.0 0.0 0.0
780024000.0 0.0 0.0 -0.000160861 0.000281822 0.0 0.0 0.0 0.0
795023500.0 0.0 0.0 -1.7459e-05 4.8592e-05 0.0 0.0 0.0 0.0
810023000.0 0.0 0.0 -0.00055929 -0.000463463 0.0 0.0 0.0 0.0
825022500.0 0.0 0.0 -0.000162001 -0.001214644 0.0 0.0 0.0 0.0
840022000.0 0.0 0.0 0.00028483 -0.000288241 0.0 0.0 0.0 0.0
855021500.0 0.0 0.0 -0.000283481 -0.000395345 0.0 0.0 0.0 0.0
870021000.0 0.0 0.0 0.000108265 -9.1024e-05 0.0 0.0 0.0 0.0
885020500.0 0.0 0.0 -0.000317689 0.000172351 0.0 0.0 0.0 0.0
900020000.0 0.0 0.0 0.001641566 -0.000871151 0.0 0.0 0.0 0.0
915019500.0 0.0 0.0 -0.000874855 0.000212624 0.0 0.0 0.0 0.0
930019000.0 0.0 0.0 0.000179344 -0.000939711 0.0 0.0 0.0 0.0
945018500.0 0.0 0.0 0.00094064 -0.00031423 0.0 0.0 0.0 0.0
960018000.0 0.0 0.0 -8.4095e-05 -0.000157712 0.0 0.0 0.0 0.0
975017500.0 0.0 0.0 -0.00162078 -0.001426477 0.0 0.0 0.0 0.0
990017000.0 0.0 0.0 -0.003372238 -0.000652925 0.0 0.0 0.0 0.0
1005016500.0 0.0 0.0 -0.001520304 -2.4154e-05 0.0 0.0 0.0 0.0
1020016000.0 0.0 0.0 -0.001876789 -2.8207e-05 0.0 0.0 0.0 0.0
1035015500.0 0.0 0.0 0.001882259 0.000446671 0.0 0.0 0.0 0.0
1050015000.0 0.0 0.0 -0.001003748 0.000382517 0.0 0.0 0.0 0.0
1065014500.0 0.0 0.0 -0.001302152 -0.001861603 0.0 0.0 0.0 0.0
1080014000.0 0.0 0.0 3.6862e-05 0.000583935 0.0 0.0 0.0 0.0
1095013500.0 0.0 0.0 0.000231878 -0.00111069 0.0 0.0 0.0 0.0
1110013000.0 0.0 0.0 0.000411116 -0.006844526 0.0 0.0 0.0 0.0
1125012500.0 0.0 0.0 -0.005575021 -0.000661897 0.0 0.0 0.0 0.0
1140012000.0 0.0 0.0 -0.00513155 -0.002170362 0.0 0.0 0.0 0.0
1155011500.0 0.0 0.0 -0.002920987 -0.002974262 0.0 0.0 0.0 0.0
1170011000.0 0.0 0.0 0.000307369 -0.000222807 0.0 0.0 0.0 0.0
1185010500.0 0.0 0.0 -0.004992031 -0.004309394 0.0 0.0 0.0 0.0
1200010000.0 0.0 0.0 -0.001037987 0.003787585 0.0 0.0 0.0 0.0
1215009500.0 0.0 0.0 0.003940495 0.002075064 0.0 0.0 0.0 0.0
1230009000.0 0.0 0.0 0.000919654 -0.002235613 0.0 0.0 0.0 0.0
1245008500.0 0.0 0.0 0.010783804 -0.005558751 0.0 0.0 0.0 0.0
1260008000.0 0.0 0.0 0.011174018 0.003981229 0.0 0.0 0.0 0.0
1275007500.0 0.0 0.0 0.010719782 0.001963331 0.0 0.0 0.0 0.0
1290007000.0 0.0 0.0 0.005350743 0.005163512 0.0 0.0 0.0 0.0
1305006500.0 0.0 0.0 0.005394321 0.01333608 0.0 0.0 0.0 0.0
1320006000.0 0.0 0.0 0.000208974 0.007390496 0.0 0.0 0.0 0.0
1335005500.0 0.0 0.0 -0.000268125 0.002756241 0.0 0.0 0.0 0.0
1350005000.0 0.0 0.0 -0.013359552 0.008131941 0.0 0.0 0.0 0.0
1365004500.0 0.0 0.0 -0.005547899 -0.006198706 0.0 0.0 0.0 0.0
1380004000.0 0.0 0.0 0.025600614 -0.027347788 0.0 0.0 0.0 0.0
1395003500.0 0.0 0.0 0.013229792 -0.000822951 0.0 0.0 0.0 0.0
1410003000.0 0.0 0.0 8.4017e-05 -0.00108974 0.0 0.0 0.0 0.0
1425002500.0 0.0 0.0 0.003641859 -0.012435112 0.0 0.0 0.0 0.0
1440002000.0 0.0 0.0 0.017035254 -0.01565857 0.0 0.0 0.0 0.0
1455001500.0 0.0 0.0 0.014812076 0.014537114 0.0 0.0 0.0 0.0
1470001000.0 0.0 0.0 0.031709832 -0.010295584 0.0 0.0 0.0 0.0
1485000500.0 0.0 0.0 0.018808122 0.004133587 0.0 0.0 0.0 0.0
1500000000.0 0.0 0.0 0.007387629 0.016115828 0.0 0.0 0.0 0.0
