! Created with skrf 1.8.0 (http://scikit-rf.org).
# Hz S RI R 50.0 
!freq ReS11 ImS11 ReS21 ImS21 ReS12 ImS12 ReS22 ImS22
300000000.0 0.0 0.0 -2.1489474225499256e-05 -9.040996838021569e-05 0.0 0.0 0.0 0.0
303000000.0 0.0 0.0 0.0008470229849773509 2.8692412883172376e-05 0.0 0.0 0.0 0.0
306000000.0 0.0 0.0 0.00021667633246351384 -0.0005493903126914059 0.0 0.0 0.0 0.0
309000000.0 0.0 0.0 -0.00017089501943714271 5.025342126242365e-05 0.0 0.0 0.0 0.0
312000000.0 0.0 0.0 -0.00046835872114250356 -4.1235893669940927e-05 0.0 0.0 0.0 0.0
315000000.0 0.0 0.0 -0.00013335433125056078 7.152214096848409e-05 0.0 0.0 0.0 0.0
318000000.0 0.0 0.0 -0.00013996387282985177 -0.0002835594399547811 0.0 0.0 0.0 0.0
321000000.0 0.0 0.0 3.5827327698878678e-06 0.00030995169831910836 0.0 0.0 0.0 0.0
324000000.0 0.0 0.0 -0.000446034675301739 0.0005560268746755611 0.0 0.0 0.0 0.0
327000000.0 0.0 0.0 9.741462179650864e-05 -0.000426817850662602 0.0 0.0 0.0 0.0
330000000.0 0.0 0.0 0.0003991514054441369 -0.00036065852647202204 0.0 0.0 0.0 0.0
333000000.0 0.0 0.0 -8.933446184807114e-05 -1.2985989616333514e-05 0.0 0.0 0.0 0.0
336000000.0 0.0 0.0 0.00014596174584580223 -0.000549069017496567 0.0 0.0 0.0 0.0
339000000.0 0.0 0.0 -0.00015258696323268499 0.000158471149097958 0.0 0.0 0.0 0.0
342000000.0 0.0 0.0 -7.341785182376865e-05 -0.0006677521551523313 0.0 0.0 0.0 0.0
345000000.0 0.0 0.0 7.865517351483356e-05 -9.256825561903725e-05 0.0 0.0 0.0 0.0
348000000.0 0.0 0.0 -0.00023512242891559506 8.450819680262355e-05 0.0 0.0 0.0 0.0
351000000.0 0.0 0.0 -0.00037628991718484015 -0.0007747641962720181 0.0 0.0 0.0 0.0
354000000.0 0.0 0.0 -0.00012034679008169026 -0.000493520863750494 0.0 0.0 0.0 0.0
357000000.0 0.0 0.0 -6.039330163362391e-05 -0.00033033110437073607 0.0 0.0 0.0 0.0
360000000.0 0.0 0.0 -0.0001642025812812632 -0.0005720310360798356 0.0 0.0 0.0 0.0
363000000.0 0.0 0.0 0.00043991212021293654 -0.0006520760705736403 0.0 0.0 0.0 0.0
366000000.0 0.0 0.0 -0.0001294035334034507 -0.0006082410241283483 0.0 0.0 0.0 0.0
369000000.0 0.0 0.0 0.0004628127366663633 -8.161953229706365e-05 0.0 0.0 0.0 0.0
372000000.0 0.0 0.0 9.907077488316912e-05 -0.0001394493679227282 0.0 0.0 0.0 0.0
375000000.0 0.0 0.0 -0.00033959780290623767 0.00012997481281870008 0.0 0.0 0.0 0.0
378000000.0 0.0 0.0 7.176964060687955e-06 -8.80824675623452e-05 0.0 0.0 0.0 0.0
381000000.0 0.0 0.0 0.0006434610501310196 -0.00012459977844797956 0.0 0.0 0.0 0.0
384000000.0 0.0 0.0 -0.00012025839609099415 -0.0005573530998699312 0.0 0.0 0.0 0.0
387000000.0 0.0 0.0 -0.00035894949809311315 -0.0002963672826421672 0.0 0.0 0.0 0.0
390000000.0 0.0 0.0 -5.14355187012166e-05 -0.00019584809378938773 0.0 0.0 0.0 0.0
393000000.0 0.0 0.0 -0.0002684427326673042 -0.000243193135993001 0.0 0.0 0.0 0.0
396000000.0 0.0 0.0 0.00021841819212605086 -5.4740556933479736e-05 0.0 0.0 0.0 0.0
399000000.0 0.0 0.0 0.0002708539729632305 -0.00025984486989362254 0.0 0.0 0.0 0.0
402000000.0 0.0 0.0 -2.893483286173331e-05 -0.0005593616361632817 0.0 0.0 0.0 0.0
405000000.0 0.0 0.0 -0.0006242097117206994 0.00019613648290555514 0.0 0.0 0.0 0.0
408000000.0 0.0 0.0 -0.0002463079838071007 -0.0005779390530470154 0.0 0.0 0.0 0.0
411000000.0 0.0 0.0 -0.00012548193057272095 -0.0005345306337570773 0.0 0.0 0.0 0.0
414000000.0 0.0 0.0 0.000273647266583584 -0.0003370165410366869 0.0 0.0 0.0 0.0
417000000.0 0.0 0.0 0.0003381078284904396 -0.00067023763348493 0.0 0.0 0.0 0.0
420000000.0 0.0 0.0 -0.0006226963575043859 -0.0003812622669289083 0.0 0.0 0.0 0.0
423000000.0 0.0 0.0 0.00018547579030610866 -0.00039128292684363874 0.0 0.0 0.0 0.0
426000000.0 0.0 0.0 0.0002879032106179561 -0.000316259585658479 0.0 0.0 0.0 0.0
429000000.0 0.0 0.0 0.0002123817162473368 -0.0004102498774464603 0.0 0.0 0.0 0.0
432000000.0 0.0 0.0 -0.0004687673240711683 -0.0004871682991576487 0.0 0.0 0.0 0.0
435000000.0 0.0 0.0 1.1606702698029739e-05 -0.0009720010262095813 0.0 0.0 0.0 0.0
438000000.0 0.0 0.0 0.00043593389352134193 -0.00020149064995012386 0.0 0.0 0.0 0.0
441000000.0 0.0 0.0 0.00027627228985882595 -0.0004805229221610149 0.0 0.0 0.0 0.0
444000000.0 0.0 0.0 -0.0005045503845292539 -0.0006109581651704003 0.0 0.0 0.0 0.0
447000000.0 0.0 0.0 -0.00023180924129926754 -0.0002475312861059344 0.0 0.0 0.0 0.0
450000000.0 0.0 0.0 0.0002619106156081698 0.0003005992759567951 0.0 0.0 0.0 0.0
453000000.0 0.0 0.0 0.0005540812454628263 -0.001130557265162346 0.0 0.0 0.0 0.0
456000000.0 0.0 0.0 -3.4909750240946675e-06 -0.0007778022960356836 0.0 0.0 0.0 0.0
459000000.0 0.0 0.0 -0.0005721183925487095 -0.0004954292807782769 0.0 0.0 0.0 0.0
462000000.0 0.0 0.0 0.00030419612284301615 -0.0005231285695135342 0.0 0.0 0.0 0.0
465000000.0 0.0 0.0 -0.0003818142745512377 -0.0008756115908288972 0.0 0.0 0.0 0.0
468000000.0 0.0 0.0 -0.00027872690846438773 -0.0005113109397997318 0.0 0.0 0.0 0.0
471000000.0 0.0 0.0 -0.0002083134180580764 -0.0007090675482328614 0.0 0.0 0.0 0.0
474000000.0 0.0 0.0 0.0007241212789562116 -0.000881620517560033 0.0 0.0 0.0 0.0
477000000.0 0.0 0.0 -0.0009184461656225381 -0.000712875878305794 0.0 0.0 0.0 0.0
480000000.0 0.0 0.0 -7.0982897412696e-05 -0.0007220790192298198 0.0 0.0 0.0 0.0
483000000.0 0.0 0.0 0.00037164906779825615 -0.0012322983858245077 0.0 0.0 0.0 0.0
486000000.0 0.0 0.0 -0.00023940563542285085 4.475915479296945e-05 0.0 0.0 0.0 0.0
489000000.0 0.0 0.0 0.00010713494448100081 -0.0006617805029192481 0.0 0.0 0.0 0.0
492000000.0 0.0 0.0 0.0010037079498291651 -0.00021645308547520037 0.0 0.0 0.0 0.0
495000000.0 0.0 0.0 -0.00015817230786517881 -0.0005510608246551401 0.0 0.0 0.0 0.0
498000000.0 0.0 0.0 4.314132068067555e-05 -0.000655042978683023 0.0 0.0 0.0 0.0
501000000.0 0.0 0.0 -6.093599441511137e-05 -0.00022877213567355954 0.0 0.0 0.0 0.0
504000000.0 0.0 0.0 0.00012736494387773808 -0.0012096233389150611 0.0 0.0 0.0 0.0
507000000.0 0.0 0.0 0.0008250502196113842 -0.0009617747278506575 0.0 0.0 0.0 0.0
510000000.0 0.0 0.0 -0.0001883478129251387 -0.00024134940091559572 0.0 0.0 0.0 0.0
513000000.0 0.0 0.0 -0.00013987545692796194 -0.0005746193693421706 0.0 0.0 0.0 0.0
516000000.0 0.0 0.0 5.53216803329166e-05 -6.0781191417597166e-05 0.0 0.0 0.0 0.0
519000000.0 0.0 0.0 0.000631606817925591 -0.0006498497212663165 0.0 0.0 0.0 0.0
522000000.0 0.0 0.0 0.00029723780876482914 -0.00013058087104427982 0.0 0.0 0.0 0.0
525000000.0 0.0 0.0 -0.00037660008812639295 -1.3074108738282012e-06 0.0 0.0 0.0 0.0
528000000.0 0.0 0.0 0.00042295799975196005 -0.0002749514996064235 0.0 0.0 0.0 0.0
531000000.0 0.0 0.0 -7.65129309545058e-05 -0.0006070419791066768 0.0 0.0 0.0 0.0
534000000.0 0.0 0.0 0.0005265350238706656 -0.001105200230900952 0.0 0.0 0.0 0.0
537000000.0 0.0 0.0 -6.98855431847197e-05 -0.00044047301236145754 0.0 0.0 0.0 0.0
540000000.0 0.0 0.0 0.0007957203159600678 0.00010619595744852962 0.0 0.0 0.0 0.0
543000000.0 0.0 0.0 0.0008321635047899357 8.642123334617062e-06 0.0 0.0 0.0 0.0
546000000.0 0.0 0.0 0.00138198908852562 0.0005514999604760873 0.0 0.0 0.0 0.0
549000000.0 0.0 0.0 0.0004784616411485936 -0.0002966841771301504 0.0 0.0 0.0 0.0
552000000.0 0.0 0.0 9.144943103570888e-06 -2.9721773981921928e-05 0.0 0.0 0.0 0.0
555000000.0 0.0 0.0 0.0008083100159232227 -0.0003771393190535817 0.0 0.0 0.0 0.0
558000000.0 0.0 0.0 0.0005624960487604763 9.14490891690659e-05 0.0 0.0 0.0 0.0
561000000.0 0.0 0.0 7.966428522420374e-05 -0.00021512073800476961 0.0 0.0 0.0 0.0
564000000.0 0.0 0.0 0.0012122724163038368 -0.0011153431213173177 0.0 0.0 0.0 0.0
567000000.0 0.0 0.0 -0.0010904664147406906 0.0005365122202332244 0.0 0.0 0.0 0.0
570000000.0 0.0 0.0 0.0009341382098027494 -0.00023871245717707015 0.0 0.0 0.0 0.0
573000000.0 0.0 0.0 0.0009042784435605521 -0.00011188118621424087 0.0 0.0 0.0 0.0
576000000.0 0.0 0.0 0.0008019407419766723 -7.392069571442227e-05 0.0 0.0 0.0 0.0
579000000.0 0.0 0.0 0.00027895626077960463 0.00011327087119759081 0.0 0.0 0.0 0.0
582000000.0 0.0 0.0 0.000683344097055826 -0.0006647757882391311 0.0 0.0 0.0 0.0
585000000.0 0.0 0.0 0.0012459930559099038 -0.0007188389205665611 0.0 0.0 0.0 0.0
588000000.0 0.0 0.0 -5.7544594926410365e-05 -0.00028545431600652903 0.0 0.0 0.0 0.0
591000000.0 0.0 0.0 -0.00025499731611182115 0.0006264743059134731 0.0 0.0 0.0 0.0
594000000.0 0.0 0.0 3.157365013064866e-05 -0.00045217402150657366 0.0 0.0 0.0 0.0
597000000.0 0.0 0.0 0.00047248519213822745 8.656955094663634e-05 0.0 0.0 0.0 0.0
600000000.0 0.0 0.0 0.0012345952017762507 0.0005507924690480614 0.0 0.0 0.0 0.0
