! Created with skrf 1.8.0 (http://scikit-rf.org).
# Hz S RI R 50.0 
!freq ReS11 ImS11 ReS21 ImS21 ReS12 ImS12 ReS22 ImS22
50000.0 0.0 0.0 -7.124129976937792e-05 -0.000188763132057533 0.0 0.0 0.0 0.0
15049500.0 0.0 0.0 1.292645172856846e-05 7.189646354932168e-06 0.0 0.0 0.0 0.0
30049000.0 0.0 0.0 4.5435681019218775e-05 2.533000464508055e-05 0.0 0.0 0.0 0.0
45048500.0 0.0 0.0 1.2004781782777653e-05 3.91795887082533e-05 0.0 0.0 0.0 0.0
60048000.0 0.0 0.0 -1.0879740219166007e-05 5.395495877825746e-05 0.0 0.0 0.0 0.0
75047500.0 0.0 0.0 1.2386483775391782e-05 -1.37587941216502e-05 0.0 0.0 0.0 0.0
90047000.0 0.0 0.0 6.203439328340766e-06 9.302529001567043e-05 0.0 0.0 0.0 0.0
105046500.0 0.0 0.0 1.4499250858086917e-06 1.0059186361010647e-05 0.0 0.0 0.0 0.0
120046000.0 0.0 0.0 3.6000033541836234e-05 5.4625473718647655e-05 0.0 0.0 0.0 0.0
135045500.0 0.0 0.0 1.1123116230386405e-05 7.541287307433204e-05 0.0 0.0 0.0 0.0
150045000.0 0.0 0.0 5.438200694647292e-05 2.718435102175095e-05 0.0 0.0 0.0 0.0
165044500.0 0.0 0.0 -5.76641909703871e-05 5.8386597312488804e-05 0.0 0.0 0.0 0.0
180044000.0 0.0 0.0 -4.416400660512501e-05 5.8254904156194505e-06 0.0 0.0 0.0 0.0
195043500.0 0.0 0.0 -4.865913189953205e-05 -3.088318720248839e-05 0.0 0.0 0.0 0.0
210043000.0 0.0 0.0 -2.7758005926963717e-05 5.997758454588387e-05 0.0 0.0 0.0 0.0
225042500.0 0.0 0.0 -0.0001006166068255438 -4.715329257765502e-05 0.0 0.0 0.0 0.0
240042000.0 0.0 0.0 -6.722564806360303e-05 3.3036711184037285e-07 0.0 0.0 0.0 0.0
255041500.0 0.0 0.0 -2.6318529703217623e-05 -4.303153039943621e-07 0.0 0.0 0.0 0.0
270041000.0 0.0 0.0 -2.6419922007480478e-05 -2.0314785603560987e-05 0.0 0.0 0.0 0.0
285040500.0 0.0 0.0 1.016566840978028e-05 -9.482611525198317e-05 0.0 0.0 0.0 0.0
300040000.0 0.0 0.0 0.0002265690199917047 0.00034035053675585483 0.0 0.0 0.0 0.0
315039500.0 0.0 0.0 0.00042770494297944176 9.300351939551786e-05 0.0 0.0 0.0 0.0
330039000.0 0.0 0.0 -0.0002652174586104917 -0.00023563587971527623 0.0 0.0 0.0 0.0
345038500.0 0.0 0.0 0.0002729935218051032 -0.00020959405285801068 0.0 0.0 0.0 0.0
360038000.0 0.0 0.0 -0.0006526195370860572 0.00025240911434134167 0.0 0.0 0.0 0.0
375037500.0 0.0 0.0 -0.00042328036156093007 -0.00020915844571723206 0.0 0.0 0.0 0.0
390037000.0 0.0 0.0 0.00033268956195612193 -0.0004984593622216796 0.0 0.0 0.0 0.0
405036500.0 0.0 0.0 0.00039147118462464647 -0.0002998955015227402 0.0 0.0 0.0 0.0
420036000.0 0.0 0.0 1.7073246630161715e-05 -0.00013742854907007376 0.0 0.0 0.0 0.0
435035500.0 0.0 0.0 0.0003020102903442117 0.000550124649955085 0.0 0.0 0.0 0.0
450035000.0 0.0 0.0 -0.0005609518742881106 0.0002158142291825442 0.0 0.0 0.0 0.0
465034500.0 0.0 0.0 0.000383733427545942 -0.0007076654765839882 0.0 0.0 0.0 0.0
480034000.0 0.0 0.0 0.00016879518417366526 -0.0002803744896451501 0.0 0.0 0.0 0.0
495033500.0 0.0 0.0 0.00010950455168924928 -5.70271452585217e-05 0.0 0.0 0.0 0.0
510033000.0 0.0 0.0 -0.0001057971610080353 -0.0008832658152536187 0.0 0.0 0.0 0.0
525032500.0 0.0 0.0 0.0006949974762453523 8.941356865204647e-06 0.0 0.0 0.0 0.0
540032000.0 0.0 0.0 2.6599740926389043e-05 -0.00029730738711416 0.0 0.0 0.0 0.0
555031500.0 0.0 0.0 -0.00033247034581290107 -0.0004323971407017512 0.0 0.0 0.0 0.0
570031000.0 0.0 0.0 0.00017773820730842432 -0.0001713493228576862 0.0 0.0 0.0 0.0
585030500.0 0.0 0.0 0.0005493623745770381 0.0003849153775897739 0.0 0.0 0.0 0.0
600030000.0 0.0 0.0 0.0002979424023599888 -0.00030401089472740703 0.0 0.0 0.0 0.0
615029500.0 0.0 0.0 0.0009661609296221552 0.0013244836320889933 0.0 0.0 0.0 0.0
630029000.0 0.0 0.0 0.0008868424466912359 0.00011449927361648409 0.0 0.0 0.0 0.0
645028500.0 0.0 0.0 -0.0005520321953578208 -0.00020989398505060793 0.0 0.0 0.0 0.0
660028000.0 0.0 0.0 0.0012317618570724825 0.0009187234680225324 0.0 0.0 0.0 0.0
675027500.0 0.0 0.0 0.0009707014146643579 0.00023492706369768152 0.0 0.0 0.0 0.0
690027000.0 0.0 0.0 0.0006055644226357015 0.0010047593238024166 0.0 0.0 0.0 0.0
705026500.0 0.0 0.0 0.0005692516677435339 0.0016869799037155734 0.0 0.0 0.0 0.0
720026000.0 0.0 0.0 0.0008790880623054684 0.0005750175075821753 0.0 0.0 0.0 0.0
735025500.0 0.0 0.0 0.0006362826158637138 0.0007888719196464213 0.0 0.0 0.0 0.0
750025000.0 0.0 0.0 -0.0013978250984392642 0.0007968150913413106 0.0 0.0 0.0 0.0
765024500.0 0.0 0.0 -0.0003289884231205372 0.0008405565175053146 0.0 0.0 0.0 0.0
780024000.0 0.0 0.0 -0.0007132608963362094 0.00048066876219977813 0.0 0.0 0.0 0.0
795023500.0 0.0 0.0 -0.0019184536140413196 0.0003266277347559449 0.0 0.0 0.0 0.0
810023000.0 0.0 0.0 -0.001606213292656848 0.0005494078826713773 0.0 0.0 0.0 0.0
825022500.0 0.0 0.0 -0.002264351832536861 -0.0003219354776845218 0.0 0.0 0.0 0.0
840022000.0 0.0 0.0 -0.0016741033369863617 -0.0012475968748085768 0.0 0.0 0.0 0.0
855021500.0 0.0 0.0 -0.0019234882948287472 -0.0007414604445429288 0.0 0.0 0.0 0.0
870021000.0 0.0 0.0 -0.0016506833561694089 -0.0013111050748018996 0.0 0.0 0.0 0.0
885020500.0 0.0 0.0 -0.0007209750008008946 -0.0016745088204668107 0.0 0.0 0.0 0.0
900020000.0 0.0 0.0 0.0015733686161601744 -0.0023005724297444356 0.0 0.0 0.0 0.0
915019500.0 0.0 0.0 -0.0008528975952940858 0.001469045091579753 0.0 0.0 0.0 0.0
930019000.0 0.0 0.0 0.002284615139139907 -0.005716407986417498 0.0 0.0 0.0 0.0
945018500.0 0.0 0.0 0.0009113101832590097 0.0011592059722781928 0.0 0.0 0.0 0.0
960018000.0 0.0 0.0 0.0014989056252008835 -0.0033304396076060516 0.0 0.0 0.0 0.0
975017500.0 0.0 0.0 0.0025504287149252743 -0.0006161975109829762 0.0 0.0 0.0 0.0
990017000.0 0.0 0.0 0.0035394210634706576 -0.0065049727501093535 0.0 0.0 0.0 0.0
1005016500.0 0.0 0.0 0.0015273502395498216 -0.002316710834532247 0.0 0.0 0.0 0.0
1020016000.0 0.0 0.0 0.006433865845811074 -0.002868486927066386 0.0 0.0 0.0 0.0
1035015500.0 0.0 0.0 0.004573584695939095 -0.001735218590564512 0.0 0.0 0.0 0.0
1050015000.0 0.0 0.0 0.003481889919922959 0.0019818089933081057 0.0 0.0 0.0 0.0
1065014500.0 0.0 0.0 0.005798328616040946 -0.0012728967985605516 0.0 0.0 0.0 0.0
1080014000.0 0.0 0.0 -0.001955576406737797 0.0017142602245623286 0.0 0.0 0.0 0.0
1095013500.0 0.0 0.0 0.0006852877372235802 0.0057781709607342 0.0 0.0 0.0 0.0
1110013000.0 0.0 0.0 0.004546324449591845 0.0001904989491924167 0.0 0.0 0.0 0.0
1125012500.0 0.0 0.0 -0.004412506951998179 0.00495927257434674 0.0 0.0 0.0 0.0
1140012000.0 0.0 0.0 -0.00670789771892949 0.0010848104514607833 0.0 0.0 0.0 0.0
1155011500.0 0.0 0.0 -0.0033576299778792446 0.0007217108156731631 0.0 0.0 0.0 0.0
1170011000.0 0.0 0.0 -0.0004909965019541188 0.0035697571193254616 0.0 0.0 0.0 0.0
1185010500.0 0.0 0.0 -0.010430569667545546 -0.010362880137248467 0.0 0.0 0.0 0.0
1200010000.0 0.0 0.0 0.002147041541628401 0.004887796509682245 0.0 0.0 0.0 0.0
1215009500.0 0.0 0.0 -0.002654713600291428 -0.0029838568628651955 0.0 0.0 0.0 0.0
1230009000.0 0.0 0.0 -0.002183290228657011 -0.00305634209788692 0.0 0.0 0.0 0.0
1245008500.0 0.0 0.0 0.007520564389197982 -0.008230822260152393 0.0 0.0 0.0 0.0
1260008000.0 0.0 0.0 0.0032418381645058607 0.014810824140096233 0.0 0.0 0.0 0.0
1275007500.0 0.0 0.0 0.001210282436256767 -0.0021430548368108512 0.0 0.0 0.0 0.0
1290007000.0 0.0 0.0 -0.0018490279414009802 0.012856833753485127 0.0 0.0 0.0 0.0
1305006500.0 0.0 0.0 0.0065994894757805895 -0.013220027064415458 0.0 0.0 0.0 0.0
1320006000.0 0.0 0.0 -0.017339401050594845 -0.015946591032439075 0.0 0.0 0.0 0.0
1335005500.0 0.0 0.0 0.0095467020029709 -0.005452770313810072 0.0 0.0 0.0 0.0
1350005000.0 0.0 0.0 0.009038415843234117 0.004559740535722561 0.0 0.0 0.0 0.0
1365004500.0 0.0 0.0 -0.006034523203019698 0.008764086278435525 0.0 0.0 0.0 0.0
1380004000.0 0.0 0.0 0.017090355524834806 0.002938170368456605 0.0 0.0 0.0 0.0
1395003500.0 0.0 0.0 -0.011484676731074648 0.0059438904423986146 0.0 0.0 0.0 0.0
1410003000.0 0.0 0.0 -0.0007736489304455288 0.005884195556234725 0.0 0.0 0.0 0.0
1425002500.0 0.0 0.0 -0.013060282518604553 0.022087363698439257 0.0 0.0 0.0 0.0
1440002000.0 0.0 0.0 0.005753337557878799 0.004458262353871317 0.0 0.0 0.0 0.0
1455001500.0 0.0 0.0 0.01603211624094156 0.013559314549534936 0.0 0.0 0.0 0.0
1470001000.0 0.0 0.0 -0.03937038523765886 0.003517514513846548 0.0 0.0 0.0 0.0
1485000500.0 0.0 0.0 0.013747316858912987 0.035054967205176424 0.0 0.0 0.0 0.0
1500000000.0 0.0 0.0 -0.016031973904389662 -0.0333850123755307 0.0 0.0 0.0 0.0
