! Created with skrf 1.8.0 (http://scikit-rf.org).
# Hz S RI R 50.0 
!freq ReS11 ImS11
0.0 -0.9999999960862386 1.2246467943543778e-16
300000.0 -0.9999627477813209 0.000558484613143398
600000.0 -0.9999506054312263 0.0010820511085121015
900000.0 -0.999944610738093 0.0016056153530459058
1200000.0 -0.9999363240217086 0.002111717060253672
1500000.0 -0.999924119424321 0.00263525329238791
1800000.0 -0.9999123372650222 0.0031413275875458477
2100000.0 -0.9998989089229743 0.0036473855602685862
2400000.0 -0.9998844751988202 0.004153427631978577
2700000.0 -0.999878826298423 0.004659498158252045
3000000.0 -0.9998734199503148 0.005165566606571196
3300000.0 -0.9998632443247252 0.00567160517552276
3600000.0 -0.9998523131766791 0.006177631681453329
3900000.0 -0.9998410016759354 0.006683647744243744
4200000.0 -0.9998334215572195 0.007189682612543968
4500000.0 -0.9998258092925091 0.007678261959865622
4800000.0 -0.99981577013256 0.00818426895452574
5100000.0 -0.9998052262920059 0.008690265592917579
5400000.0 -0.9997944045426037 0.00919625345375951
5700000.0 -0.9997856403601711 0.009702255038486289
6000000.0 -0.9997768015727845 0.010190800747246985
6300000.0 -0.9997663070873117 0.010696776206429637
6600000.0 -0.9997553988734958 0.011202741886195175
6900000.0 -0.9997442403837576 0.011708699331762674
7200000.0 -0.9997346030922517 0.012197218804537115
7500000.0 -0.9997244894300463 0.012703179935857064
7800000.0 -0.9997132691571453 0.013209122715741596
8100000.0 -0.9997019215880635 0.01369760778827435
8400000.0 -0.9996900991200297 0.014203532974027874
8700000.0 -0.999679172712742 0.01470946665327784
9000000.0 -0.999668236112157 0.01519794511311602
9300000.0 -0.9996561516108079 0.015703853721526502
9600000.0 -0.9996437224823536 0.016209752553689553
9900000.0 -0.9996313427534954 0.016698196202600282
10200000.0 -0.9996193184801057 0.01720409364868879
10500000.0 -0.9996070209302738 0.01770998289489703
10800000.0 -0.9995942879897833 0.018198408831494876
11100000.0 -0.999580921064754 0.018704271243145585
11400000.0 -0.9995673108151054 0.019210125029319715
11700000.0 -0.999554508931454 0.019698538525271637
12000000.0 -0.9995410975153561 0.020204389011241247
12300000.0 -0.9995270285012113 0.020710222646244843
12600000.0 -0.9995130172684867 0.021198601228944083
12900000.0 -0.9994984014209903 0.021704415879555794
13200000.0 -0.9994845143173929 0.022192790144595798
13500000.0 -0.9994699730207695 0.022698599621637526
13800000.0 -0.9994548420670453 0.023204392316967554
14100000.0 -0.99943981935524 0.023692730824985027
14400000.0 -0.9994241485180253 0.024198503743974836
14700000.0 -0.9994091578819924 0.024686836378884622
15000000.0 -0.9993934729998544 0.025192602446209116
15300000.0 -0.9993776963537891 0.025680909225302556
15600000.0 -0.999361181669884 0.026186647633634475
15900000.000000002 -0.9993444225731337 0.026692376210956926
16200000.0 -0.9993283170040732 0.027180664803115522
16500000.0 -0.9993114748393628 0.027686384894465232
16800000.0 -0.9992946247502625 0.02817464704208
17100000.0 -0.9992769977286676 0.028680338922197873
17400000.0 -0.9992596344075504 0.029168580113000577
17700000.0 -0.9992418932725524 0.029674262481785688
18000000.0 -0.9992244101749503 0.03016249423061464
18300000.0 -0.999205939456669 0.030668148853482253
18600000.0 -0.9991871806536226 0.031173791501129918
18900000.0 -0.9991687267938016 0.031661984492472844
19200000.0 -0.9991498090311947 0.03216761615951067
19500000.0 -0.9991311917007576 0.03265579821243396
19800000.0 -0.9991115708869402 0.03316140136151582
20100000.0 -0.9990922494666463 0.033649554485361714
20400000.0 -0.9990721039353577 0.034155134101294476
20700000.0 -0.9990526052642285 0.03464327552808669
21000000.0 -0.999032242134808 0.03514884201678991
21300000.0 -0.9990120796856514 0.03563695481176153
21600000.0 -0.9989910193539284 0.036142490943067214
21900000.0 -0.9989697112625995 0.03664801518046366
22200000.0 -0.9989490636359565 0.037136102129226
22500000.0 -0.998927510373817 0.037641611839812926
22800000.0 -0.9989062174465674 0.038129669340158656
23100000.0 -0.9988839854632785 0.03863514781671501
23400000.0 -0.9988621887306668 0.03912318044398297
23700000.0 -0.9988397035575 0.039628643619071244
24000000.0 -0.998817653728001 0.04011666103539274
24300000.0 -0.9987945220919644 0.04062209315461197
24600000.0 -0.9987718270609619 0.04111007924313944
24900000.0 -0.9987481754940939 0.04161548463724465
25200000.0 -0.9987252239488456 0.04210345489481295
25500000.0 -0.9987012801363578 0.042608842849559486
25800000.0 -0.998677711045117 0.04309678188351079
26100000.0 -0.9986531208734761 0.043602136895864306
26400000.0 -0.9986290504049328 0.044090048952507545
26700000.0 -0.9986041657253752 0.04459538586658219
27000000.0 -0.9985798031429806 0.045083279971616826
27300000.0 -0.9985542963106256 0.04558858394608038
27600000.0 -0.998529315136066 0.04607644497156451
27900000.0 -0.9985032896609856 0.04658171996739328
28200000.0 -0.9984780164106769 0.0470695624826673
28500000.0 -0.9984516665879245 0.047574817314191074
28800000.0 -0.9984257977995015 0.04806262679405717
29100000.0 -0.998398822483995 0.04856784670030128
29400000.0 -0.9983724536072912 0.04905562701634554
29700000.0 -0.998345153987034 0.049560826132580484
30000000.0 -0.9983184643498603 0.05004858584114514
30300000.0 -0.9982905599928881 0.05055374999403321
30600000.0 -0.998263272627067 0.051041474807867485
30900000.0 -0.9982348520761797 0.05154660775507892
31200000.0 -0.998207243993507 0.05203431134346569
31500000.0 -0.9981784739122859 0.05253942140489917
31800000.000000004 -0.9981502865556504 0.053027090031119606
32099999.999999996 -0.9981209084041126 0.053532163173822686
32400000.0 -0.9980922234083098 0.05401980048604594
32700000.0 -0.9980624969240625 0.05452485012718571
33000000.0 -0.9980334682893071 0.05501246417393589
33300000.000000004 -0.9980031521908382 0.05551747684712506
33600000.0 -0.9979735397994373 0.056005053977658766
33900000.0 -0.9979436949517295 0.05649261574973733
34200000.0 -0.9979127562832006 0.05699758653703506
34500000.0 -0.9978825586628209 0.05748512375352369
34800000.0 -0.9978510362195481 0.05799005652434825
35100000.0 -0.9978202618302277 0.05847755586218361
35400000.0 -0.9977882245883917 0.058982453941433796
35700000.0 -0.9977571009244427 0.05946992824106682
36000000.0 -0.9977246856100662 0.05997479938318388
36300000.0 -0.9976930001835086 0.06046223568111176
36600000.0 -0.9976599966221568 0.06096706681237928
36900000.0 -0.9976278149518265 0.06145446842657603
37200000.0 -0.9975944356719123 0.0619592720235611
37500000.0 -0.997561885273702 0.062446646485481115
37800000.0 -0.9975279339035197 0.06295141002950329
38100000.0 -0.9974948184191116 0.06343874462101418
38400000.0 -0.9974603524296335 0.06394347107822018
38700000.0 -0.9974268717194928 0.06443077801904487
39000000.0 -0.997393147200236 0.06491806713395584
39300000.0 -0.9973579820750623 0.0654227418743757
39600000.0 -0.9973236960162593 0.06590999001394357
39900000.0 -0.9972880175138735 0.06641462654285415
40200000.0 -0.99725336055713 0.06690184581485353
40500000.0 -0.9972172835240366 0.06740645142245576
40800000.0 -0.9971820788846815 0.0678936296396205
41100000.0 -0.9971454276996968 0.06839819200449507
41400000.0 -0.997109728236955 0.06888533214131869
41700000.0 -0.997072682030058 0.0693898630412686
42000000.0 -0.9970365956822429 0.06987697220469077
42300000.0 -0.9969989880346215 0.07038145970714428
42600000.0 -0.9969623495431911 0.07086852587894373
42900000.0 -0.9969254754048019 0.0713555732140225
43200000.0 -0.9968872079947783 0.07186000752229654
43500000.0 -0.9968499424579671 0.07234702265406989
43800000.0 -0.9968111171608731 0.07285141248260499
44100000.0 -0.9967733030328215 0.07333838356478631
44400000.0 -0.9967339658058546 0.07384273164247063
44700000.0 -0.9966957626416677 0.07432966992411
45000000.0 -0.9966560122062358 0.07483398318394914
45300000.0 -0.9966172720113994 0.0753208772761701
45600000.0 -0.9965769580925342 0.07582514397721489
45900000.0 -0.996537724519805 0.07631199657600285
46200000.0 -0.9964983414513794 0.07679883574562173
46500000.0 -0.9964573669217697 0.07730304576578756
46800000.0 -0.9964174492294657 0.07778983964620938
47100000.0 -0.996375914776326 0.07829400203449303
47400000.0 -0.9963355026637292 0.07878075316511315
47700000.0 -0.9962935540169243 0.07928487886426676
48000000.0 -0.99625273813781 0.079771594036085
48300000.0 -0.9962102399836402 0.08027567189999317
48600000.0 -0.9961688850354521 0.08076233983525716
48900000.0 -0.9961272946388116 0.08124898670973388
49200000.0 -0.9960841200783798 0.08175300376952871
49500000.0 -0.9960421225649148 0.08223961345297759
49800000.0 -0.9959984009121512 0.08274358155340479
50100000.0 -0.9959558655961257 0.08323014280877401
50400000.0 -0.9959116347478746 0.08373406449097394
50700000.0 -0.9958686946854256 0.08422058794726547
51000000.0 -0.9958240349415818 0.08472446956084932
51300000.0 -0.9957805686364407 0.0852109445692916
51600000.0 -0.9957368520750188 0.08569739624342694
51900000.0 -0.9956913969758491 0.08620120394414202
52200000.0 -0.9956472734700073 0.08668761666443967
52500000.0 -0.9956013872832882 0.08719138308047511
52800000.0 -0.9955567388037861 0.08767774619321297
53100000.0 -0.9955103023678769 0.08818146042156193
53400000.0 -0.9954651610642153 0.08866777617773706
53700000.0 -0.9954182970646069 0.08917144857751476
54000000.0 -0.9953727386176597 0.08965772332195796
54300000.0 -0.9953269082457954 0.0901439717211124
54600000.0 -0.9952792457900371 0.09064756650467082
54900000.0 -0.9952329238591547 0.09113376647601591
55200000.0 -0.9951848305072188 0.09163731810021701
55500000.0 -0.9951380880985652 0.09212347575297647
55800000.0 -0.9950894573376324 0.09262697400849236
56100000.0 -0.9950421868028173 0.09311307892323958
56400000.0 -0.9949946799535395 0.09359915986582328
56700000.0 -0.9949453598455011 0.09410258798288185
57000000.0 -0.9948974314793186 0.09458862549537213
57300000.0 -0.994847574097257 0.0950919989527346
57600000.0 -0.9947991188837728 0.09557798256627534
57900000.0 -0.9947487529231672 0.09608130351810146
58200000.0 -0.9946998797181882 0.09656724320216818
58500000.0 -0.9946507668427398 0.09705315784135846
58800000.0 -0.9945996808637085 0.09755640333839467
59100000.0 -0.9945500435672093 0.09804226303716068
59400000.0 -0.994498450287033 0.09854545492082481
59700000.0 -0.9944483905291432 0.09903126924044449
60000000.0 -0.9943963541122728 0.09953441344389491
60300000.0 -0.9943457780554624 0.10002017263972104
60600000.0 -0.9942949555529631 0.10050590524880011
60900000.0 -0.9942421352782598 0.1010089651187159
61200000.0 -0.9941908881389115 0.10149465110516359
61500000.0 -0.9941376225580421 0.10199766199964734
61800000.0 -0.9940858615482087 0.10248329185152989
62100000.0 -0.9940320568620112 0.10298624367204903
62400000.0 -0.9939798060781765 0.10347181931520434
62700000.00000001 -0.9939273730252569 0.10395737422972418
63000000.0 -0.9938728774719858 0.1044602487379907
63299999.99999999 -0.9938199306902772 0.10494574627835526
63600000.00000001 -0.9937648984692278 0.10544856065280221
63900000.0 -0.993711462049977 0.10593400280565447
64199999.99999999 -0.9936559847486833 0.10643676625741749
64500000.0 -0.9936021159434734 0.10692215870745338
64800000.0 -0.993547983722821 0.10740752108244676
65100000.00000001 -0.9934917231687431 0.10791019493357693
65400000.0 -0.9934371014498651 0.10839550074205308
65699999.99999999 -0.9933803936558319 0.10889812235171838
66000000.0 -0.9933253385320124 0.10938337729314039
66300000.0 -0.9932681023485078 0.10988593733816196
66600000.00000001 -0.993212530391444 0.11037113176445153
66900000.0 -0.9931567225722113 0.11085629824656422
67200000.0 -0.9930987846427894 0.11135877504298047
67500000.0 -0.9930425424029374 0.11184388948674778
67800000.0 -0.9929840773826135 0.11234630356887981
68100000.0 -0.9929273196052535 0.1128313563770974
68400000.0 -0.9928683481407566 0.11333370951153064
68700000.0 -0.9928111571925851 0.11381870955384009
69000000.0 -0.9927537270472065 0.1143036805021579
69300000.0 -0.9926940335570794 0.11480594565544901
69600000.0 -0.9926360891724451 0.11529085385214652
69900000.0 -0.9925758882486031 0.11579305670152068
70200000.0 -0.9925175096827935 0.1162779109547975
70500000.0 -0.9924588931356627 0.11676273566943295
70800000.0 -0.9923979692648007 0.11726484865825358
71100000.0 -0.9923388386364254 0.11774960937626092
71400000.0 -0.9922774097735316 0.11825165910466172
71700000.0 -0.992217842814388 0.11873636456026129
72000000.0 -0.992155956997575 0.11923835630633976
72300000.0 -0.9920958852218601 0.11972299788389874
72600000.0 -0.992035568720186 0.12020760825639011
72900000.0 -0.9919729100184946 0.12070950161983639
73200000.0 -0.9919121561824735 0.12119405553836117
73500000.0 -0.9918490395304694 0.12169588967505181
73800000.0 -0.9917877810386639 0.1221803784916175
74100000.0 -0.9917241368430448 0.1226821443804903
74400000.0 -0.9916623897519411 0.12316656953070501
74700000.0 -0.9916004482781401 0.12365096889689906
75000000.0 -0.9915361011874574 0.12415264244019336
75300000.0 -0.9914736552218087 0.12463697547921883
75600000.0 -0.9914087819008334 0.12513857963730382
75900000.0 -0.9913458486373007 0.12562284796972442
76200000.0 -0.9912827187729313 0.1261070897596797
76500000.0 -0.9912171416473834 0.1266085997254004
76800000.0 -0.9911535097404816 0.1270927742543342
77100000.0 -0.9910874065591938 0.1275942135572145
77400000.0 -0.9910232863758551 0.12807832205156552
77700000.0 -0.9909589696580609 0.12856240352876894
78000000.0 -0.9908921617678111 0.12906374678515137
78300000.0 -0.9908273431766306 0.12954775978204136
78600000.0 -0.990760010549223 0.13004903124582343
78900000.0 -0.9906947038474452 0.13053297702349317
79200000.0 -0.9906269127111442 0.1310341848799
79500000.0 -0.9905611613023917 0.13151806871616628
79800000.0 -0.9904951552920885 0.13200191715045542
80100000.0 -0.9904265936400728 0.13250301779111917
80400000.0 -0.9903601008282816 0.13298679797337948
80700000.0 -0.9902910785464673 0.13348783358883473
81000000.0 -0.9902241411829371 0.13397155075185765
81300000.0 -0.9901569481667817 0.13445523173976184
81600000.0 -0.9900871567789572 0.1349561584189605
81900000.0 -0.9900194771327663 0.13543976997160814
82200000.0 -0.9899492252782357 0.1359406305075917
82500000.0 -0.9898811000986436 0.13642417780535576
82800000.0 -0.989810331995943 0.13692496409018765
83100000.0 -0.989741700949807 0.13740843834909477
83400000.0 -0.9896728348924225 0.1378918783886858
83700000.0 -0.9896013527653443 0.13839256069756434
84000000.0 -0.9895320401963709 0.13887593524081543
84300000.0 -0.9894600431470675 0.139376542200956
84600000.0 -0.9893902248951716 0.13985984247321362
84900000.0 -0.9893201728569775 0.14034310811568607
85200000.0 -0.9892474620440105 0.14084360936502563
85500000.0 -0.9891769613805448 0.14132680810230547
85800000.0 -0.9891037346958534 0.14182723258599428
86100000.0 -0.9890327319523872 0.1423103563098789
86400000.0 -0.9889614932320465 0.1427934445083988
86700000.0 -0.9888875519103314 0.1432937613804238
87000000.0 -0.9888158658709671 0.14377678174780917
87300000.0 -0.9887414100088842 0.14427702076204613
87600000.0 -0.9886692198011731 0.1447599645610936
87900000.0 -0.9885942608652957 0.14526012684060297
88200000.0 -0.9885216257530176 0.1457430022570321
88500000.0 -0.9884487525087459 0.14622584103577785
88800000.0 -0.988373067934746 0.14672589158697416
89100000.0 -0.9882996918524063 0.14720865273669614
89400000.0 -0.9882235043971457 0.14770862532775397
89700000.0 -0.9881496824438291 0.1481913168425479
90000000.0 -0.9880756224505451 0.14867397113877434
90300000.0 -0.9879987096374191 0.14917383023392408
90600000.0 -0.9879241481384582 0.14965640584655462
90900000.0 -0.9878467315022637 0.15015618558376043
91200000.0 -0.9877717231694796 0.15063869030338914
91500000.0 -0.9876964780272873 0.15112115739778045
91800000.0 -0.9876183363180172 0.1516208218704904
92100000.0 -0.9875425898675014 0.15210320905884903
92400000.0 -0.9874639456711827 0.15260279312033834
92700000.0 -0.9873877502906382 0.15308510797673006
93000000.0 -0.9873113193319387 0.1535673848059677
93300000.0 -0.9872319492148419 0.1540668516588176
93600000.0 -0.9871550171483956 0.15454904735839195
93900000.0 -0.9870751447460283 0.15504843257378984
94200000.0 -0.9869977650670928 0.15553055502655364
94500000.0 -0.986920147632699 0.156012638519484
94800000.0 -0.9868395496034381 0.15651190475569296
95100000.0 -0.9867614324011608 0.15699390607488978
95400000.0 -0.9866803334273343 0.15749308962923725
95700000.0 -0.9866017665241475 0.15797501624778712
96000000.0 -0.9865201984901155 0.15847412173893535
96300000.0 -0.9864411387966485 0.15895596631264208
96600000.0 -0.9863618369457277 0.15943777036050796
96900000.0 -0.9862795096345047 0.15993674889555043
97200000.0 -0.9861997582697325 0.16041847714640248
97500000.0 -0.9861169620940278 0.16091737647310222
97800000.0 -0.986036718144668 0.16139902147602866
98100000.0 -0.9859562321393818 0.16188062536226674
98400000.0 -0.9858726781400481 0.1623793960643936
98700000.0 -0.9857917416755934 0.1628609228707695
99000000.0 -0.9857077178752484 0.16335961303295157
99300000.0 -0.985626289035098 0.16384105538714783
99600000.0 -0.9855446182421674 0.1643224560329516
99900000.0 -0.9854598380755002 0.16482101590736242
100200000.0 -0.9853777170164316 0.1653023383739338
100500000.0 -0.9852924649815893 0.1658008161807829
100800000.0 -0.9852098528929998 0.1662820531823273
101100000.0 -0.9851269989560226 0.1667632478851392
101400000.0 -0.9850409908818193 0.16726159355376571
101700000.0 -0.984957685740325 0.16774270878590844
102000000.0 -0.9848712082715866 0.16824097161999632
102300000.0 -0.9847874111809494 0.16872199999301993
102600000.0 -0.9847033734818152 0.16920298566981817
102900000.0 -0.9846161403046862 0.16970111451883704
103200000.0 -0.984531650466398 0.17018201942782446
103500000.0 -0.984443945835182 0.1706800639038894
103800000.0 -0.9843589665323745 0.17116088114296313
104100000.0 -0.9842737444614591 0.17164165470358442
104400000.0 -0.9841852855910864 0.17213956354280516
104700000.0 -0.9840996127164144 0.1726202554285925
105000000.0 -0.9840106814702602 0.17311807854391376
105300000.0 -0.9839245193507531 0.17359868156271832
105600000.0 -0.9838381145725259 0.1740792403096078
105900000.0 -0.9837484294273592 0.1745769259417702
106200000.0 -0.9836615740497658 0.17505740191250338
106500000.0 -0.9835714167436141 0.17555500066515062
106800000.0 -0.9834840712115012 0.17603538636970908
107100000.0 -0.9833934033334712 0.176532890890894
107400000.0 -0.9833055745355235 0.1770131870385197
107700000.0 -0.9832175360635238 0.17749344399932182
108000000.0 -0.9831261543915865 0.17799081559309465
108300000.0 -0.9830376259912884 0.17847098108782386
108600000.0 -0.9829457339834682 0.1789682572010548
108900000.0 -0.9828567225417066 0.1794483319560139
109200000.0 -0.9827675003924924 0.1799283668043909
109500000.0 -0.9826748937921366 0.18042550803687946
109800000.0 -0.982585184206667 0.18090545063416838
110100000.0 -0.9824920675096714 0.18140249513649961
110400000.0 -0.9824018739787448 0.18188234560346414
110700000.0 -0.9823114698401881 0.18236215564868008
111000000.0 -0.982217638888461 0.1828590635210086
111300000.0 -0.9821267475447629 0.1833387801214246
111600000.0 -0.9820324067387893 0.1838355900140028
111900000.0 -0.9819410328108942 0.1843152135112268
112200000.0 -0.9818494472458374 0.18479479586013575
112500000.0 -0.981754391396797 0.18529146716154019
112800000.0 -0.9816623188607243 0.18577095487195924
113100000.0 -0.9815667545332697 0.18626752715737763
113400000.0 -0.9814741996461062 0.1867469205829118
113700000.0 -0.9813814320947863 0.18722627212711165
114000000.0 -0.9812851542009766 0.18772270428654156
114300000.0 -0.981191899915786 0.18820195999857228
114600000.0 -0.9810951126617556 0.18869829168031343
114900000.0 -0.9810013773912035 0.18917745214247114
115200000.0 -0.9809074295611617 0.18965657020328547
115500000.0 -0.9808099279621466 0.19015275979341015
115800000.0 -0.9807154936381759 0.19063178082953852
116100000.0 -0.9806174829307953 0.19112786869252202
116400000.0 -0.9805225678598843 0.19160679330049843
