! Created with skrf 1.8.0 (http://scikit-rf.org).
# Hz S RI R 50.0 
!freq ReS11 ImS11
0.0 3.9340717907287046 -7.187068633560844e-16
300000.0 3.943465053514333 0.10604401879421652
600000.0 3.941264762425998 0.10660720462341676
900000.0 3.937981321485866 0.10706445412237853
1200000.0 3.943949778140763 0.09732813146013682
1500000.0 3.952025877018677 0.08228220588736057
1800000.0 3.9535929265632617 0.07034436921838601
2100000.0 3.95444976976246 0.05847606972380259
2400000.0 3.954948634093988 0.04747184403370955
2700000.0 3.9473594871350133 0.045184690608485595
3000000.0 3.942970734500444 0.04296264761760087
3300000.0 3.944419452965299 0.03746300254620799
3600000.0 3.9460114682599063 0.03193918301910572
3900000.0 3.947506066731297 0.02664143873602377
4200000.0 3.946552663378952 0.023736858357713938
4500000.0 3.9458245945440873 0.020943303047980616
4800000.0 3.9462892772577574 0.01706533359117103
5100000.0 3.94679146228549 0.013174481854168299
5400000.0 3.9472604919404346 0.009380036259914237
5700000.0 3.9467516463499557 0.0066014283729115076
6000000.0 3.946400992583149 0.003929377106852862
6300000.0 3.9466097050026288 0.0007160349817480077
6600000.0 3.9468327871824287 -0.0025057190656641195
6900000.0 3.9470392455043624 -0.005675655090295973
7200000.0 3.946739740473332 -0.008199753783559879
7500000.0 3.9465362374552813 -0.01082563462514771
7800000.0 3.946640885231365 -0.013692735920816143
8100000.0 3.9467515544942047 -0.016461677093448722
8400000.0 3.946844389074957 -0.019303547721141377
8700000.0 3.9466250466872306 -0.021815612248492176
9000000.0 3.9464576256318518 -0.024222455047919877
9300000.0 3.9465020996379105 -0.026883602054937072
9600000.0 3.946596610032499 -0.029548215114714036
9900000.0 3.946699161197742 -0.032089315023737124
10200000.0 3.9465878282583287 -0.03451540499127602
10500000.0 3.9464718601479913 -0.03694111163469789
10800000.0 3.946467077927245 -0.039364288035263956
11100000.0 3.946495252299815 -0.041894059765520485
11400000.0 3.9465319848654308 -0.04441036672112717
11700000.0 3.9464324697265023 -0.046668848823047844
12000000.0 3.9463445708883302 -0.04903091691202191
12300000.0 3.9463288112094763 -0.051464783847048695
12600000.0 3.946314446025451 -0.053797179132265324
12900000.0 3.946296480889112 -0.05622346732514062
13200000.0 3.9461839499800093 -0.05843210265966637
13500000.0 3.9460968535502743 -0.060745309963593404
13800000.0 3.9460810359633136 -0.06311137704262153
14100000.0 3.9460674102263646 -0.06537622286377995
14400000.0 3.9460480767671045 -0.06773687251399009
14700000.0 3.9459551586712105 -0.06990817750645584
15000000.0 3.945877082044024 -0.07218317966314852
15300000.0 3.9458507874536193 -0.07439509285340119
15600000.0 3.945822269863865 -0.07671222652208974
15900000.000000002 3.9457911488213107 -0.0790235848651796
16200000.0 3.9457036923521014 -0.08116392076032684
16500000.0 3.9456265052893653 -0.0834080681122424
16800000.0 3.945589627158466 -0.0855807188440875
17100000.0 3.9455510453229103 -0.08785890989563551
17400000.0 3.945511590640774 -0.09002824865433849
17700000.0 3.945424042668079 -0.09224765374457955
18000000.0 3.945348755029218 -0.09436349723015491
18300000.0 3.945300698397931 -0.09660821691081738
18600000.0 3.9452527863947333 -0.09885513283274847
18900000.0 3.9452061196230632 -0.10099403220740336
19200000.0 3.945118199949811 -0.10319261177463412
19500000.0 3.9450410096863946 -0.10528858148459157
19800000.0 3.9449854543860905 -0.10750904131361563
20100000.0 3.944933030947799 -0.10962602181955929
20400000.0 3.9448752045834286 -0.11184418904396866
20700000.0 3.9447889113510075 -0.11392260317200674
21000000.0 3.944706381057644 -0.11610406764769562
21300000.0 3.9446469986243127 -0.11819983762900112
21600000.0 3.9445844866669324 -0.12040004858930665
21900000.0 3.944519334595446 -0.12259821797764991
22200000.0 3.9444320106684425 -0.12466274056437404
22500000.0 3.9443462350653027 -0.12682957381971696
22800000.0 3.944280822671638 -0.1289081028867322
23100000.0 3.944211337499922 -0.13109093300627178
23400000.0 3.944143273876616 -0.13316800088558173
23700000.0 3.9440496382674253 -0.13532336520573499
24000000.0 3.943963855501228 -0.13737534180606176
24300000.0 3.94388878664356 -0.1395425356681272
24600000.0 3.9438165304048125 -0.14160721839439647
24900000.0 3.943738857345953 -0.14377388283813694
25200000.0 3.9436461256696504 -0.14581511298204722
25500000.0 3.94355329198576 -0.14795923301228886
25800000.0 3.9434762960979333 -0.15001068744125248
26100000.0 3.943394608882067 -0.15216653776249145
26400000.0 3.94331523983212 -0.15421736074935852
26700000.0 3.9432148596066106 -0.15635300731293053
27000000.0 3.9431223658249865 -0.1583840712682196
27300000.0 3.9430352903829613 -0.16052896730077154
27600000.0 3.94295200751689 -0.16256997296078535
27900000.0 3.942862953784838 -0.16471416909671593
28200000.0 3.9427639634179963 -0.16673733181053943
28500000.0 3.9426624936517203 -0.16886510636244007
28800000.0 3.9425748100586113 -0.17089572446810009
29100000.0 3.942481603385511 -0.17303170375601232
29400000.0 3.9423917093139553 -0.17506262116455737
29700000.0 3.9422844420313985 -0.17718265130535038
30000000.0 3.9421840018789256 -0.17919896760127837
30300000.0 3.9420855836128843 -0.1813256542417929
30600000.0 3.9419917960124984 -0.18334959239113202
30900000.0 3.9418918237366247 -0.18547587659329803
31200000.0 3.941785893298269 -0.18748566767920183
31500000.0 3.9416756925456418 -0.1895997047495722
31800000.000000004 3.9415775655939345 -0.1916157206272263
32099999.999999996 3.941473613258413 -0.1937362063553007
32400000.0 3.94137337545127 -0.19575173458106232
32700000.0 3.9412578380632417 -0.19785950926401624
33000000.0 3.9411495924603472 -0.19986353270239213
33300000.000000004 3.9410408089763105 -0.2019762172385636
33600000.0 3.9409369458923877 -0.20398711396065985
33900000.0 3.940831910135195 -0.2059958360008449
34200000.0 3.9407126988880683 -0.20809827238038248
34500000.0 3.9405995777744294 -0.21009761121483794
34800000.0 3.9404857781613414 -0.21220551807486204
35100000.0 3.940376916891093 -0.21420969865121872
35400000.0 3.94026096609594 -0.21631629088373722
35700000.0 3.9401421396610092 -0.21831050626328757
36000000.0 3.9400182158499573 -0.22040889868895014
36300000.0 3.939905114854645 -0.22240758283305842
36600000.0 3.9397867734181635 -0.22451004184664466
36900000.0 3.9396738490639285 -0.22650880418322572
37200000.0 3.9395476058333334 -0.2286022106890376
37500000.0 3.939427222162623 -0.23059265196175563
37800000.0 3.939302292765832 -0.2326902642850134
38100000.0 3.939183381474698 -0.23468430462425358
38400000.0 3.9390566056397036 -0.2367817028454282
38700000.0 3.9389295496991705 -0.23876777096749638
39000000.0 3.9388037826950737 -0.24075377663388536
39300000.0 3.9386750370372106 -0.2428475342825668
39600000.0 3.938551837421934 -0.24483821923780125
39900000.0 3.9384208060257753 -0.24693042376431407
40200000.0 3.9382905097992422 -0.24891309616820753
40500000.0 3.938154318986555 -0.25099985906540623
40800000.0 3.9380269829612495 -0.25298534983946636
41100000.0 3.9378922345006138 -0.25507529977176724
41400000.0 3.937763131322077 -0.25706062078080083
41700000.0 3.937621498401534 -0.2591440049672469
42000000.0 3.9374873287766827 -0.2611226974827984
42300000.0 3.9373485693873254 -0.2632085021848944
42600000.0 3.9372159773390396 -0.2651910356667649
42900000.0 3.9370822705569597 -0.26717311934285637
43200000.0 3.9369362870782556 -0.2692530664813747
43500000.0 3.9367978598392277 -0.2712299284012634
43800000.0 3.936654294237362 -0.27331158517302084
44100000.0 3.9365169116091687 -0.27529150338769304
44400000.0 3.936370670520171 -0.27737387395753305
44700000.0 3.936227422436261 -0.2793475505427279
45000000.0 3.936076361444371 -0.2814234904309608
45300000.0 3.9359349315152685 -0.2833993615466811
45600000.0 3.935786548188844 -0.2854801269466045
45900000.0 3.9356445629268375 -0.28745506957491707
46200000.0 3.9354981279530312 -0.28942677106231973
46500000.0 3.935343576361038 -0.29150105201957155
46800000.0 3.9351972537237754 -0.29347380086192293
47100000.0 3.935042474578203 -0.2955509642392713
47400000.0 3.934894265782437 -0.2975236104420537
47700000.0 3.9347344155219304 -0.29959536526485336
48000000.0 3.9345829620933928 -0.3015631194104378
48300000.0 3.934424271252757 -0.3036372768600517
48600000.0 3.934273312602371 -0.30560829495532843
48900000.0 3.934120596333552 -0.3075788609020862
49200000.0 3.9339566064816878 -0.30964767866976545
49500000.0 3.933800480671329 -0.3116143148074421
49800000.0 3.933637667897334 -0.3136855023611224
50100000.0 3.9334815992082923 -0.3156534775122211
50400000.0 3.9333167421322837 -0.31772457134492865
50700000.0 3.933155963261997 -0.3196891504004875
51000000.0 3.932986911376254 -0.32175595788775996
51300000.0 3.932827520908613 -0.32372195684893856
51600000.0 3.93266683181046 -0.3256875580618968
51900000.0 3.932497066205238 -0.32775659981603533
52200000.0 3.9323322156867366 -0.32971828849156204
52500000.0 3.9321587661504243 -0.33178345150030464
52800000.0 3.9319946692057615 -0.3337470916693583
53100000.0 3.931821172508018 -0.3358141477411546
53400000.0 3.9316551547650573 -0.3377767889334347
53700000.0 3.931476715378457 -0.33983993485172975
54000000.0 3.931307549051466 -0.34180062993882226
54300000.0 3.9311387123266432 -0.3437613422847285
54600000.0 3.9309601706801023 -0.3458263873126374
54900000.0 3.930789327045069 -0.34778738534625603
55200000.0 3.930606966439904 -0.3498495393686789
55500000.0 3.930432978810861 -0.3518069997514761
55800000.0 3.9302507221749283 -0.3538694982396158
56100000.0 3.930076225837294 -0.35582915719428804
56400000.0 3.929901122287431 -0.3577888087079601
56700000.0 3.929714215153097 -0.35984808020076436
57000000.0 3.9295358753666583 -0.3618039547533985
57300000.0 3.9293484341058247 -0.36386507788451383
57600000.0 3.9291695995977625 -0.36582314162275203
57900000.0 3.9289807048134766 -0.3678832902799123
58200000.0 3.9287980350664413 -0.36983818932268003
58500000.0 3.9286152924511377 -0.3717930894488053
58800000.0 3.928423262241248 -0.37385132851264136
59100000.0 3.9282400518073235 -0.37580746768227424
59400000.0 3.928045898435998 -0.3778666086032058
59700000.0 3.927859400617155 -0.37981960985876945
60000000.0 3.927662392319725 -0.38187594639573363
60300000.0 3.927474900719729 -0.38382985176285606
60600000.0 3.927287317028565 -0.38578374081137423
60900000.0 3.927088427938722 -0.387841288240542
61200000.0 3.9268974425759313 -0.3897923956144436
61500000.0 3.9266956938406588 -0.3918468155298686
61800000.0 3.9265043603972134 -0.39379975713339394
62100000.0 3.9263014074733995 -0.3958553917587534
62400000.0 3.926108662854413 -0.39780736433823544
62700000.00000001 3.9259125386835416 -0.39975754291450777
63000000.0 3.9257059681948285 -0.4018100517936424
63299999.99999999 3.925510108376991 -0.40376109887764633
63600000.00000001 3.9253030357054537 -0.40581575131825537
63900000.0 3.925105097364464 -0.40776584164711405
64199999.99999999 3.924894448336386 -0.4098174045513023
64500000.0 3.924693577417304 -0.4117660237753475
64800000.0 3.9244931395094826 -0.4137151843139521
65100000.00000001 3.9242812973074424 -0.4157685341497748
65400000.0 3.9240787237432206 -0.41771708048664896
65699999.99999999 3.923863217497852 -0.4197676985628285
66000000.0 3.9236584051073073 -0.4217150346695085
66300000.0 3.9234424161873775 -0.4237655528788735
66600000.00000001 3.9232365493457033 -0.4257140991520557
66900000.0 3.923029420023041 -0.4276613835722256
67200000.0 3.9228095475975566 -0.429710423337262
67500000.0 3.922600047828552 -0.4316558938868743
67800000.0 3.9223791706862494 -0.4337054649804312
68100000.0 3.9221686431765743 -0.4356521437520735
68400000.0 3.921946202612213 -0.437701676044847
68700000.0 3.921732725237984 -0.43964624613392966
69000000.0 3.9215184461121306 -0.44159019642583364
69300000.0 3.9212926507417145 -0.44363883126130677
69600000.0 3.9210780132485414 -0.44558360753669896
69900000.0 3.9208505774159113 -0.44763124992483133
70200000.0 3.9206330145949058 -0.4495748809278407
70500000.0 3.9204146444435097 -0.4515178893493249
70800000.0 3.920184448777972 -0.4535645970279811
71100000.0 3.9199650954270138 -0.455508462747689
71400000.0 3.9197327178412094 -0.4575551775440063
71700000.0 3.919510903300774 -0.45949724743041737
72000000.0 3.91927593536733 -0.46154215770819335
72300000.0 3.9190525079416414 -0.4634841856714984
72600000.0 3.9188284706131893 -0.4654268171398615
72900000.0 3.918591654459153 -0.4674728934229448
73200000.0 3.918364411467535 -0.4694128357263795
73500000.0 3.9181250328276453 -0.47145677892612425
73800000.0 3.9178974508001403 -0.47339786026785335
74100000.0 3.9176569506816517 -0.47544168568052175
74400000.0 3.9174272605190974 -0.4773827920449057
74700000.0 3.917195893132892 -0.4793227519215943
75000000.0 3.916951946399506 -0.4813651039468873
75300000.0 3.9167196076807818 -0.4833049614637548
75600000.0 3.9164739779106865 -0.48534820577825927
75900000.0 3.9162401224419057 -0.487288369323223
76200000.0 3.9160044420427127 -0.4892264318370372
76500000.0 3.9157553914427794 -0.4912678747604639
76800000.0 3.9155187441335757 -0.4932058273191191
77100000.0 3.9152686675154342 -0.4952480972046062
77400000.0 3.9150304633874926 -0.49718634777539794
77700000.0 3.914789928216088 -0.4991235412975122
78000000.0 3.9145363728976847 -0.5011640105642667
78300000.0 3.9142954784548363 -0.5031010122075839
78600000.0 3.9140402742249556 -0.5051423759153314
78900000.0 3.9137972044504314 -0.507079751705596
79200000.0 3.9135398312997163 -0.5091179653684588
79500000.0 3.9132941951650246 -0.5110545373925002
79800000.0 3.913048343738335 -0.5129910017238652
80100000.0 3.912789201166654 -0.5150300111429429
80400000.0 3.912541193395346 -0.5169665145416181
80700000.0 3.912279234147709 -0.5190040879696598
81000000.0 3.912029346289042 -0.5209393802723034
81300000.0 3.9117790852851426 -0.5228739315966008
81600000.0 3.911514682331925 -0.5249123718735382
81900000.0 3.9112623849673516 -0.526847930560388
82200000.0 3.910995228994375 -0.5288842688430944
82500000.0 3.910741488858647 -0.5308178999128754
82800000.0 3.910472710008175 -0.5328554771568719
83100000.0 3.9102174572329607 -0.5347896713977762
83400000.0 3.9099607087992903 -0.5367233155751199
83700000.0 3.9096888948377804 -0.5387590094234033
84000000.0 3.9094301522183073 -0.5406917779230991
84300000.0 3.9091573106834945 -0.5427269727487063
84600000.0 3.9088970339102533 -0.5446606447129833
84900000.0 3.908636557881536 -0.5465932366594739
85200000.0 3.9083594747616646 -0.548628044360534
85500000.0 3.908096359411515 -0.5505598609682993
85800000.0 3.907818878853908 -0.5525940622652483
86100000.0 3.9075540764285726 -0.5545258096230962
86400000.0 3.907288720401259 -0.5564585114676789
86700000.0 3.907007476593048 -0.5584912634774793
87000000.0 3.906739934726693 -0.5604221203055263
87300000.0 3.9064571253245535 -0.5624557702256938
87600000.0 3.906187900001093 -0.5643865568128038
87900000.0 3.9059034599163605 -0.5664201433065298
88200000.0 3.905632278270428 -0.5683497254696918
88500000.0 3.9053602971389965 -0.5702796216728151
88800000.0 3.9050726331419514 -0.572311302518537
89100000.0 3.904799162373265 -0.5742421036841422
89400000.0 3.904509859814824 -0.5762737173189622
89700000.0 3.9042341701683894 -0.578202673456148
90000000.0 3.9039577490988164 -0.5801316088255261
90300000.0 3.9036653690330656 -0.5821622890039122
90600000.0 3.9033872672523846 -0.5840911493595056
90900000.0 3.903094060862044 -0.586122615525098
91200000.0 3.90281391285605 -0.5880506081680668
91500000.0 3.9025328316183425 -0.5899775988486222
91800000.0 3.9022359143892533 -0.5920082537226954
92100000.0 3.901953144658046 -0.593935165550143
92400000.0 3.901654581371276 -0.5959657476420879
92700000.0 3.901369255187347 -0.5978928926463625
93000000.0 3.9010836821624273 -0.5998189155855017
93300000.0 3.9007826530991845 -0.6018484366541534
93600000.0 3.9004953873104693 -0.6037743766585583
93900000.0 3.900192039345115 -0.6058039453693236
94200000.0 3.8999026874306804 -0.6077290196242748
94500000.0 3.8996127497545747 -0.6096550431379439
94800000.0 3.8993061163054454 -0.6116827021181303
95100000.0 3.8990151088271863 -0.6136088479512037
95400000.0 3.898706801725538 -0.6156364241373724
95700000.0 3.8984130661857774 -0.6175614978656818
96000000.0 3.8981025282482875 -0.6195881914656394
96300000.0 3.897807811753614 -0.6215130517969956
96600000.0 3.8975114681146827 -0.6234370341288612
96900000.0 3.8971982872075577 -0.625466253708776
97200000.0 3.8968999536572264 -0.6273883596737238
97500000.0 3.896585370539459 -0.6294128795196744
97800000.0 3.8962857292338655 -0.6313391068944992
98100000.0 3.8959849652543728 -0.6332610956349017
98400000.0 3.8956674099944424 -0.6352866089702888
98700000.0 3.895365128745306 -0.637207583210953
99000000.0 3.8950445218466063 -0.6392345824928882
99300000.0 3.8947408458701 -0.6411564632398467
99600000.0 3.8944363554283874 -0.6430783011633553
99900000.0 3.894113831829686 -0.6451050068825503
100200000.0 3.893806301347362 -0.647025141551459
100500000.0 3.8934822453969247 -0.6490485898598731
100800000.0 3.89317317422035 -0.6509718433793668
101100000.0 3.8928640725931145 -0.6528926852629713
101400000.0 3.8925372376594805 -0.6549149976951129
101700000.0 3.892225160349776 -0.6568373387062991
102000000.0 3.8918962279598968 -0.6588597515588632
102300000.0 3.8915830843553834 -0.6607786498339382
102600000.0 3.8912688020088795 -0.6627018499802965
102900000.0 3.8909370761057547 -0.6647231208585074
103200000.0 3.8906217943424064 -0.666641934315174
103500000.0 3.890287158179224 -0.6686656707291445
103800000.0 3.889969357293802 -0.670583565298663
104100000.0 3.8896516317534573 -0.6725022398668178
104400000.0 3.8893144355227878 -0.6745258204015282
104700000.0 3.888994483156707 -0.6764436249276493
105000000.0 3.8886555026905274 -0.678462963192653
105300000.0 3.888333351194645 -0.6803840284482922
105600000.0 3.888010713763422 -0.6823006974427851
105900000.0 3.887669481976716 -0.6843240486938931
106200000.0 3.887343943559733 -0.6862400197815414
106500000.0 3.887000904013864 -0.6882591260519865
106800000.0 3.8866740658714214 -0.6901791772316
107100000.0 3.8863296480662446 -0.6921969885383207
107400000.0 3.886001131553536 -0.6941137683749903
107700000.0 3.885671614060149 -0.6960317252234329
108000000.0 3.8853236365500328 -0.6980497760120397
108300000.0 3.8849923963216484 -0.6999644552483512
108600000.0 3.8846427032271547 -0.7019855507719789
108900000.0 3.884310142971301 -0.7039011345732925
109200000.0 3.8839764501368377 -0.7058147068771433
109500000.0 3.883622903777859 -0.7078350461655839
109800000.0 3.88328786347895 -0.709749517252289
110100000.0 3.882932892065107 -0.7117685361898763
110400000.0 3.8825962709489605 -0.7136829095265922
110700000.0 3.882258123177081 -0.7155964555250907
111000000.0 3.881900225221818 -0.717615535623514
111300000.0 3.8815601623879 -0.7195279724895693
111600000.0 3.8812010727658546 -0.7215435673756155
111900000.0 3.880859079205842 -0.7234602520888251
112200000.0 3.8805168439402298 -0.7253725750684528
112500000.0 3.8801545304369958 -0.7273872277768776
112800000.0 3.8798100191956193 -0.7293027819726832
113100000.0 3.879445650808721 -0.7313162964094241
113400000.0 3.879099531826015 -0.7332317419414175
113700000.0 3.8787524990675486 -0.735143019190993
114000000.0 3.8783858361878223 -0.7371563946022548
114300000.0 3.8780365147057605 -0.7390708982457018
114600000.0 3.8776680615931665 -0.7410841308457251
114900000.0 3.8773171584960497 -0.7429985284394355
115200000.0 3.876965316765648 -0.7449087573566389
115500000.0 3.8765935874857993 -0.746921038396084
115800000.0 3.8762401545621943 -0.7488342933783632
116100000.0 3.875866630932332 -0.7508464279587757
116400000.0 3.875512213929842 -0.7527562212241916
116700000.0 3.875155896103953 -0.7546695462604568
117000000.0 3.874779104642911 -0.7566807318295785
117300000.0 3.874421479017815 -0.7585927107096972
117600000.0 3.874043563980337 -0.7606035365023402
117900000.0 3.8736836379175372 -0.7625124758741819
118200000.0 3.8733231643590593 -0.764424531627231
118500000.0 3.872941938076794 -0.7664343987218938
