! Created with skrf 1.8.0 (http://scikit-rf.org).
# Hz S RI R 50.0 
!freq ReS11 ImS11
50000.0 0.027161824 0.000370715
15049500.0 0.029922016 0.000601695
30049000.0 0.029518046 0.000936953
45048500.0 0.028827744 0.001164243
60048000.0 0.027876072 0.00125197
75047500.0 0.026793796 0.001122977
90047000.0 0.0256269 0.000708414
105046500.0 0.024550694 -7.651e-06
120046000.0 0.02364192 -0.000927956
135045500.0 0.022953364 -0.002310064
150045000.0 0.022623066 -0.003853924
165044500.0 0.022437758 -0.005597155
180044000.0 0.022741014 -0.00770845
195043500.0 0.023296984 -0.009927954
210043000.0 0.024112438 -0.012136936
225042500.0 0.025122928 -0.014296322
240042000.0 0.026301802 -0.016274716
255041500.0 0.027350962 -0.017820522
270041000.0 0.028512166 -0.01906014
285040500.0 0.029370212 -0.019806816
300040000.0 0.030056238 -0.019738372
315039500.0 0.030120626 -0.019802918
330039000.0 0.030671056 -0.01835063
345038500.0 0.030263506 -0.017363142
360038000.0 0.030092384 -0.015933828
375037500.0 0.02889542 -0.014409348
390037000.0 0.028025778 -0.01261388
405036500.0 0.025792438 -0.009254906
420036000.0 0.024199024 -0.008860504
435035500.0 0.02207786 -0.006449281
450035000.0 0.020071532 -0.007461926
465034500.0 0.017793268 -0.006586315
480034000.0 0.016275234 -0.006316106
495033500.0 0.014787846 -0.007836524
510033000.0 0.012144174 -0.0102807
525032500.0 0.010522404 -0.012914358
540032000.0 0.011010052 -0.015532744
555031500.0 0.009787536 -0.019610026
570031000.0 0.01230633 -0.024226026
585030500.0 0.010438636 -0.029686202
600030000.0 0.011576894 -0.034368332
615029500.0 0.013085326 -0.039575732
630029000.0 0.014228264 -0.042464456
645028500.0 0.017355752 -0.047767064
660028000.0 0.01954645 -0.048607088
675027500.0 0.021726678 -0.04966858
690027000.0 0.023794956 -0.050666928
705026500.0 0.026538588 -0.050694684
720026000.0 0.025236938 -0.050679988
735025500.0 0.027747608 -0.04692026
750025000.0 0.02898872 -0.043983312
765024500.0 0.028832228 -0.03804346
780024000.0 0.023360446 -0.04409984
795023500.0 0.028481048 -0.032528218
810023000.0 0.025167438 -0.026808154
825022500.0 0.023551146 -0.024614934
840022000.0 0.021172914 -0.021861512
855021500.0 0.018015278 -0.01995069
870021000.0 0.01682417 -0.016649976
885020500.0 0.013724822 -0.016003918
900020000.0 0.007995559 -0.018418398
915019500.0 0.008488662 -0.018829254
930019000.0 0.007014096 -0.019043252
945018500.0 0.001543586 -0.02548841
960018000.0 0.00227755 -0.030624416
975017500.0 0.001439741 -0.033931044
990017000.0 0.002138941 -0.03303706
1005016500.0 -0.000131577 -0.046453088
1020016000.0 -0.000790011 -0.054620488
1035015500.0 -0.000889674 -0.056521096
1050015000.0 0.002007627 -0.06224926
1065014500.0 -0.006357349 -0.059446324
1080014000.0 0.003464557 -0.059237728
1095013500.0 0.012417644 -0.069480528
1110013000.0 0.002461834 -0.07574204
1125012500.0 0.003137835 -0.071630264
1140012000.0 -0.001899783 -0.050552492
1155011500.0 -0.011080206 -0.053108068
1170011000.0 0.008424822 -0.050977656
1185010500.0 0.012202154 -0.057173608
1200010000.0 0.022862534 -0.0532703
1215009500.0 0.022012946 -0.035969032
1230009000.0 0.017948462 -0.038277756
1245008500.0 0.010787856 -0.021206528
1260008000.0 0.009135008 -0.031198422
1275007500.0 -0.015198154 -0.008090627
1290007000.0 -0.005367738 -0.002896373
1305006500.0 -0.022330846 -0.024886462
1320006000.0 -0.016875452 -0.02116747
1335005500.0 -0.010123464 -0.012090948
1350005000.0 -0.040230788 -0.027072868
1365004500.0 -0.016314756 -0.020008634
1380004000.0 -0.039576048 -0.040425176
1395003500.0 -0.02676234 -0.03665462
1410003000.0 -0.03140314 -0.04028654
1425002500.0 -0.084460648 -0.038767456
1440002000.0 -0.035356232 -0.088985
1455001500.0 -0.009839536 -0.154938208
1470001000.0 -0.020740574 -0.12290496
1485000500.0 0.012209632 -0.14689792
1500000000.0 0.014381862 -0.146291936
