! Created with skrf 1.8.0 (http://scikit-rf.org).
# Hz S RI R 50.0 
!freq ReS11 ImS11
50000.0 0.007536109 -0.004183752
15049500.0 0.01002699 0.000590043
30049000.0 0.01175247 -0.000333052
45048500.0 0.013427958 -0.00193242
60048000.0 0.015083908 -0.004238522
75047500.0 0.016283204 -0.007164871
90047000.0 0.017589082 -0.010174938
105046500.0 0.018203088 -0.0140604
120046000.0 0.018158686 -0.018144848
135045500.0 0.017495882 -0.022357838
150045000.0 0.016179864 -0.026605118
165044500.0 0.014181678 -0.03067369
180044000.0 0.01145244 -0.034462936
195043500.0 0.008205682 -0.037658352
210043000.0 0.004519429 -0.040271336
225042500.0 0.000625986 -0.042178784
240042000.0 -0.003434952 -0.043421044
255041500.0 -0.00748206 -0.043916852
270041000.0 -0.011285078 -0.043705096
285040500.0 -0.014638708 -0.042891196
300040000.0 -0.016750976 -0.04105498
315039500.0 -0.018988658 -0.039582688
330039000.0 -0.02005766 -0.03823932
345038500.0 -0.020654926 -0.036193832
360038000.0 -0.020566352 -0.034622784
375037500.0 -0.020079896 -0.033309824
390037000.0 -0.019147994 -0.032544408
405036500.0 -0.017553174 -0.032160878
420036000.0 -0.015203188 -0.03300736
435035500.0 -0.013203008 -0.03384906
450035000.0 -0.011330138 -0.035802844
465034500.0 -0.009343006 -0.039062772
480034000.0 -0.008034973 -0.04273746
495033500.0 -0.00760409 -0.04654962
510033000.0 -0.007192741 -0.051159372
525032500.0 -0.008180728 -0.05591836
540032000.0 -0.009458332 -0.060735336
555031500.0 -0.01267454 -0.06531778
570031000.0 -0.015953862 -0.069703088
585030500.0 -0.020391432 -0.07431668
600030000.0 -0.024531274 -0.078193504
615029500.0 -0.03031442 -0.081090272
630029000.0 -0.03642968 -0.083017176
645028500.0 -0.042181336 -0.084219648
660028000.0 -0.047723876 -0.083975432
675027500.0 -0.05395792 -0.08326132
690027000.0 -0.059958304 -0.081924144
705026500.0 -0.064951048 -0.079266176
720026000.0 -0.068878584 -0.076250592
735025500.0 -0.072471712 -0.072835432
750025000.0 -0.075120832 -0.069554064
765024500.0 -0.076718128 -0.065372236
780024000.0 -0.077601024 -0.063551388
795023500.0 -0.077469232 -0.058598768
810023000.0 -0.076421704 -0.055094972
825022500.0 -0.074896096 -0.05240782
840022000.0 -0.072513 -0.051651892
855021500.0 -0.07067708 -0.051214872
870021000.0 -0.06808804 -0.050050912
885020500.0 -0.064706676 -0.0514104
900020000.0 -0.063827956 -0.056446416
915019500.0 -0.062505268 -0.058760872
930019000.0 -0.06088052 -0.060811496
945018500.0 -0.059563888 -0.068041696
960018000.0 -0.058392544 -0.06960152
975017500.0 -0.060500668 -0.076431744
990017000.0 -0.065604268 -0.081765432
1005016500.0 -0.067383824 -0.087357984
1020016000.0 -0.072202656 -0.09363676
1035015500.0 -0.077839672 -0.09864612
1050015000.0 -0.083804232 -0.106879848
1065014500.0 -0.089705128 -0.105246368
1080014000.0 -0.1018218 -0.113091072
1095013500.0 -0.1119436 -0.109723568
1110013000.0 -0.121187112 -0.109293352
1125012500.0 -0.12855516 -0.10597296
1140012000.0 -0.139158768 -0.10308288
1155011500.0 -0.146807648 -0.096928184
1170011000.0 -0.152800496 -0.091894408
1185010500.0 -0.16067168 -0.08476248
1200010000.0 -0.159936176 -0.076632736
1215009500.0 -0.171422816 -0.071978536
1230009000.0 -0.167432496 -0.069460024
1245008500.0 -0.16889472 -0.060431944
1260008000.0 -0.171963472 -0.046732708
1275007500.0 -0.173664416 -0.04591216
1290007000.0 -0.173685808 -0.038550672
1305006500.0 -0.172789984 -0.034480104
1320006000.0 -0.16402944 -0.02982813
1335005500.0 -0.16255352 -0.031348952
1350005000.0 -0.158542272 -0.026945612
1365004500.0 -0.157787952 -0.040095636
1380004000.0 -0.171366592 -0.02865322
1395003500.0 -0.165951936 -0.033175356
1410003000.0 -0.16799112 -0.040977212
1425002500.0 -0.170200832 -0.035244444
1440002000.0 -0.174565696 -0.058843108
1455001500.0 -0.190804768 -0.048772512
1470001000.0 -0.179108192 -0.053093768
1485000500.0 -0.20207224 -0.061891508
1500000000.0 -0.209724448 -0.062372112
