! Created with skrf 1.8.0 (http://scikit-rf.org).
# Hz S RI R 50.0 
!freq ReS11 ImS11
50000.0 0.665900224 -0.010577138
15049500.0 0.664640512 -0.04120782
30049000.0 0.661834176 -0.066428272
45048500.0 0.658157248 -0.091024616
60048000.0 0.653716096 -0.115567048
75047500.0 0.647991808 -0.138537248
90047000.0 0.641315584 -0.160610576
105046500.0 0.634126848 -0.183560912
120046000.0 0.626164288 -0.205620256
135045500.0 0.617359104 -0.22696472
150045000.0 0.607533824 -0.248469712
165044500.0 0.597467328 -0.269121856
180044000.0 0.58624448 -0.28985664
195043500.0 0.573959552 -0.309863456
210043000.0 0.561063104 -0.329659296
225042500.0 0.547317056 -0.34918768
240042000.0 0.532732192 -0.367676416
255041500.0 0.516479008 -0.386056032
270041000.0 0.500497984 -0.404233248
285040500.0 0.48381504 -0.420607392
300040000.0 0.469349568 -0.428040192
315039500.0 0.453394784 -0.441488288
330039000.0 0.436172352 -0.456192384
345038500.0 0.420118528 -0.468352
360038000.0 0.402331904 -0.480796608
375037500.0 0.38525904 -0.491724992
390037000.0 0.366575744 -0.505919936
405036500.0 0.351648416 -0.511114048
420036000.0 0.335276608 -0.520442656
435035500.0 0.316885568 -0.527174464
450035000.0 0.301883104 -0.536715104
465034500.0 0.282100928 -0.541194112
480034000.0 0.262897728 -0.545166528
495033500.0 0.244963472 -0.550547136
510033000.0 0.227203568 -0.5552176
525032500.0 0.209410496 -0.558831296
540032000.0 0.191354016 -0.561525248
555031500.0 0.17412736 -0.562213632
570031000.0 0.158057856 -0.565303168
585030500.0 0.140341152 -0.565939136
600030000.0 0.124992464 -0.572088576
615029500.0 0.11079628 -0.574203648
630029000.0 0.09331384 -0.572661632
645028500.0 0.076493192 -0.57342656
660028000.0 0.06081706 -0.572093376
675027500.0 0.04387528 -0.5724832
690027000.0 0.03111498 -0.572079744
705026500.0 0.01649126 -0.56946944
720026000.0 0.001869301 -0.566697984
735025500.0 -0.009933614 -0.565198976
750025000.0 -0.022361024 -0.56427136
765024500.0 -0.034910108 -0.562579648
780024000.0 -0.048507208 -0.569901248
795023500.0 -0.059709656 -0.555335552
810023000.0 -0.071104152 -0.552693248
825022500.0 -0.081779344 -0.55362784
840022000.0 -0.092659952 -0.550156544
855021500.0 -0.103521528 -0.546094528
870021000.0 -0.114893808 -0.544759488
885020500.0 -0.127118456 -0.546215616
900020000.0 -0.124671384 -0.548416704
915019500.0 -0.132329312 -0.544650944
930019000.0 -0.142461408 -0.548357952
945018500.0 -0.153583296 -0.547892544
960018000.0 -0.166344704 -0.54511872
975017500.0 -0.178375392 -0.5512784
990017000.0 -0.187629024 -0.557921216
1005016500.0 -0.196059536 -0.555597824
1020016000.0 -0.211057344 -0.55998496
1035015500.0 -0.225225184 -0.564613376
1050015000.0 -0.232824912 -0.568417984
1065014500.0 -0.255658592 -0.583083776
1080014000.0 -0.278359072 -0.578364736
1095013500.0 -0.289825888 -0.581120704
1110013000.0 -0.311776928 -0.587251008
1125012500.0 -0.320577088 -0.576309696
1140012000.0 -0.344897088 -0.588540288
1155011500.0 -0.379028352 -0.60243808
1170011000.0 -0.40156144 -0.581629568
1185010500.0 -0.415380736 -0.58489504
1200010000.0 -0.439821472 -0.581690752
1215009500.0 -0.465634496 -0.571111936
1230009000.0 -0.497135712 -0.572113216
1245008500.0 -0.52578336 -0.567796736
1260008000.0 -0.558156864 -0.564005184
1275007500.0 -0.595632128 -0.545818112
1290007000.0 -0.62436832 -0.537222144
1305006500.0 -0.658004672 -0.522048896
1320006000.0 -0.689632896 -0.510016608
1335005500.0 -0.728455552 -0.479742912
1350005000.0 -0.768624384 -0.460928544
1365004500.0 -0.78291872 -0.424765472
1380004000.0 -0.82425088 -0.40762736
1395003500.0 -0.838427072 -0.370586272
1410003000.0 -0.85371968 -0.315727616
1425002500.0 -0.869061568 -0.286612608
1440002000.0 -0.892795776 -0.219770128
1455001500.0 -0.919103232 -0.195093232
1470001000.0 -0.904379968 -0.125057328
1485000500.0 -0.915517568 -0.11128128
1500000000.0 -0.906779136 -0.050163764
