! Created with skrf 1.8.0 (http://scikit-rf.org).
# Hz S RI R 50.0 
!freq ReS11 ImS11 ReS21 ImS21 ReS12 ImS12 ReS22 ImS22
50000.0 0.0 0.0 -0.005039489281798188 -0.004701535474123845 0.0 0.0 0.0 0.0
15049500.0 0.0 0.0 -0.002360863128497433 0.0022206980274560584 0.0 0.0 0.0 0.0
30049000.0 0.0 0.0 -0.0021164848993411806 0.0030686284465182567 0.0 0.0 0.0 0.0
45048500.0 0.0 0.0 -0.0027136971250839 0.004067589430089028 0.0 0.0 0.0 0.0
60048000.0 0.0 0.0 -0.0034749592288803683 0.005492151699026132 0.0 0.0 0.0 0.0
75047500.0 0.0 0.0 -0.004567357570680365 0.007802088079336757 0.0 0.0 0.0 0.0
90047000.0 0.0 0.0 -0.005175406464476873 0.010897859995774866 0.0 0.0 0.0 0.0
105046500.0 0.0 0.0 -0.00509868436048146 0.014278202250137043 0.0 0.0 0.0 0.0
120046000.0 0.0 0.0 -0.0039244870483367235 0.01810766877438532 0.0 0.0 0.0 0.0
135045500.0 0.0 0.0 -0.0013795256053483914 0.021728816851176384 0.0 0.0 0.0 0.0
150045000.0 0.0 0.0 0.002013592257109142 0.024681469954960664 0.0 0.0 0.0 0.0
165044500.0 0.0 0.0 0.0062869790816274 0.026679521817944994 0.0 0.0 0.0 0.0
180044000.0 0.0 0.0 0.011152521635373332 0.02741808376909742 0.0 0.0 0.0 0.0
195043500.0 0.0 0.0 0.016374347776493447 0.026657957649735567 0.0 0.0 0.0 0.0
210043000.0 0.0 0.0 0.021441413381271524 0.024168762797959438 0.0 0.0 0.0 0.0
225042500.0 0.0 0.0 0.025909506445171388 0.020194257771228578 0.0 0.0 0.0 0.0
240042000.0 0.0 0.0 0.029344067662578507 0.014771267250224903 0.0 0.0 0.0 0.0
255041500.0 0.0 0.0 0.03122634675975825 0.008412957102189794 0.0 0.0 0.0 0.0
270041000.0 0.0 0.0 0.03136654757522964 0.001492997561166696 0.0 0.0 0.0 0.0
285040500.0 0.0 0.0 0.029769495154284602 -0.005643146769596102 0.0 0.0 0.0 0.0
300040000.0 0.0 0.0 0.025545973208520065 -0.012240853291847964 0.0 0.0 0.0 0.0
315039500.0 0.0 0.0 0.02117333771533636 -0.018844489600140433 0.0 0.0 0.0 0.0
330039000.0 0.0 0.0 0.014651570081431895 -0.022487200605723096 0.0 0.0 0.0 0.0
345038500.0 0.0 0.0 0.0055867870728286495 -0.025129325935983514 0.0 0.0 0.0 0.0
360038000.0 0.0 0.0 -0.0021512980022754032 -0.026411526898550128 0.0 0.0 0.0 0.0
375037500.0 0.0 0.0 -0.01128552973085019 -0.024911903008950048 0.0 0.0 0.0 0.0
390037000.0 0.0 0.0 -0.020980592907039294 -0.020819535596528882 0.0 0.0 0.0 0.0
405036500.0 0.0 0.0 -0.029175233097341366 -0.014566976703991695 0.0 0.0 0.0 0.0
420036000.0 0.0 0.0 -0.037778804898670026 -0.005704343187453391 0.0 0.0 0.0 0.0
435035500.0 0.0 0.0 -0.04267722772867804 0.00347414461417055 0.0 0.0 0.0 0.0
450035000.0 0.0 0.0 -0.04624479161863148 0.014815111236735727 0.0 0.0 0.0 0.0
465034500.0 0.0 0.0 -0.04784617650964025 0.02651044198396188 0.0 0.0 0.0 0.0
480034000.0 0.0 0.0 -0.046439676971894876 0.03887307406927968 0.0 0.0 0.0 0.0
495033500.0 0.0 0.0 -0.04260406027064713 0.049371646297436726 0.0 0.0 0.0 0.0
510033000.0 0.0 0.0 -0.03585030508217369 0.0607843831721926 0.0 0.0 0.0 0.0
525032500.0 0.0 0.0 -0.02674193330071899 0.07005169770545616 0.0 0.0 0.0 0.0
540032000.0 0.0 0.0 -0.015876236858032657 0.07789898185129804 0.0 0.0 0.0 0.0
555031500.0 0.0 0.0 -0.003599833578344104 0.08487644799419058 0.0 0.0 0.0 0.0
570031000.0 0.0 0.0 0.010206703497625072 0.0879135672439486 0.0 0.0 0.0 0.0
585030500.0 0.0 0.0 0.022097759468404844 0.08728543669521702 0.0 0.0 0.0 0.0
600030000.0 0.0 0.0 0.03842693291881976 0.08625619007483126 0.0 0.0 0.0 0.0
615029500.0 0.0 0.0 0.0506018533788283 0.08021091474628535 0.0 0.0 0.0 0.0
630029000.0 0.0 0.0 0.06270165426053313 0.07302579087493738 0.0 0.0 0.0 0.0
645028500.0 0.0 0.0 0.07315811434557899 0.06292806667951786 0.0 0.0 0.0 0.0
660028000.0 0.0 0.0 0.07919696873201516 0.05159053672506791 0.0 0.0 0.0 0.0
675027500.0 0.0 0.0 0.0839827862306287 0.03704089298869779 0.0 0.0 0.0 0.0
690027000.0 0.0 0.0 0.08571413465770934 0.02102378239062512 0.0 0.0 0.0 0.0
705026500.0 0.0 0.0 0.08533794530806445 0.00754354799980063 0.0 0.0 0.0 0.0
720026000.0 0.0 0.0 0.08171412475010562 -0.0044900117316045395 0.0 0.0 0.0 0.0
735025500.0 0.0 0.0 0.07240743396759915 -0.01833511804171274 0.0 0.0 0.0 0.0
750025000.0 0.0 0.0 0.06376663873091232 -0.02875634431137167 0.0 0.0 0.0 0.0
765024500.0 0.0 0.0 0.05009723283359161 -0.036923573195138594 0.0 0.0 0.0 0.0
780024000.0 0.0 0.0 0.04087012427361948 -0.03886731461612429 0.0 0.0 0.0 0.0
795023500.0 0.0 0.0 0.021011133359135813 -0.045521335581183694 0.0 0.0 0.0 0.0
810023000.0 0.0 0.0 0.0034226670662054464 -0.045566071995964956 0.0 0.0 0.0 0.0
825022500.0 0.0 0.0 -0.012181406915954334 -0.04267623336095776 0.0 0.0 0.0 0.0
840022000.0 0.0 0.0 -0.02921342361262892 -0.032735324082282226 0.0 0.0 0.0 0.0
855021500.0 0.0 0.0 -0.04254806051928357 -0.021420685697236944 0.0 0.0 0.0 0.0
870021000.0 0.0 0.0 -0.05208517205524241 -0.009385859123662594 0.0 0.0 0.0 0.0
885020500.0 0.0 0.0 -0.06226203131780758 0.006426476136408229 0.0 0.0 0.0 0.0
900020000.0 0.0 0.0 -0.06225170762923319 0.024553128141726402 0.0 0.0 0.0 0.0
915019500.0 0.0 0.0 -0.06404210087365454 0.04270043355734393 0.0 0.0 0.0 0.0
930019000.0 0.0 0.0 -0.05388219819001123 0.06089795489653094 0.0 0.0 0.0 0.0
945018500.0 0.0 0.0 -0.05703741751355602 0.07426964574086989 0.0 0.0 0.0 0.0
960018000.0 0.0 0.0 -0.038936417289107156 0.09427710935874463 0.0 0.0 0.0 0.0
975017500.0 0.0 0.0 -0.02671986404788761 0.10820112469742264 0.0 0.0 0.0 0.0
990017000.0 0.0 0.0 -0.020483970044315448 0.12126282059873848 0.0 0.0 0.0 0.0
1005016500.0 0.0 0.0 -0.002352302765782686 0.12925223158698515 0.0 0.0 0.0 0.0
1020016000.0 0.0 0.0 0.011573527976618975 0.12475016301239782 0.0 0.0 0.0 0.0
1035015500.0 0.0 0.0 0.03569498782052228 0.13369319640830063 0.0 0.0 0.0 0.0
1050015000.0 0.0 0.0 0.05554757280253645 0.11786745147823208 0.0 0.0 0.0 0.0
1065014500.0 0.0 0.0 0.07215450058378238 0.13354856762558234 0.0 0.0 0.0 0.0
1080014000.0 0.0 0.0 0.0923544226620857 0.11486902016459508 0.0 0.0 0.0 0.0
1095013500.0 0.0 0.0 0.10272657071223207 0.0980267467700997 0.0 0.0 0.0 0.0
1110013000.0 0.0 0.0 0.10950778628754913 0.08198791799337142 0.0 0.0 0.0 0.0
1125012500.0 0.0 0.0 0.12787970947225052 0.07414540555748811 0.0 0.0 0.0 0.0
1140012000.0 0.0 0.0 0.14149149022413082 0.04874656630217439 0.0 0.0 0.0 0.0
1155011500.0 0.0 0.0 0.14269455014257637 0.027389409582763508 0.0 0.0 0.0 0.0
1170011000.0 0.0 0.0 0.12201822979686543 0.0063251243048206484 0.0 0.0 0.0 0.0
1185010500.0 0.0 0.0 0.12118432933872644 -0.014792310046725383 0.0 0.0 0.0 0.0
1200010000.0 0.0 0.0 0.1121196592732287 -0.01584870073319836 0.0 0.0 0.0 0.0
1215009500.0 0.0 0.0 0.11196094677656045 -0.046984315721359284 0.0 0.0 0.0 0.0
1230009000.0 0.0 0.0 0.0836826573821371 -0.04188115176762107 0.0 0.0 0.0 0.0
1245008500.0 0.0 0.0 0.042077643048135153 -0.05939106492721508 0.0 0.0 0.0 0.0
1260008000.0 0.0 0.0 0.04519263244737077 -0.08206869853631706 0.0 0.0 0.0 0.0
1275007500.0 0.0 0.0 0.02894106473298371 -0.0601679001294896 0.0 0.0 0.0 0.0
1290007000.0 0.0 0.0 0.006191597887407538 -0.05440951003179218 0.0 0.0 0.0 0.0
1305006500.0 0.0 0.0 -0.024672078959429643 -0.03894504282884133 0.0 0.0 0.0 0.0
1320006000.0 0.0 0.0 -0.006733431691728856 -0.031628310972114854 0.0 0.0 0.0 0.0
1335005500.0 0.0 0.0 -0.04301904656143477 -0.024365666309608323 0.0 0.0 0.0 0.0
1350005000.0 0.0 0.0 -0.044727904482570476 -0.026677662121179623 0.0 0.0 0.0 0.0
1365004500.0 0.0 0.0 -0.07055530890841244 0.006120444615824422 0.0 0.0 0.0 0.0
1380004000.0 0.0 0.0 -0.0889013172569775 0.04360446086985074 0.0 0.0 0.0 0.0
1395003500.0 0.0 0.0 -0.04757874485676521 0.054109352496446536 0.0 0.0 0.0 0.0
1410003000.0 0.0 0.0 -0.05650373068654776 0.07320981068552078 0.0 0.0 0.0 0.0
1425002500.0 0.0 0.0 -0.03429314032154914 0.10158148948960727 0.0 0.0 0.0 0.0
1440002000.0 0.0 0.0 -0.003098125074608447 0.10147310701310727 0.0 0.0 0.0 0.0
1455001500.0 0.0 0.0 0.003407337376966506 0.12590888776964093 0.0 0.0 0.0 0.0
1470001000.0 0.0 0.0 0.03717032869254028 0.14746331782009262 0.0 0.0 0.0 0.0
1485000500.0 0.0 0.0 0.07585144668874065 0.10999105091658955 0.0 0.0 0.0 0.0
1500000000.0 0.0 0.0 0.12895669340854746 0.1365474750902085 0.0 0.0 0.0 0.0
