! Created with skrf 1.8.0 (http://scikit-rf.org).
# Hz S RI R 50.0 
!freq ReS11 ImS11 ReS21 ImS21 ReS12 ImS12 ReS22 ImS22
50000.0 0.0 0.0 -1.1839696365234418 -0.2206919955452838 0.0 0.0 0.0 0.0
15049500.0 0.0 0.0 0.43530200240302314 -0.0006423031212821314 0.0 0.0 0.0 0.0
30049000.0 0.0 0.0 -0.01193799192440145 0.05933405472146323 0.0 0.0 0.0 0.0
45048500.0 0.0 0.0 -0.39747439842787946 -0.04538549099656619 0.0 0.0 0.0 0.0
60048000.0 0.0 0.0 2.5141024618086334 -1.5310046716566157 0.0 0.0 0.0 0.0
75047500.0 0.0 0.0 0.9073978697450482 -0.4501967060059558 0.0 0.0 0.0 0.0
90047000.0 0.0 0.0 -2.0513417057705445 0.5326939332737185 0.0 0.0 0.0 0.0
105046500.0 0.0 0.0 -0.4242625313279928 -0.23240662338578025 0.0 0.0 0.0 0.0
120046000.0 0.0 0.0 -0.5159781455133083 0.3106158364976136 0.0 0.0 0.0 0.0
135045500.0 0.0 0.0 -0.06746319527293476 0.01994276517847577 0.0 0.0 0.0 0.0
150045000.0 0.0 0.0 -0.9033389443446107 -0.35063419435991516 0.0 0.0 0.0 0.0
165044500.0 0.0 0.0 6.300685163366749 1.4167723903349883 0.0 0.0 0.0 0.0
180044000.0 0.0 0.0 0.9499804600302847 0.10425549689104537 0.0 0.0 0.0 0.0
195043500.0 0.0 0.0 -3.0023172929011075 -2.128550214421482 0.0 0.0 0.0 0.0
210043000.0 0.0 0.0 -0.14300261059462863 0.09212465380119561 0.0 0.0 0.0 0.0
225042500.0 0.0 0.0 -0.5405609221149201 -1.2970429494140014 0.0 0.0 0.0 0.0
240042000.0 0.0 0.0 0.27990986187544026 -1.2865519460386883 0.0 0.0 0.0 0.0
255041500.0 0.0 0.0 0.7801572208502919 0.186753724045608 0.0 0.0 0.0 0.0
270041000.0 0.0 0.0 -1.3889306835055812 -0.7094300179697859 0.0 0.0 0.0 0.0
285040500.0 0.0 0.0 0.3575524200426595 -0.1113549149099537 0.0 0.0 0.0 0.0
300040000.0 0.0 0.0 0.07912162747423435 0.018678262718912098 0.0 0.0 0.0 0.0
315039500.0 0.0 0.0 -0.20953291645146024 -0.13550925286341337 0.0 0.0 0.0 0.0
330039000.0 0.0 0.0 1.0620228826882605 -0.10802255729229228 0.0 0.0 0.0 0.0
345038500.0 0.0 0.0 0.10280570433813303 -0.43444473764469027 0.0 0.0 0.0 0.0
360038000.0 0.0 0.0 -0.2796041281666647 0.044037882555748496 0.0 0.0 0.0 0.0
375037500.0 0.0 0.0 0.10417562290426771 0.032906991966173596 0.0 0.0 0.0 0.0
390037000.0 0.0 0.0 -0.33490533074413303 0.283327699050277 0.0 0.0 0.0 0.0
405036500.0 0.0 0.0 0.456370458874332 0.47506022668654185 0.0 0.0 0.0 0.0
420036000.0 0.0 0.0 0.2872499056950787 -0.22720422430672932 0.0 0.0 0.0 0.0
435035500.0 0.0 0.0 0.9606406545821901 -0.48807809260891294 0.0 0.0 0.0 0.0
450035000.0 0.0 0.0 -0.045190514402073285 -0.014433538794044938 0.0 0.0 0.0 0.0
465034500.0 0.0 0.0 -0.740275813444013 -1.4961284229644654 0.0 0.0 0.0 0.0
480034000.0 0.0 0.0 0.01278217123833586 0.6377284802693751 0.0 0.0 0.0 0.0
495033500.0 0.0 0.0 0.4947674210449663 -0.08755953114778744 0.0 0.0 0.0 0.0
510033000.0 0.0 0.0 0.2462943995846869 -0.22938273233981843 0.0 0.0 0.0 0.0
525032500.0 0.0 0.0 -1.581846644749991 0.08054105984210339 0.0 0.0 0.0 0.0
540032000.0 0.0 0.0 -0.057008870258500245 0.06117259796543427 0.0 0.0 0.0 0.0
555031500.0 0.0 0.0 -0.9411839349215959 0.3426954254180517 0.0 0.0 0.0 0.0
570031000.0 0.0 0.0 -0.6381479486975717 -0.0198613736852477 0.0 0.0 0.0 0.0
585030500.0 0.0 0.0 0.20894481994388947 0.007622242430621036 0.0 0.0 0.0 0.0
600030000.0 0.0 0.0 -0.11873868844292028 -0.20705550666823203 0.0 0.0 0.0 0.0
615029500.0 0.0 0.0 -0.031468949805447094 0.004156183146121165 0.0 0.0 0.0 0.0
630029000.0 0.0 0.0 -1.0286280641573562 -0.13155074994916394 0.0 0.0 0.0 0.0
645028500.0 0.0 0.0 0.7221820019015031 -0.09443803131247686 0.0 0.0 0.0 0.0
660028000.0 0.0 0.0 -0.20142739051323946 0.07586323932165139 0.0 0.0 0.0 0.0
675027500.0 0.0 0.0 -0.1838344299068394 -0.6691156252506095 0.0 0.0 0.0 0.0
690027000.0 0.0 0.0 -11.869474716454729 -17.452565057324282 0.0 0.0 0.0 0.0
705026500.0 0.0 0.0 0.4521933488065166 -0.06749152781684593 0.0 0.0 0.0 0.0
720026000.0 0.0 0.0 -0.1386507778242751 0.01186011450224253 0.0 0.0 0.0 0.0
735025500.0 0.0 0.0 0.21918469267370133 -2.145200552951226 0.0 0.0 0.0 0.0
750025000.0 0.0 0.0 -0.5188412784367723 -0.109369189923207 0.0 0.0 0.0 0.0
765024500.0 0.0 0.0 0.08211407251258153 -0.2368391363547201 0.0 0.0 0.0 0.0
780024000.0 0.0 0.0 -2.3481686061271527 0.5057944892385818 0.0 0.0 0.0 0.0
795023500.0 0.0 0.0 0.517818042550845 -0.031932225511388565 0.0 0.0 0.0 0.0
810023000.0 0.0 0.0 0.6265956405729679 0.27936153494211 0.0 0.0 0.0 0.0
825022500.0 0.0 0.0 0.19753399193076737 -0.4961507388293765 0.0 0.0 0.0 0.0
840022000.0 0.0 0.0 -0.5083164574563148 0.7076549105100237 0.0 0.0 0.0 0.0
855021500.0 0.0 0.0 -1.1525814159947942 0.7740994851623431 0.0 0.0 0.0 0.0
870021000.0 0.0 0.0 -0.39367153747556266 -0.12920552852988884 0.0 0.0 0.0 0.0
885020500.0 0.0 0.0 -0.04433525663996524 0.8663862960625733 0.0 0.0 0.0 0.0
900020000.0 0.0 0.0 -0.5992715470991657 0.7171972247521974 0.0 0.0 0.0 0.0
915019500.0 0.0 0.0 0.01813532541176669 0.9175325179877681 0.0 0.0 0.0 0.0
930019000.0 0.0 0.0 0.4826300235428532 -0.7406244485600939 0.0 0.0 0.0 0.0
945018500.0 0.0 0.0 -0.48673887837790186 -1.1381937339235169 0.0 0.0 0.0 0.0
960018000.0 0.0 0.0 4.964667781415833 -6.8505153013397235 0.0 0.0 0.0 0.0
975017500.0 0.0 0.0 0.8375366473986163 0.1879220208475643 0.0 0.0 0.0 0.0
990017000.0 0.0 0.0 1.0039885204149088 1.808581678284813 0.0 0.0 0.0 0.0
1005016500.0 0.0 0.0 -0.8337295560938675 0.17343527026564332 0.0 0.0 0.0 0.0
1020016000.0 0.0 0.0 -0.18088018778442755 -0.27190357819635075 0.0 0.0 0.0 0.0
1035015500.0 0.0 0.0 -0.0837040748669177 -0.5438570396561742 0.0 0.0 0.0 0.0
1050015000.0 0.0 0.0 0.0797168684559683 0.3871190398269674 0.0 0.0 0.0 0.0
1065014500.0 0.0 0.0 0.13706606709424168 0.028395115697148872 0.0 0.0 0.0 0.0
1080014000.0 0.0 0.0 0.3426658042836752 -0.05176785674974855 0.0 0.0 0.0 0.0
1095013500.0 0.0 0.0 0.6745825989669575 -0.6276968095948573 0.0 0.0 0.0 0.0
1110013000.0 0.0 0.0 0.06256823617113534 -0.11831206839493388 0.0 0.0 0.0 0.0
1125012500.0 0.0 0.0 0.10732880926816796 -0.20250453689502274 0.0 0.0 0.0 0.0
1140012000.0 0.0 0.0 -0.12425958437534869 0.13842166268679346 0.0 0.0 0.0 0.0
1155011500.0 0.0 0.0 0.5002479633162827 0.11154388515876852 0.0 0.0 0.0 0.0
1170011000.0 0.0 0.0 0.5108418281072397 0.2315289152055939 0.0 0.0 0.0 0.0
1185010500.0 0.0 0.0 0.29855577003571737 -0.3079986998266012 0.0 0.0 0.0 0.0
1200010000.0 0.0 0.0 -0.7010526216644336 -0.29543646755999836 0.0 0.0 0.0 0.0
1215009500.0 0.0 0.0 0.9566684116831552 0.8925129514748029 0.0 0.0 0.0 0.0
1230009000.0 0.0 0.0 -0.9460869514787908 -0.4089999936803107 0.0 0.0 0.0 0.0
1245008500.0 0.0 0.0 0.09178785916740391 -0.19453613689575427 0.0 0.0 0.0 0.0
1260008000.0 0.0 0.0 0.9687310832765595 -0.14424049166701253 0.0 0.0 0.0 0.0
1275007500.0 0.0 0.0 0.02054913544989558 -0.12958001487218385 0.0 0.0 0.0 0.0
1290007000.0 0.0 0.0 0.4648363204520199 -0.7223757291598242 0.0 0.0 0.0 0.0
1305006500.0 0.0 0.0 -1.1561684631328586 0.30780991241909206 0.0 0.0 0.0 0.0
1320006000.0 0.0 0.0 0.04253897151692183 0.04783992044866443 0.0 0.0 0.0 0.0
1335005500.0 0.0 0.0 0.12430998608889376 0.06093001137003801 0.0 0.0 0.0 0.0
1350005000.0 0.0 0.0 0.19615052816283 0.21345958089078784 0.0 0.0 0.0 0.0
1365004500.0 0.0 0.0 1.165333511995939 0.6514141871070568 0.0 0.0 0.0 0.0
1380004000.0 0.0 0.0 0.9476564657157575 -0.34431076101888863 0.0 0.0 0.0 0.0
1395003500.0 0.0 0.0 1.0412847352837795 -0.05740033664954136 0.0 0.0 0.0 0.0
1410003000.0 0.0 0.0 -1.0988947568687875 0.014031147890130585 0.0 0.0 0.0 0.0
1425002500.0 0.0 0.0 0.5630330001982726 0.1794439487910129 0.0 0.0 0.0 0.0
1440002000.0 0.0 0.0 0.975013301811359 -0.79217098703131 0.0 0.0 0.0 0.0
1455001500.0 0.0 0.0 -0.4758476533590435 0.002827817426225413 0.0 0.0 0.0 0.0
1470001000.0 0.0 0.0 0.04227403717470084 0.3204804808634261 0.0 0.0 0.0 0.0
1485000500.0 0.0 0.0 0.7743370580909644 -0.04301057543129022 0.0 0.0 0.0 0.0
1500000000.0 0.0 0.0 -0.16668020168722966 -0.3403244459658667 0.0 0.0 0.0 0.0
