! Created with skrf 1.8.0 (http://scikit-rf.org).
# Hz S RI R 50.0 
!freq ReS11 ImS11 ReS21 ImS21 ReS12 ImS12 ReS22 ImS22
50000.0 0.0 0.0 -0.7001786841666027 0.03612026128602236 0.0 0.0 0.0 0.0
15049500.0 0.0 0.0 0.12725779252741978 -0.13431453163994217 0.0 0.0 0.0 0.0
30049000.0 0.0 0.0 0.024465980370598096 0.013870834322835745 0.0 0.0 0.0 0.0
45048500.0 0.0 0.0 0.09845351768276396 0.009553036190864658 0.0 0.0 0.0 0.0
60048000.0 0.0 0.0 0.5769137575473562 -0.039798357295318804 0.0 0.0 0.0 0.0
75047500.0 0.0 0.0 -0.31802684153573985 0.365428131761276 0.0 0.0 0.0 0.0
90047000.0 0.0 0.0 -0.2471148444474167 0.3170467784830986 0.0 0.0 0.0 0.0
105046500.0 0.0 0.0 -0.22456118027353836 -0.7278926553548685 0.0 0.0 0.0 0.0
120046000.0 0.0 0.0 -0.5454561108591909 -0.30646876351085134 0.0 0.0 0.0 0.0
135045500.0 0.0 0.0 0.09419120995883966 0.3227477133881926 0.0 0.0 0.0 0.0
150045000.0 0.0 0.0 1.027778942724438 0.3190395319888069 0.0 0.0 0.0 0.0
165044500.0 0.0 0.0 1.5868751441360458 0.3548002509881763 0.0 0.0 0.0 0.0
180044000.0 0.0 0.0 0.7968412145272026 0.47937106748614194 0.0 0.0 0.0 0.0
195043500.0 0.0 0.0 0.9480213582112269 0.43723220057389756 0.0 0.0 0.0 0.0
210043000.0 0.0 0.0 0.43686695931549263 -1.1792889363323926 0.0 0.0 0.0 0.0
225042500.0 0.0 0.0 -0.47720018946606 0.3001032240393345 0.0 0.0 0.0 0.0
240042000.0 0.0 0.0 -0.14053694659642255 -0.3404462832678109 0.0 0.0 0.0 0.0
255041500.0 0.0 0.0 -1.6775955956183188 1.9103277809945973 0.0 0.0 0.0 0.0
270041000.0 0.0 0.0 -1.1065764011789085 0.2339954252610513 0.0 0.0 0.0 0.0
285040500.0 0.0 0.0 0.3121944014335268 0.14019441396963253 0.0 0.0 0.0 0.0
300040000.0 0.0 0.0 0.4891482106680443 0.27904503623426824 0.0 0.0 0.0 0.0
315039500.0 0.0 0.0 0.4652794759265511 -0.12110581614119208 0.0 0.0 0.0 0.0
330039000.0 0.0 0.0 -0.7796179663267788 0.7959407368420996 0.0 0.0 0.0 0.0
345038500.0 0.0 0.0 0.6626972152266287 0.17309229686812427 0.0 0.0 0.0 0.0
360038000.0 0.0 0.0 -0.002196926063103121 -0.00324812687953319 0.0 0.0 0.0 0.0
375037500.0 0.0 0.0 0.018904436114020838 -0.015396850766393204 0.0 0.0 0.0 0.0
390037000.0 0.0 0.0 -0.3845539033627896 -0.5765742471593148 0.0 0.0 0.0 0.0
405036500.0 0.0 0.0 0.22285530183353455 -0.43605699849301016 0.0 0.0 0.0 0.0
420036000.0 0.0 0.0 0.293576603703011 0.5046188180592156 0.0 0.0 0.0 0.0
435035500.0 0.0 0.0 0.09246175602999321 -0.14548831933593842 0.0 0.0 0.0 0.0
450035000.0 0.0 0.0 -0.5320269102650984 0.3336266246844787 0.0 0.0 0.0 0.0
465034500.0 0.0 0.0 -0.006573172472717037 -0.9984922901319089 0.0 0.0 0.0 0.0
480034000.0 0.0 0.0 -0.15598084035645685 -0.4168755960735609 0.0 0.0 0.0 0.0
495033500.0 0.0 0.0 1.021545589266679 -0.018269604009651687 0.0 0.0 0.0 0.0
510033000.0 0.0 0.0 0.9444742207038891 0.40710851431072587 0.0 0.0 0.0 0.0
525032500.0 0.0 0.0 0.40213676069027504 0.677486609828273 0.0 0.0 0.0 0.0
540032000.0 0.0 0.0 0.2665631066511222 -0.05565261002528295 0.0 0.0 0.0 0.0
555031500.0 0.0 0.0 0.08070810627949405 0.2830372518915854 0.0 0.0 0.0 0.0
570031000.0 0.0 0.0 0.3534324390700677 -1.2187481286759638 0.0 0.0 0.0 0.0
585030500.0 0.0 0.0 -0.5648296852593124 -0.0068047165436284736 0.0 0.0 0.0 0.0
600030000.0 0.0 0.0 0.38874124367172336 0.3767237824795191 0.0 0.0 0.0 0.0
615029500.0 0.0 0.0 -0.41152943855191126 0.08198150634751399 0.0 0.0 0.0 0.0
630029000.0 0.0 0.0 1.1197344090008612 0.32836653129869836 0.0 0.0 0.0 0.0
645028500.0 0.0 0.0 3.0683156648246923 -0.44526445987156504 0.0 0.0 0.0 0.0
660028000.0 0.0 0.0 -0.8818310811141749 0.4990699321493105 0.0 0.0 0.0 0.0
675027500.0 0.0 0.0 -0.3867984377247662 -0.36004312085069884 0.0 0.0 0.0 0.0
690027000.0 0.0 0.0 -0.22990037522391335 0.14528155249657201 0.0 0.0 0.0 0.0
705026500.0 0.0 0.0 -0.3070062070538342 0.3572133655908985 0.0 0.0 0.0 0.0
720026000.0 0.0 0.0 -0.20118783670522147 -0.10448538038535803 0.0 0.0 0.0 0.0
735025500.0 0.0 0.0 1.1684148151434568 0.544891104071788 0.0 0.0 0.0 0.0
750025000.0 0.0 0.0 0.40324883036650183 -0.8813784643081887 0.0 0.0 0.0 0.0
765024500.0 0.0 0.0 -0.4612829524932996 0.4698707237647675 0.0 0.0 0.0 0.0
780024000.0 0.0 0.0 -0.5661805664390619 -0.04724411289939657 0.0 0.0 0.0 0.0
795023500.0 0.0 0.0 -1.112108088787136 -1.3022326885702151 0.0 0.0 0.0 0.0
810023000.0 0.0 0.0 0.6275530663413819 0.016185297858863072 0.0 0.0 0.0 0.0
825022500.0 0.0 0.0 1.6315648814833907 0.38244170574386227 0.0 0.0 0.0 0.0
840022000.0 0.0 0.0 -0.487076128439675 1.092238772491911 0.0 0.0 0.0 0.0
855021500.0 0.0 0.0 0.4084101156486914 0.7000029453072152 0.0 0.0 0.0 0.0
870021000.0 0.0 0.0 0.023148247754393222 -0.059652717568451044 0.0 0.0 0.0 0.0
885020500.0 0.0 0.0 0.2840580882147561 -0.4385250904969787 0.0 0.0 0.0 0.0
900020000.0 0.0 0.0 -0.7846608243466262 -0.05028528739264056 0.0 0.0 0.0 0.0
915019500.0 0.0 0.0 0.28600133082988377 -0.3360661856121484 0.0 0.0 0.0 0.0
930019000.0 0.0 0.0 0.06414003630787715 0.01861039820936489 0.0 0.0 0.0 0.0
945018500.0 0.0 0.0 -0.11874390587894318 0.4522960993290869 0.0 0.0 0.0 0.0
960018000.0 0.0 0.0 -0.2144157276227131 -0.05644320263251046 0.0 0.0 0.0 0.0
975017500.0 0.0 0.0 -0.3559779003273549 -0.7256721564110951 0.0 0.0 0.0 0.0
990017000.0 0.0 0.0 -0.3599723380048015 0.36930990153936855 0.0 0.0 0.0 0.0
1005016500.0 0.0 0.0 -0.9963685072821209 -0.7626595218772743 0.0 0.0 0.0 0.0
1020016000.0 0.0 0.0 0.3774254231135323 0.8614859183864844 0.0 0.0 0.0 0.0
1035015500.0 0.0 0.0 0.41747772836844177 0.3079263777524664 0.0 0.0 0.0 0.0
1050015000.0 0.0 0.0 -0.38805500773749235 -0.48182793052186607 0.0 0.0 0.0 0.0
1065014500.0 0.0 0.0 0.7690184180315272 -0.5014235768668699 0.0 0.0 0.0 0.0
1080014000.0 0.0 0.0 0.245164394680509 -0.47665375417923483 0.0 0.0 0.0 0.0
1095013500.0 0.0 0.0 -0.2126047632556636 -0.2837630897130277 0.0 0.0 0.0 0.0
1110013000.0 0.0 0.0 -0.048417075319647944 0.7431364142672514 0.0 0.0 0.0 0.0
1125012500.0 0.0 0.0 -1.0132936676932818 0.5714598536542477 0.0 0.0 0.0 0.0
1140012000.0 0.0 0.0 0.9870338140748631 0.7813988150485043 0.0 0.0 0.0 0.0
1155011500.0 0.0 0.0 0.7509043729921029 0.21336012127433315 0.0 0.0 0.0 0.0
1170011000.0 0.0 0.0 1.1766338169588628 -1.3883037761320307 0.0 0.0 0.0 0.0
1185010500.0 0.0 0.0 -0.07296444229594086 -0.12579412615235327 0.0 0.0 0.0 0.0
1200010000.0 0.0 0.0 1.075846312349717 -0.5444451656731243 0.0 0.0 0.0 0.0
1215009500.0 0.0 0.0 0.6978670358847606 -0.05626483866935824 0.0 0.0 0.0 0.0
1230009000.0 0.0 0.0 0.33239331863643334 0.47317435737261915 0.0 0.0 0.0 0.0
1245008500.0 0.0 0.0 1.4649317310967944 -0.21793623525068087 0.0 0.0 0.0 0.0
1260008000.0 0.0 0.0 -0.5008468101223004 -0.3618487628406143 0.0 0.0 0.0 0.0
1275007500.0 0.0 0.0 -0.09916612343252641 -0.5360061366781366 0.0 0.0 0.0 0.0
1290007000.0 0.0 0.0 0.11768965488525723 0.13258546080040595 0.0 0.0 0.0 0.0
1305006500.0 0.0 0.0 -1.405610244243199 2.387414025024431 0.0 0.0 0.0 0.0
1320006000.0 0.0 0.0 -0.1716207689987354 0.04366989345668115 0.0 0.0 0.0 0.0
1335005500.0 0.0 0.0 -0.3971772039904681 -0.28042029088386894 0.0 0.0 0.0 0.0
1350005000.0 0.0 0.0 1.6733894631146835 0.4874266120633234 0.0 0.0 0.0 0.0
1365004500.0 0.0 0.0 0.7578822848296453 -0.13315885018072046 0.0 0.0 0.0 0.0
1380004000.0 0.0 0.0 -0.002847200698957431 0.11753841229773651 0.0 0.0 0.0 0.0
1395003500.0 0.0 0.0 -1.0532663262345083 0.23265271767584217 0.0 0.0 0.0 0.0
1410003000.0 0.0 0.0 0.47452287613565747 0.3744865370707314 0.0 0.0 0.0 0.0
1425002500.0 0.0 0.0 -1.8752272728708317 -1.010683191275523 0.0 0.0 0.0 0.0
1440002000.0 0.0 0.0 1.1108791674874738 1.351944237635808 0.0 0.0 0.0 0.0
1455001500.0 0.0 0.0 -1.0353407814552906 0.11722054207028275 0.0 0.0 0.0 0.0
1470001000.0 0.0 0.0 0.1441958714458223 2.0279940812235453 0.0 0.0 0.0 0.0
1485000500.0 0.0 0.0 0.22923584722309423 -0.3865028330592921 0.0 0.0 0.0 0.0
1500000000.0 0.0 0.0 -1.7978471749383238 -1.0982357443366768 0.0 0.0 0.0 0.0
