! Created with skrf 1.8.0 (http://scikit-rf.org).
# Hz S RI R 50.0 
!freq ReS11 ImS11
50000.0 0.6901111690993013 -1.7840250788124423
15049500.0 2.7276891629634443 1.3200930489217277
30049000.0 -0.7641319708255009 -0.38720041926302623
45048500.0 0.4230181476708759 -1.349748730076284
60048000.0 1.0956620739437888 0.4357294998818916
75047500.0 1.0709033069535345 -0.2558207940291645
90047000.0 -0.5880716271191289 1.0084626909962044
105046500.0 0.7100230012588681 0.8930415035282827
120046000.0 -0.5141580717365997 -0.9924682448466163
135045500.0 -2.9922071613749863 -0.8658005262373839
150045000.0 -1.7465697795951884 1.7334423079935004
165044500.0 -0.2919684726234174 -0.4661383261952423
180044000.0 2.510773720903012 -2.1807275594397724
195043500.0 -0.4691418027047663 0.5573383050111782
210043000.0 -1.7367769511786202 2.0150824475430995
225042500.0 -0.2998597774340775 0.93556837022189
240042000.0 4.378297098407485 -1.614146918567588
255041500.0 0.46998524734049374 1.5809580369380327
270041000.0 -0.7844735858788912 0.9523170636744668
285040500.0 -0.6439362674940697 -0.4759811509192923
300040000.0 0.8552460268363118 3.426671699243707
315039500.0 2.7666006427847623 4.746015828681657
330039000.0 0.579644910926575 0.5395179047935729
345038500.0 -0.034393797133205645 -0.49470027867350697
360038000.0 -1.8795006673319523 -0.36282183243798605
375037500.0 4.777383331172176 7.37957460561773
390037000.0 1.7145332879249358 -3.952158929908327
405036500.0 -0.08776899267241016 -1.5151220295565142
420036000.0 2.7451396366496774 -6.701621240971293
435035500.0 1.3279051142019886 0.31559913277136786
450035000.0 1.4577013649582817 -1.326355825941966
465034500.0 0.7129133248001148 -1.7817869657102208
480034000.0 -1.4688926055074392 -1.1122652888488005
495033500.0 0.21846826943801415 0.0633742173662232
510033000.0 -2.182018959867378 -1.1592630899263419
525032500.0 -1.385357318187031 -1.9506573378546297
540032000.0 -5.333958343635817 -4.946563840341385
555031500.0 -0.5069944422723206 -0.18995679164386367
570031000.0 -0.42963181789905763 0.33106964244408577
585030500.0 2.220784607046197 -0.5555547638172682
600030000.0 -5.349065857152991 2.7055406030054945
615029500.0 7.838271645636324 28.43393406583083
630029000.0 -1.1955513354428693 -0.24578686689913892
645028500.0 0.9562192389494691 0.35775300958199313
660028000.0 -1.373495693473819 -2.487742673783716
675027500.0 -0.9984579827504535 -3.2495993995292114
690027000.0 -0.4142734269281348 -0.19935044506638638
705026500.0 1.7512090392294235 0.24695852339261049
720026000.0 -5.196893752683473 2.643682249467309
735025500.0 0.2797748352866746 0.05880909428246312
750025000.0 -0.9902521402589686 -1.537839117358411
765024500.0 -2.062137209944603 2.232316519020679
780024000.0 0.36638588342611855 0.8667380513570597
795023500.0 1.6516300092344924 -0.6996778361362149
810023000.0 0.559056346718848 -0.5775571388762222
825022500.0 -3.3989274163882257 -4.616712334120029
840022000.0 -0.6819753755094392 -0.3672408965287788
855021500.0 -1.1945037263582177 0.3680642024449239
870021000.0 -2.088669631582527 -0.41817176844162657
885020500.0 0.6003897130122122 0.20578623507676727
900020000.0 0.1116903294183892 -2.890685128766833
915019500.0 2.098402326125727 -5.835722439968725
930019000.0 1.993508323370162 1.1161384439838111
945018500.0 -0.020143409958886083 -0.22650491153879038
960018000.0 3.836061416181854 2.014817298068716
975017500.0 3.005193708723516 0.5514240667294533
990017000.0 -0.022495514816587434 -0.7759138296997374
1005016500.0 -0.8066131701093966 0.23470540998736797
1020016000.0 -0.8447446577973907 1.3692751902149751
1035015500.0 -2.298685588253091 1.3115151078387792
1050015000.0 6.369576841754931 -0.9146985176169717
1065014500.0 10.172935444411346 11.647445055184772
1080014000.0 -2.599376717894608 -0.3581712288112539
1095013500.0 0.41740248838596383 -0.15343558278998
1110013000.0 0.6481989114695194 -1.5027085082446203
1125012500.0 0.891450553339202 1.8075387684101547
1140012000.0 -6.226734192169329 -1.659371978185987
1155011500.0 0.7328301888032014 -0.9370635004723787
1170011000.0 2.560225554737794 0.1900732364964022
1185010500.0 -0.4404774340186312 -1.2296399755870588
1200010000.0 -1.9547009172580512 1.018484234768374
1215009500.0 2.018835958758092 -1.9732618265169408
1230009000.0 -1.162270349338865 0.4075843461809104
1245008500.0 0.056611370203978544 -0.6158336270633282
1260008000.0 1.1486868579370495 0.045661442463400446
1275007500.0 0.43136915816989435 0.8435450279274304
1290007000.0 1.0327743506612983 0.5776485612232645
1305006500.0 -0.9839996602781607 -0.7296733944414212
1320006000.0 2.4203176714180734 -0.6522848818643989
1335005500.0 0.9614112971107523 -1.7584554071506595
1350005000.0 -0.6025591642280218 -3.4778809591501383
1365004500.0 0.3428604815823662 0.34076546490132376
1380004000.0 0.9878733888348943 1.4207422161504752
1395003500.0 1.1653600249055178 -0.2660744748626537
1410003000.0 -0.9750145883906525 0.5795049356903194
1425002500.0 -0.34371148764271525 -0.44137984916353706
1440002000.0 0.9020897693052784 -0.9332828621708252
1455001500.0 -1.679718197249082 1.41856380354597
1470001000.0 -2.790080119327078 -2.127601174382888
1485000500.0 0.8307624048346263 0.24290982854423254
1500000000.0 1.032197292020549 2.2131970340084948
