! Created with skrf 1.8.0 (http://scikit-rf.org).
# Hz S RI R 50.0 
!freq ReS11 ImS11
50000.0 -0.0002707250615104656 2.3573145662326008e-05
15049500.0 -9.76313804963394e-05 -4.423082433500198e-05
30049000.0 0.0001566761601948164 -6.758695893851796e-05
45048500.0 -0.00017860397367462386 -0.00012717674318360564
60048000.0 3.502635869172367e-05 7.76042043170281e-05
75047500.0 2.0605106980925993e-05 7.540161483176801e-05
90047000.0 -3.0787262490444e-05 3.125269058963445e-05
105046500.0 -3.688614507219151e-05 1.5845604506416016e-05
120046000.0 1.636466160153167e-05 -6.410261488729472e-06
135045500.0 -1.2294488711200756e-05 0.00016808583899935914
150045000.0 -4.975272519138456e-05 -2.881846398914627e-05
165044500.0 -4.836556863873206e-05 0.00017973798180595003
180044000.0 4.1479089016539625e-06 -2.266096770370477e-05
195043500.0 5.631089769033082e-05 5.392587812310676e-06
210043000.0 -3.0727399788935436e-05 -1.548295482435606e-05
225042500.0 2.9734180176823572e-05 4.266295135531386e-05
240042000.0 6.890485662379767e-05 2.5242235459210438e-05
255041500.0 -6.272061533044255e-05 -8.625008948701685e-05
270041000.0 1.3519703404731853e-05 -6.434922188534661e-07
285040500.0 -0.00026252589812134037 -5.5776499387086455e-05
300040000.0 0.0004832145979194249 -1.0942724161413899e-05
315039500.0 -0.0006003149121685488 -1.0885621707841487e-05
330039000.0 -4.700552424701092e-06 -0.00020766652244621082
345038500.0 0.00014445402609720016 0.0013499901566730703
360038000.0 -0.0034437259097206095 0.004863425440759831
375037500.0 -0.0013853272186056653 -0.0004692502819574141
390037000.0 -0.0027047835892959416 -0.0011288278589031667
405036500.0 -0.0001968902348797496 0.004813362018562804
420036000.0 0.0004188324154944121 0.000312973610322033
435035500.0 0.00015800052889839428 -0.0009876466736594605
450035000.0 0.0011946360079460154 0.0010335632646706143
465034500.0 0.0005757934014629881 -0.0001664877823524528
480034000.0 -0.0013705282826812026 0.0007561191779485778
495033500.0 -1.286874024333989e-05 0.00014091577197650686
510033000.0 -0.003127135111559669 -0.004301280698200218
525032500.0 0.00022146757126647668 -0.0010948723329716294
540032000.0 -0.005857056062530314 0.0019726127482770045
555031500.0 -0.00018398328836688807 0.001149250245671488
570031000.0 -0.010129126267822114 -0.0060009238951644105
585030500.0 0.0009543210566488556 -0.0003278219823710569
600030000.0 3.5033629053642165e-05 0.0004229349035625748
615029500.0 -0.0007184280654198511 0.0006042202504194502
630029000.0 -0.0005087528779040673 -0.0007107119679571662
645028500.0 -0.0012605688327617898 0.010734034963393847
660028000.0 0.0003299675801679315 -0.0017443954654753025
675027500.0 0.008308343718991256 0.007421545281915977
690027000.0 -0.00016886308341051339 -0.0010314604232255899
705026500.0 0.004195120022785668 -0.006913042982471953
720026000.0 -0.00048412533096373647 0.0012758029468877767
735025500.0 0.00011052894025762618 -0.00012018814318252987
750025000.0 -0.0005228079564709286 -0.0010776839514455194
765024500.0 0.002989738215619848 -0.0009006545866958205
780024000.0 0.0011352988757497122 -0.004558644785379344
795023500.0 0.0008055193480236965 0.0014815722310178771
810023000.0 -0.002391433648074305 0.0007861739070160491
825022500.0 -0.0027145428795572416 0.001986813506803724
840022000.0 -0.005304490214990605 0.003291421874223913
855021500.0 -0.009920578633208449 -0.0057933574496843365
870021000.0 -0.0019454978449216103 -0.005635122985907623
885020500.0 -0.0014010362536036236 0.0007834992233870349
900020000.0 -0.0012504046408937832 0.0005545124940626854
915019500.0 -0.0038737750826392256 -0.013997947080892631
930019000.0 -0.007164601843084322 -0.0019945149818840525
945018500.0 -0.006186739630975827 0.017786804164074993
960018000.0 -0.005146693773511289 0.005321168244807746
975017500.0 0.007724660805994706 -0.002758079029930558
990017000.0 0.008817586367703677 0.0012755306957775163
1005016500.0 -0.0021130088734263976 0.0035268323412717914
1020016000.0 -0.0053021735078972445 -0.013968029814549442
1035015500.0 -0.00819743551321948 0.0015677967760883299
1050015000.0 -0.004004604327803692 -0.00709556920618793
1065014500.0 -0.0015660681518144578 -0.009908066419375257
1080014000.0 -0.054396049030460795 0.0016893373526745443
1095013500.0 0.10101024710421196 -0.07722603344200545
1110013000.0 0.0035569979726917727 0.007462821504311481
1125012500.0 0.004862811506271443 -0.006630093029454162
1140012000.0 0.00623337947514179 0.010610097740810892
1155011500.0 0.008020060877462978 0.012521931827537823
1170011000.0 -0.001577197136812529 -0.009507365940090367
1185010500.0 0.10826370461997178 -0.02100443168097083
1200010000.0 -0.04655658555465872 0.0670830817602536
1215009500.0 0.019538215662836568 0.008329895975971387
1230009000.0 -0.014037160336152037 0.0007754385507899509
1245008500.0 -0.01429015668739989 0.021363378509916608
1260008000.0 -0.00753414019443179 -0.018775632534059707
1275007500.0 -0.029901992166069057 0.02201776902774817
1290007000.0 0.006302638919684875 -0.011963302627436223
1305006500.0 0.0015167849229464608 0.012794288509223593
1320006000.0 -0.031568322655097986 0.02373299456093765
1335005500.0 0.00185086308355827 -0.034839069304099135
1350005000.0 0.0016760161169138198 -0.005920477941679415
1365004500.0 -0.007158277065614022 0.02680510838270861
1380004000.0 -0.023444071926649365 1.3549792050233675
1395003500.0 -0.02042506810696334 -0.0017133305516501467
1410003000.0 -0.03261708561932032 0.07673239314487594
1425002500.0 0.027647250415271763 0.036349217065148466
1440002000.0 0.0098618882621428 0.0038034602013538384
1455001500.0 -0.09713946242826171 -0.10146215178275596
1470001000.0 -0.02238477481634492 0.01198075212002149
1485000500.0 0.09120969557943574 -0.004870450616185375
1500000000.0 -0.02225519449476135 -0.0046672966852052584
