! Created with skrf 1.8.0 (http://scikit-rf.org).
# Hz S RI R 50.0 
!freq ReS11 ImS11
50000.0 -0.47972440702301555 0.052053680563732316
15049500.0 0.6812424436882543 -1.6709398355974336
30049000.0 -2.011346871723897 2.2327934974760217
45048500.0 3.5389379031160546 -2.9756263153718705
60048000.0 -0.749362651471136 -2.2762933702483155
75047500.0 -0.6725780675363083 -2.3510443289162364
90047000.0 -1.0492032213826759 0.6162357251758982
105046500.0 -0.29409815792681093 -0.33896738832983264
120046000.0 -1.370849366435714 0.0867308695215451
135045500.0 -1.9264187059376228 -0.3954226017230438
150045000.0 0.7784205409560295 -0.6844930473747083
165044500.0 1.9813757279884463 -1.4137516242578427
180044000.0 0.6409754250119216 -0.18612192092300062
195043500.0 1.6263101783684155 0.4937311570529913
210043000.0 -0.4388962082775953 -0.31481339407151365
225042500.0 -0.687068690269733 -0.5254553744009907
240042000.0 -1.5242821555108605 0.9959498881338166
255041500.0 -0.4965504256550219 0.6134367192254141
270041000.0 -1.2581784773920215 -0.0904782606945384
285040500.0 3.9483602429089673 -1.9694165025084145
300040000.0 0.2500567937848527 -0.18109872936843624
315039500.0 2.4004918008546876 0.5863738650024354
330039000.0 -0.6394784148109162 -0.27347205101708927
345038500.0 1.9415342430131295 -1.7693619444876496
360038000.0 -5.14677173570729 0.2921187121700469
375037500.0 5.135156540748479 4.375124864134131
390037000.0 -0.6781863411523977 -1.1344253742913386
405036500.0 4.675152606163286 0.45041117839614403
420036000.0 1.4710937398351112 -0.8147634105654202
435035500.0 -1.7569375604790498 -0.15391722642546413
450035000.0 -1.0931636501929858 1.0990820573997961
465034500.0 -0.7999860468814223 1.0527570994214552
480034000.0 0.6199105668499568 1.4163872152060133
495033500.0 0.9841965422673803 0.1490587075309247
510033000.0 3.4951754257483763 1.7074558378510027
525032500.0 -0.5193837894863639 0.5194766268365212
540032000.0 -0.43329159156396446 5.268080055937737
555031500.0 -0.3675991825568527 -1.1322760497945896
570031000.0 -5.093763265604801 -2.3964792284445173
585030500.0 -1.733356810505987 0.5714130925651616
600030000.0 0.5660299005224728 0.019059083076415986
615029500.0 -0.7625159075209033 -1.2418722450177726
630029000.0 1.1070141357985999 1.4228667042371808
645028500.0 -5.386741945755599 1.7494064753286511
660028000.0 -1.4010012708404227 -1.040957665555667
675027500.0 5.455785011075948 -3.533833357095759
690027000.0 -1.728770653878966 -0.8219734092912038
705026500.0 2.395964747469781 -3.582575858649169
720026000.0 -0.924626968427445 -0.3527417213188283
735025500.0 0.6318701662279117 -0.26059386910327925
750025000.0 -0.2475672600856272 0.11034241866183542
765024500.0 -1.816756184028386 -2.3283033049794075
780024000.0 -1.5923875348543024 0.3111386191725792
795023500.0 0.7813224508508922 1.046636183775716
810023000.0 2.283628316322192 0.016374292729836648
825022500.0 1.9192784796190585 -1.2547281022835943
840022000.0 0.42872129946805454 -2.570124203224778
855021500.0 4.436886082743636 -2.4150545512127795
870021000.0 3.0534946349916092 10.893825810355283
885020500.0 0.23425537483561484 0.9726450090056307
900020000.0 -1.0618758598196383 -0.16028339992723645
915019500.0 0.8179303130171152 -1.994565952676784
930019000.0 -0.11926172091125915 0.9348274061207836
945018500.0 2.5429385448422726 -3.6273395845257665
960018000.0 -1.8738170413546529 -0.27961573768276354
975017500.0 0.6606831650060485 0.9555261553109817
990017000.0 0.3485796877245216 -1.2823439973950097
1005016500.0 -1.4057119247273175 -0.19476487331370249
1020016000.0 1.9617378472871285 -1.265073849193921
1035015500.0 0.21292827911230003 -0.8025734584717199
1050015000.0 -2.12036526640939 0.09097288425533816
1065014500.0 0.761281116329674 1.1595822414507517
1080014000.0 -2.7982306510981005 3.6113175430749744
1095013500.0 4.584478731387877 -6.102709303414853
1110013000.0 -0.2527332316150806 -0.6898032532817805
1125012500.0 -0.33915272458765594 -0.13482692854912215
1140012000.0 1.1217816533530958 -0.8469869562234851
1155011500.0 1.0072351769886432 -0.8207892100195221
1170011000.0 -0.13351236307008665 -0.12038006125049307
1185010500.0 3.181626361892869 3.408871491279551
1200010000.0 -3.2442549598599317 1.4710116568063105
1215009500.0 1.9863105411147985 -0.3313150803887888
1230009000.0 0.5995791205474598 -0.6012889809969141
1245008500.0 1.2347220002878811 1.3542546850565302
1260008000.0 -0.9026362678770526 -0.9052256847942742
1275007500.0 1.843075687082798 2.680181662402455
1290007000.0 -0.28848216258202775 -0.9932309013847536
1305006500.0 -1.0108034589508454 -0.40202433983400726
1320006000.0 0.33516935091498745 1.4561607332741588
1335005500.0 -1.730606160818493 -0.8107183539980432
1350005000.0 0.5790644035325223 0.05450644950173572
1365004500.0 1.0526748451310992 0.9059140983397026
1380004000.0 9.428511179637054 49.63268866501875
1395003500.0 -1.464278454993807 -0.0158052987717827
1410003000.0 0.2369117260893384 1.6305800054446467
1425002500.0 0.8224907722815804 -0.8685694913531797
1440002000.0 0.478297067535856 -0.6760360529943565
1455001500.0 -0.12746814090684105 -2.1517829877045327
1470001000.0 -0.014237731772658658 0.10440033831763737
1485000500.0 2.527151433392914 0.12067978557676305
1500000000.0 -0.8042156647509918 -0.48759432261101165
