! Created with skrf 1.8.0 (http://scikit-rf.org).
# Hz S RI R 50.0 
!freq ReS11 ImS11
50000.0 7.825573724182144e-05 0.0016307710176019698
15049500.0 -5.333691943419439e-05 0.0005948995157614957
30049000.0 0.00015617700442240167 1.580212874498831e-05
45048500.0 1.2761855676441913e-05 0.00020041551139022662
60048000.0 0.00014414232599851946 -1.96318064532291e-05
75047500.0 8.543280836681075e-05 5.544823861423874e-05
90047000.0 0.0003089299614346324 2.2925314748506624e-05
105046500.0 3.072983323990153e-05 -0.00015486036248421855
120046000.0 -3.199653040676348e-05 0.0001498468303031888
135045500.0 0.002492926500849304 -0.0005399262913964555
150045000.0 0.0004129064600868662 -0.0004276789465143061
165044500.0 0.0001004474387563959 -9.035191407579352e-06
180044000.0 -0.0002622131231827122 -0.0011826058851641418
195043500.0 -0.00015503686405438988 0.00021563313254248438
210043000.0 -0.0002432985632526527 0.000860358982118069
225042500.0 -4.281236163957513e-05 0.00010387091417112119
240042000.0 0.000411557444841063 -0.0011835007059899998
255041500.0 -0.0003798524612836036 -0.0006555577383772038
270041000.0 -0.0002194770372577814 -2.5642759504482912e-05
285040500.0 0.0003610230462991948 4.39216701418066e-05
300040000.0 -0.003929209310754331 -0.0024674328050392855
315039500.0 -0.007741070205414362 0.0026613233442814937
330039000.0 0.00036923328615518153 -0.0008009473653899258
345038500.0 1.1913221262012841e-05 -0.0005695197458392999
360038000.0 0.0003703119114221477 0.0011715344869826134
375037500.0 0.008927356126405453 -0.003933673108659502
390037000.0 -0.02721023800488786 -0.00356122256142609
405036500.0 0.0012279908004277492 -0.0009659742331616307
420036000.0 0.002743177967050148 -0.009300488718156853
435035500.0 -0.0006262560522768019 0.00021945597879039034
450035000.0 -0.007114399194244872 -0.0025227818552008337
465034500.0 -0.003160202923121841 -0.0003372760787443052
480034000.0 0.0012053647354594336 -0.0013324764709000798
495033500.0 -0.0008624322509483918 0.0004927982585571457
510033000.0 -0.000813255730020621 -0.0019354871169589667
525032500.0 -0.0014405726249006 -0.0010425180332215224
540032000.0 -0.005971699700568548 0.0030221275597157433
555031500.0 -5.94354226614174e-05 0.000726868745656707
570031000.0 0.0003806948796034684 0.0009439324568741753
585030500.0 -0.00038116855929797944 0.0037865096225475946
600030000.0 0.0031372530982146677 -0.0069438066117616815
615029500.0 0.030024652706904402 0.08801617193209853
630029000.0 8.764805584363161e-05 -0.0010078901105834406
645028500.0 -0.0003558609251031042 -3.2086532518908226e-05
660028000.0 0.006056787560793302 0.0009790656033195145
675027500.0 0.001955453918693236 0.012544592393483864
690027000.0 -0.0005647126927096327 0.000601200406007892
705026500.0 0.0005794307607375597 0.0005539708492109411
720026000.0 0.005238621465522034 -0.0045942518815955385
735025500.0 -0.0005708535732988001 -0.0003791700014546356
750025000.0 -0.004821409575666424 -0.0019053886522219306
765024500.0 -0.0012524664788284426 0.0037867870080392605
780024000.0 0.019369832660688147 -0.002694578279823884
795023500.0 0.0010119183129433053 0.0004392828868502569
810023000.0 0.0020085046063579707 -0.0006451082330988184
825022500.0 -0.01600255883993168 0.0028017115982234535
840022000.0 0.0007859042077348873 -0.0011288511322745925
855021500.0 -0.0021110971475254317 -0.00021298005656109322
870021000.0 -4.325237225120037e-05 -0.0021506889629636272
885020500.0 0.0010555559440468655 0.002044428133787921
900020000.0 -0.008504238173620815 -0.0021324906895585334
915019500.0 0.0014400609970879083 -0.01021301321242529
930019000.0 0.006195358163571609 -0.0003996613043198232
945018500.0 -0.0033842164064267904 -0.0026308495719777883
960018000.0 -0.018381749803045678 0.014928149265716045
975017500.0 -0.018818227224403464 -0.005588533052370603
990017000.0 -0.0013602049841818285 0.0018990809221159728
1005016500.0 -0.00010273652344694393 0.0010947991462640118
1020016000.0 -0.0027417235466060297 0.012622138334320855
1035015500.0 0.0013733227007967901 -0.00908965354800228
1050015000.0 0.05826937446154189 -0.0845767310632125
1065014500.0 0.08188754475298421 -0.06439414564885358
1080014000.0 0.02299015616232515 0.0047730383552058294
1095013500.0 0.0021820855559544004 0.0001911909565387139
1110013000.0 -0.004293790309725806 0.005612526380276619
1125012500.0 0.005003719964226048 -0.006144839973566447
1140012000.0 -0.046940456168912924 0.023247981630812504
1155011500.0 -0.03815897800206034 0.016704650294926765
1170011000.0 -0.023143421756270308 -0.006854947949171684
1185010500.0 -0.012555099226205414 0.003154972633106129
1200010000.0 0.008146193019391613 0.003673862505973541
1215009500.0 0.018915542155434978 0.0010722537112126868
1230009000.0 0.0007373568208251672 -0.0020712795004756137
1245008500.0 0.006794804757493735 0.011324871877400985
1260008000.0 -0.001250901665306316 -0.0010856586489351268
1275007500.0 -0.013403260173121797 -0.001406828165482286
1290007000.0 0.006777528866737168 0.002357043040092111
1305006500.0 0.001169007208542261 -0.015180455694210046
1320006000.0 -0.01936827782386903 -0.031396132411165754
1335005500.0 0.03256230567351132 -0.002582750587594269
1350005000.0 0.003336516215781619 0.05682397551359567
1365004500.0 -3.0443624776604218e-05 -0.008399765037911181
1380004000.0 0.014235882882153517 -0.03289985487803306
1395003500.0 -0.003691562350659429 -0.00945374253555778
1410003000.0 -0.013527082768956412 0.0033813117787744183
1425002500.0 -0.02464933789767862 -0.008733025031013728
1440002000.0 0.013924629525276485 0.03016193021399536
1455001500.0 0.03370040608176394 -0.03545758649164641
1470001000.0 0.07089401598830826 -0.08960846832898862
1485000500.0 0.003695568679565415 -0.012079212402914305
1500000000.0 -0.06906755033157078 -0.004311270152542349
