! Created with skrf 1.8.0 (http://scikit-rf.org).
# Hz S RI R 50.0 
!freq ReS11 ImS11 ReS21 ImS21 ReS12 ImS12 ReS22 ImS22
50000.0 0.0 0.0 0.16607741336252507 0.010679593860199666 0.0 0.0 0.0 0.0
15049500.0 0.0 0.0 0.2858540602962839 0.07418957972666064 0.0 0.0 0.0 0.0
30049000.0 0.0 0.0 0.27057068090162256 -0.009363885642017209 0.0 0.0 0.0 0.0
45048500.0 0.0 0.0 0.15678059827799978 0.06312875709633492 0.0 0.0 0.0 0.0
60048000.0 0.0 0.0 0.385682725413634 0.3166793881804124 0.0 0.0 0.0 0.0
75047500.0 0.0 0.0 -0.020316973572822795 -0.12568692508686985 0.0 0.0 0.0 0.0
90047000.0 0.0 0.0 0.23758197430751898 0.11746313778615404 0.0 0.0 0.0 0.0
105046500.0 0.0 0.0 0.2953590879103684 -0.07968060286010793 0.0 0.0 0.0 0.0
120046000.0 0.0 0.0 0.05419149341722371 -0.09534124733093723 0.0 0.0 0.0 0.0
135045500.0 0.0 0.0 0.2703929043075624 0.15740603888154994 0.0 0.0 0.0 0.0
150045000.0 0.0 0.0 -0.0003293249604847266 0.11451844500787035 0.0 0.0 0.0 0.0
165044500.0 0.0 0.0 -0.6480374158704169 0.4148007779181132 0.0 0.0 0.0 0.0
180044000.0 0.0 0.0 0.09837858393348324 -0.0445058259973795 0.0 0.0 0.0 0.0
195043500.0 0.0 0.0 -0.09625091535693475 -0.29098289341696093 0.0 0.0 0.0 0.0
210043000.0 0.0 0.0 0.38603723633084114 -0.1153193293793173 0.0 0.0 0.0 0.0
225042500.0 0.0 0.0 0.12819209593609734 -0.018216747756344256 0.0 0.0 0.0 0.0
240042000.0 0.0 0.0 0.10663960023397705 -0.10148355720260363 0.0 0.0 0.0 0.0
255041500.0 0.0 0.0 0.3670532936884342 0.4771745818818943 0.0 0.0 0.0 0.0
270041000.0 0.0 0.0 -0.10075673409402615 0.05564719669264158 0.0 0.0 0.0 0.0
285040500.0 0.0 0.0 -0.12723045395969337 0.02451788948041085 0.0 0.0 0.0 0.0
300040000.0 0.0 0.0 0.20863396991830307 -0.01481033957514122 0.0 0.0 0.0 0.0
315039500.0 0.0 0.0 -0.04690880121122604 0.008934630503195684 0.0 0.0 0.0 0.0
330039000.0 0.0 0.0 0.0782713848730588 0.06677581716117625 0.0 0.0 0.0 0.0
345038500.0 0.0 0.0 -0.12500401687086313 0.22315348704813787 0.0 0.0 0.0 0.0
360038000.0 0.0 0.0 0.24392850809662017 -0.02948350916617997 0.0 0.0 0.0 0.0
375037500.0 0.0 0.0 0.20616686076253957 -0.02254822905697862 0.0 0.0 0.0 0.0
390037000.0 0.0 0.0 0.32221987628540855 -0.23826788532951468 0.0 0.0 0.0 0.0
405036500.0 0.0 0.0 -0.009946015053003455 0.48451195652925705 0.0 0.0 0.0 0.0
420036000.0 0.0 0.0 0.026761812176165033 -0.12872621970477757 0.0 0.0 0.0 0.0
435035500.0 0.0 0.0 0.29005649165709696 -0.08927856135408711 0.0 0.0 0.0 0.0
450035000.0 0.0 0.0 0.2184706050803959 0.2175721403884915 0.0 0.0 0.0 0.0
465034500.0 0.0 0.0 -0.033844000711369754 -0.19759511395135457 0.0 0.0 0.0 0.0
480034000.0 0.0 0.0 0.14036871558441094 0.10754231037693454 0.0 0.0 0.0 0.0
495033500.0 0.0 0.0 -0.005724981098961915 -0.033675311568100504 0.0 0.0 0.0 0.0
510033000.0 0.0 0.0 -0.49036327721906176 -0.7238080337188799 0.0 0.0 0.0 0.0
525032500.0 0.0 0.0 0.399117097454797 -0.008591886473541645 0.0 0.0 0.0 0.0
540032000.0 0.0 0.0 0.16478119610880557 -0.38477736239277754 0.0 0.0 0.0 0.0
555031500.0 0.0 0.0 0.18571624759590413 0.028423504132886225 0.0 0.0 0.0 0.0
570031000.0 0.0 0.0 1.2917821148880393 -1.5220243808017495 0.0 0.0 0.0 0.0
585030500.0 0.0 0.0 0.013439074891001036 0.07797827137413753 0.0 0.0 0.0 0.0
600030000.0 0.0 0.0 0.19470034406630896 -0.08025853385144165 0.0 0.0 0.0 0.0
615029500.0 0.0 0.0 0.13671464726900928 -0.13138789516285831 0.0 0.0 0.0 0.0
630029000.0 0.0 0.0 -0.0015453253143347626 -0.5096663437949287 0.0 0.0 0.0 0.0
645028500.0 0.0 0.0 4.123287819258564 -2.5427956770457976 0.0 0.0 0.0 0.0
660028000.0 0.0 0.0 -0.20377862843681668 -0.03157668686690397 0.0 0.0 0.0 0.0
675027500.0 0.0 0.0 1.1699822280500058 -0.008914115623376087 0.0 0.0 0.0 0.0
690027000.0 0.0 0.0 0.12817497888885002 -0.002697829707121458 0.0 0.0 0.0 0.0
705026500.0 0.0 0.0 0.03601939085241266 -0.5254148373917773 0.0 0.0 0.0 0.0
720026000.0 0.0 0.0 0.21177665748351263 -0.0793721848148077 0.0 0.0 0.0 0.0
735025500.0 0.0 0.0 0.02863608242202041 -0.015226875646995118 0.0 0.0 0.0 0.0
750025000.0 0.0 0.0 0.24352018246849916 -0.1096449799126653 0.0 0.0 0.0 0.0
765024500.0 0.0 0.0 -0.2448799959686253 -0.015498674891983998 0.0 0.0 0.0 0.0
780024000.0 0.0 0.0 0.024607071402733174 0.02211373243474923 0.0 0.0 0.0 0.0
795023500.0 0.0 0.0 0.20957597846031076 0.5253299728222479 0.0 0.0 0.0 0.0
810023000.0 0.0 0.0 -0.11087454136635418 0.0050075350012629295 0.0 0.0 0.0 0.0
825022500.0 0.0 0.0 -0.6165769262875022 0.43558887428257703 0.0 0.0 0.0 0.0
840022000.0 0.0 0.0 -0.4722932272356461 -0.3737127677932163 0.0 0.0 0.0 0.0
855021500.0 0.0 0.0 -0.7207076047627832 -0.44220741128011665 0.0 0.0 0.0 0.0
870021000.0 0.0 0.0 0.06923386858995595 -0.02934158292292076 0.0 0.0 0.0 0.0
885020500.0 0.0 0.0 0.12292056315999184 -0.06816182259123382 0.0 0.0 0.0 0.0
900020000.0 0.0 0.0 0.037177949696809424 -0.052391919835773376 0.0 0.0 0.0 0.0
915019500.0 0.0 0.0 0.403272536045347 0.15320448805084183 0.0 0.0 0.0 0.0
930019000.0 0.0 0.0 0.2569884741757511 -0.055012453560099595 0.0 0.0 0.0 0.0
945018500.0 0.0 0.0 -0.15908172267229925 -0.38051903211756194 0.0 0.0 0.0 0.0
960018000.0 0.0 0.0 0.14821437645453273 -0.0674500376860521 0.0 0.0 0.0 0.0
975017500.0 0.0 0.0 0.17058412394270814 0.1843894866771968 0.0 0.0 0.0 0.0
990017000.0 0.0 0.0 0.13826229123781086 -0.1720267303013756 0.0 0.0 0.0 0.0
1005016500.0 0.0 0.0 -0.12019920863483613 -0.3019750082602488 0.0 0.0 0.0 0.0
1020016000.0 0.0 0.0 -0.25843163132907193 -0.27262737944729915 0.0 0.0 0.0 0.0
1035015500.0 0.0 0.0 0.17727994053640278 0.03897129400920501 0.0 0.0 0.0 0.0
1050015000.0 0.0 0.0 -0.0034258917530924143 -0.2367580982026478 0.0 0.0 0.0 0.0
1065014500.0 0.0 0.0 -0.06384103728628311 -0.11728855557570841 0.0 0.0 0.0 0.0
1080014000.0 0.0 0.0 -0.10645250870089072 -0.5303741310422658 0.0 0.0 0.0 0.0
1095013500.0 0.0 0.0 0.8799525645387918 -0.1438460609133467 0.0 0.0 0.0 0.0
1110013000.0 0.0 0.0 0.11911434388335462 0.015443753682911076 0.0 0.0 0.0 0.0
1125012500.0 0.0 0.0 0.1341853816226271 -0.008470612924626905 0.0 0.0 0.0 0.0
1140012000.0 0.0 0.0 -0.17448253186820845 0.02102113841988862 0.0 0.0 0.0 0.0
1155011500.0 0.0 0.0 0.030701277748278254 0.08872419100135628 0.0 0.0 0.0 0.0
1170011000.0 0.0 0.0 0.2892916592174198 -0.0444299907203953 0.0 0.0 0.0 0.0
1185010500.0 0.0 0.0 0.1907678682332907 0.11461042882399632 0.0 0.0 0.0 0.0
1200010000.0 0.0 0.0 0.6839462259754824 -0.8349732621172133 0.0 0.0 0.0 0.0
1215009500.0 0.0 0.0 -0.07130836835309544 0.09122294869596077 0.0 0.0 0.0 0.0
1230009000.0 0.0 0.0 0.10907488745971908 -0.034618388219718306 0.0 0.0 0.0 0.0
1245008500.0 0.0 0.0 -0.30179389685013114 -0.32659530545796306 0.0 0.0 0.0 0.0
1260008000.0 0.0 0.0 0.16653563563594606 -0.2157110524131999 0.0 0.0 0.0 0.0
1275007500.0 0.0 0.0 0.011612077430394765 0.29837935949401695 0.0 0.0 0.0 0.0
1290007000.0 0.0 0.0 0.21168753463648757 -0.013824821063116772 0.0 0.0 0.0 0.0
1305006500.0 0.0 0.0 -0.20532599177717464 0.5062527642369685 0.0 0.0 0.0 0.0
1320006000.0 0.0 0.0 0.26870627719724866 -0.021067836265884703 0.0 0.0 0.0 0.0
1335005500.0 0.0 0.0 0.0710164045082048 -0.22076637395710041 0.0 0.0 0.0 0.0
1350005000.0 0.0 0.0 -0.018191031353137547 -0.089858381795299 0.0 0.0 0.0 0.0
1365004500.0 0.0 0.0 -0.03336745129474263 -0.14153167835548353 0.0 0.0 0.0 0.0
1380004000.0 0.0 0.0 1.5672042741586012 -0.8113006876470984 0.0 0.0 0.0 0.0
1395003500.0 0.0 0.0 -0.09697432517159435 0.13968870144459788 0.0 0.0 0.0 0.0
1410003000.0 0.0 0.0 0.262674505670419 -0.3600769622092142 0.0 0.0 0.0 0.0
1425002500.0 0.0 0.0 0.7843572898296087 -0.5475636180029047 0.0 0.0 0.0 0.0
1440002000.0 0.0 0.0 -0.10268436042502663 0.08460877208854549 0.0 0.0 0.0 0.0
1455001500.0 0.0 0.0 -0.1170586860334625 -0.6665236701207269 0.0 0.0 0.0 0.0
1470001000.0 0.0 0.0 0.3312605423888693 -0.1489596161887099 0.0 0.0 0.0 0.0
1485000500.0 0.0 0.0 0.22814751430278987 0.15797003192052375 0.0 0.0 0.0 0.0
1500000000.0 0.0 0.0 -0.24870854068779732 -0.5237811681379871 0.0 0.0 0.0 0.0
