! Created with skrf 1.8.0 (http://scikit-rf.org).
# Hz S RI R 50.0 
!freq ReS11 ImS11 ReS21 ImS21 ReS12 ImS12 ReS22 ImS22
50000.0 0.0 0.0 -0.00014029880440775215 -0.0001198210038395878 0.0 0.0 0.0 0.0
15049500.0 0.0 0.0 1.6306116378465095e-05 1.8560448134134044e-05 0.0 0.0 0.0 0.0
30049000.0 0.0 0.0 -1.072830795540125e-05 -1.5938989616522483e-05 0.0 0.0 0.0 0.0
45048500.0 0.0 0.0 -3.7356863126469744e-05 -2.1287025831588087e-05 0.0 0.0 0.0 0.0
60048000.0 0.0 0.0 4.9822409811888294e-05 -9.238145378140053e-05 0.0 0.0 0.0 0.0
75047500.0 0.0 0.0 -8.938472732578765e-06 -5.6409789183345336e-05 0.0 0.0 0.0 0.0
90047000.0 0.0 0.0 -6.376346987741614e-05 -9.443163558119712e-05 0.0 0.0 0.0 0.0
105046500.0 0.0 0.0 -3.677193202326775e-05 -9.157892903789429e-06 0.0 0.0 0.0 0.0
120046000.0 0.0 0.0 -3.169920937546151e-05 6.941131961933795e-06 0.0 0.0 0.0 0.0
135045500.0 0.0 0.0 -2.6007255023308085e-05 -2.2144571558267307e-06 0.0 0.0 0.0 0.0
150045000.0 0.0 0.0 -3.937911252616841e-06 -7.52719545494227e-05 0.0 0.0 0.0 0.0
165044500.0 0.0 0.0 -0.00013187338315887593 3.013536086756293e-05 0.0 0.0 0.0 0.0
180044000.0 0.0 0.0 -0.00011508386922106913 -1.3396721674561224e-05 0.0 0.0 0.0 0.0
195043500.0 0.0 0.0 2.0456443558366196e-05 -6.656701559018591e-05 0.0 0.0 0.0 0.0
210043000.0 0.0 0.0 -1.39423138829316e-06 4.469121151195144e-05 0.0 0.0 0.0 0.0
225042500.0 0.0 0.0 -2.472676628098489e-06 -1.3661558610894371e-05 0.0 0.0 0.0 0.0
240042000.0 0.0 0.0 -0.0003451862529047408 0.00017087676738976212 0.0 0.0 0.0 0.0
255041500.0 0.0 0.0 8.330898622373078e-05 2.9639420561795386e-05 0.0 0.0 0.0 0.0
270041000.0 0.0 0.0 -5.336272218111361e-05 -1.234569315006274e-05 0.0 0.0 0.0 0.0
285040500.0 0.0 0.0 1.636196101289878e-05 4.819054855123279e-05 0.0 0.0 0.0 0.0
300040000.0 0.0 0.0 -0.00053417842073852 -0.00038945547298648627 0.0 0.0 0.0 0.0
315039500.0 0.0 0.0 0.00023794050253653822 6.898977944577497e-06 0.0 0.0 0.0 0.0
330039000.0 0.0 0.0 -1.757109231442667e-05 -5.556887823563677e-05 0.0 0.0 0.0 0.0
345038500.0 0.0 0.0 0.0002819566993435121 -8.816713462268248e-05 0.0 0.0 0.0 0.0
360038000.0 0.0 0.0 -2.0363375104265274e-05 0.00015892657621610794 0.0 0.0 0.0 0.0
375037500.0 0.0 0.0 0.0005100770601217639 0.0003382769499631485 0.0 0.0 0.0 0.0
390037000.0 0.0 0.0 0.0005249839156798031 -0.0001382139509391205 0.0 0.0 0.0 0.0
405036500.0 0.0 0.0 -0.00010682993216876903 0.0001429363065947319 0.0 0.0 0.0 0.0
420036000.0 0.0 0.0 -0.00018113730289772074 0.0009331211522652694 0.0 0.0 0.0 0.0
435035500.0 0.0 0.0 5.283636600460349e-05 -0.00010852129611345216 0.0 0.0 0.0 0.0
450035000.0 0.0 0.0 -8.70219482477679e-05 7.556943103298522e-05 0.0 0.0 0.0 0.0
465034500.0 0.0 0.0 0.00044180125225519456 -0.0007890612259265201 0.0 0.0 0.0 0.0
480034000.0 0.0 0.0 0.0003218521761767164 0.00028193248550892596 0.0 0.0 0.0 0.0
495033500.0 0.0 0.0 -2.461041994701057e-05 -9.880900014712651e-05 0.0 0.0 0.0 0.0
510033000.0 0.0 0.0 0.00018317563304472585 0.00011214964979897995 0.0 0.0 0.0 0.0
525032500.0 0.0 0.0 -0.001240116398851672 -0.0009279928306955386 0.0 0.0 0.0 0.0
540032000.0 0.0 0.0 -4.316271584253495e-05 -6.872835904502563e-05 0.0 0.0 0.0 0.0
555031500.0 0.0 0.0 0.00011620985822150462 -0.00025926316416889216 0.0 0.0 0.0 0.0
570031000.0 0.0 0.0 0.00034520942548904864 -0.00012686172383711276 0.0 0.0 0.0 0.0
585030500.0 0.0 0.0 7.752635936488114e-05 -0.00025669637192203944 0.0 0.0 0.0 0.0
600030000.0 0.0 0.0 -0.0005339194762021745 0.0005089153305353044 0.0 0.0 0.0 0.0
615029500.0 0.0 0.0 -0.00016924725187836254 -0.0008380455584965418 0.0 0.0 0.0 0.0
630029000.0 0.0 0.0 -0.0002502896432537019 -1.9732016438684563e-06 0.0 0.0 0.0 0.0
645028500.0 0.0 0.0 1.9816722534425202e-05 -0.00017801045433495658 0.0 0.0 0.0 0.0
660028000.0 0.0 0.0 -0.0002263852606633726 -1.2162409137640196e-05 0.0 0.0 0.0 0.0
675027500.0 0.0 0.0 1.3951172836575717e-05 -0.0012721033153641958 0.0 0.0 0.0 0.0
690027000.0 0.0 0.0 0.00033003779672163727 -0.0018923422747741563 0.0 0.0 0.0 0.0
705026500.0 0.0 0.0 8.158893438747637e-05 -6.771536864202534e-05 0.0 0.0 0.0 0.0
720026000.0 0.0 0.0 8.258019159149004e-05 2.293057791801787e-05 0.0 0.0 0.0 0.0
735025500.0 0.0 0.0 0.00042307704762791154 -0.0003875736533630426 0.0 0.0 0.0 0.0
750025000.0 0.0 0.0 -0.0007925036707005514 -0.00031567850994970194 0.0 0.0 0.0 0.0
765024500.0 0.0 0.0 -0.000496519381328905 -0.0007347235205455554 0.0 0.0 0.0 0.0
780024000.0 0.0 0.0 0.0012181648526544797 -0.0013357423020331225 0.0 0.0 0.0 0.0
795023500.0 0.0 0.0 0.00014368075729740472 -0.0001452763809174507 0.0 0.0 0.0 0.0
810023000.0 0.0 0.0 0.0002944066454585337 -0.00029135794437715586 0.0 0.0 0.0 0.0
825022500.0 0.0 0.0 0.00034973248838021773 -0.0027255245651367937 0.0 0.0 0.0 0.0
840022000.0 0.0 0.0 0.00013316747651732035 -0.00041267277723967935 0.0 0.0 0.0 0.0
855021500.0 0.0 0.0 -0.0004258083213191974 -0.00017403374261275653 0.0 0.0 0.0 0.0
870021000.0 0.0 0.0 -0.00034844943133525356 0.00018384588203129387 0.0 0.0 0.0 0.0
885020500.0 0.0 0.0 -0.0008735160640372808 -0.0008258370919136223 0.0 0.0 0.0 0.0
900020000.0 0.0 0.0 -0.0014706998070342623 0.004296871544787813 0.0 0.0 0.0 0.0
915019500.0 0.0 0.0 0.002014074244679431 0.0033542897448864384 0.0 0.0 0.0 0.0
930019000.0 0.0 0.0 0.001464756354639637 -0.00016471203556762197 0.0 0.0 0.0 0.0
945018500.0 0.0 0.0 0.000990235561676905 -0.0014098725815639148 0.0 0.0 0.0 0.0
960018000.0 0.0 0.0 -0.032674369708294654 -0.0038131651918832587 0.0 0.0 0.0 0.0
975017500.0 0.0 0.0 -0.00047507272316323664 -0.002809394057813379 0.0 0.0 0.0 0.0
990017000.0 0.0 0.0 -0.0004840614728175943 0.0022724359225857298 0.0 0.0 0.0 0.0
1005016500.0 0.0 0.0 0.0013441294730963083 -0.00041586977350892187 0.0 0.0 0.0 0.0
1020016000.0 0.0 0.0 0.00032368446473743964 -0.00039318728077900213 0.0 0.0 0.0 0.0
1035015500.0 0.0 0.0 -0.0011162100317267313 0.00035673924951691593 0.0 0.0 0.0 0.0
1050015000.0 0.0 0.0 -0.002814813704337072 -0.003996202523223256 0.0 0.0 0.0 0.0
1065014500.0 0.0 0.0 -0.00323614464965954 -0.0019558077096441975 0.0 0.0 0.0 0.0
1080014000.0 0.0 0.0 0.00184538277436245 -0.003903353928360087 0.0 0.0 0.0 0.0
1095013500.0 0.0 0.0 0.0027531262868137336 -0.003546259816591784 0.0 0.0 0.0 0.0
1110013000.0 0.0 0.0 -0.001851678128773776 0.0014146462764485612 0.0 0.0 0.0 0.0
1125012500.0 0.0 0.0 -0.002096205983565979 -0.000846734462589981 0.0 0.0 0.0 0.0
1140012000.0 0.0 0.0 -0.0005003402623018886 -0.002815968008130194 0.0 0.0 0.0 0.0
1155011500.0 0.0 0.0 0.0011703286852102564 -0.0025143775760817165 0.0 0.0 0.0 0.0
1170011000.0 0.0 0.0 0.002450305637788553 -0.0011870019549914258 0.0 0.0 0.0 0.0
1185010500.0 0.0 0.0 0.004282742323495611 -0.002963094046920996 0.0 0.0 0.0 0.0
1200010000.0 0.0 0.0 0.0016693782613499528 -0.0015792935636113764 0.0 0.0 0.0 0.0
1215009500.0 0.0 0.0 0.010056632582244499 0.0010089060566843531 0.0 0.0 0.0 0.0
1230009000.0 0.0 0.0 0.00042357603852715727 -0.001489527805168151 0.0 0.0 0.0 0.0
1245008500.0 0.0 0.0 0.004917260325953113 -5.4392797463678714e-05 0.0 0.0 0.0 0.0
1260008000.0 0.0 0.0 0.00026754559104077877 -0.0005195312359372088 0.0 0.0 0.0 0.0
1275007500.0 0.0 0.0 -0.0011179030874779714 0.003220182972931551 0.0 0.0 0.0 0.0
1290007000.0 0.0 0.0 -0.001575008466428919 0.00396691935232391 0.0 0.0 0.0 0.0
1305006500.0 0.0 0.0 0.0026815414499751686 -0.00073262100967335 0.0 0.0 0.0 0.0
1320006000.0 0.0 0.0 0.0018347499249040027 0.0005148792901674058 0.0 0.0 0.0 0.0
1335005500.0 0.0 0.0 0.0017380589259625486 0.005243852389218158 0.0 0.0 0.0 0.0
1350005000.0 0.0 0.0 0.003018742722044924 -0.001249226088664137 0.0 0.0 0.0 0.0
1365004500.0 0.0 0.0 0.003553175399058831 0.005253044544160801 0.0 0.0 0.0 0.0
1380004000.0 0.0 0.0 -0.0035514971938718316 0.0023551763961047857 0.0 0.0 0.0 0.0
1395003500.0 0.0 0.0 -0.0034636647514668015 -0.0008628244639680799 0.0 0.0 0.0 0.0
1410003000.0 0.0 0.0 -0.005002197002331162 -0.002897817862506002 0.0 0.0 0.0 0.0
1425002500.0 0.0 0.0 0.003859504314958371 0.0017778062039709775 0.0 0.0 0.0 0.0
1440002000.0 0.0 0.0 -0.012938184088987779 0.0011912147296415205 0.0 0.0 0.0 0.0
1455001500.0 0.0 0.0 -0.009238219543082321 0.0035415683079743784 0.0 0.0 0.0 0.0
1470001000.0 0.0 0.0 -0.008980588470736763 0.01574264330884599 0.0 0.0 0.0 0.0
1485000500.0 0.0 0.0 0.0029744559568340156 -0.0006889032003610723 0.0 0.0 0.0 0.0
1500000000.0 0.0 0.0 0.000927483396110593 0.006826460926270527 0.0 0.0 0.0 0.0
