! Created with skrf 1.8.0 (http://scikit-rf.org).
# Hz S RI R 50.0 
!freq ReS11 ImS11 ReS21 ImS21 ReS12 ImS12 ReS22 ImS22
50000.0 0.0 0.0 -9.4e-06 -5.198e-06 0.0 0.0 0.0 0.0
15049500.0 0.0 0.0 -3.5113e-05 -1.1204e-05 0.0 0.0 0.0 0.0
30049000.0 0.0 0.0 -9.799e-06 -3.4611e-05 0.0 0.0 0.0 0.0
45048500.0 0.0 0.0 -2.774e-05 -2.5315e-05 0.0 0.0 0.0 0.0
60048000.0 0.0 0.0 -4.5533e-05 9.948e-06 0.0 0.0 0.0 0.0
75047500.0 0.0 0.0 -2.6515e-05 -9.842e-06 0.0 0.0 0.0 0.0
90047000.0 0.0 0.0 -3.2688e-05 -1.7056e-05 0.0 0.0 0.0 0.0
105046500.0 0.0 0.0 -1.2258e-05 -1.3988e-05 0.0 0.0 0.0 0.0
120046000.0 0.0 0.0 -2.3533e-05 -8.519e-06 0.0 0.0 0.0 0.0
135045500.0 0.0 0.0 -2.4705e-05 3.724e-06 0.0 0.0 0.0 0.0
150045000.0 0.0 0.0 -3.9678e-05 5.0467e-05 0.0 0.0 0.0 0.0
165044500.0 0.0 0.0 -2.3397e-05 6.7986e-05 0.0 0.0 0.0 0.0
180044000.0 0.0 0.0 -2.115e-06 3.3205e-05 0.0 0.0 0.0 0.0
195043500.0 0.0 0.0 1.718e-06 3.1381e-05 0.0 0.0 0.0 0.0
210043000.0 0.0 0.0 -1.2458e-05 5.2472e-05 0.0 0.0 0.0 0.0
225042500.0 0.0 0.0 -8.889e-06 4.0721e-05 0.0 0.0 0.0 0.0
240042000.0 0.0 0.0 6.822e-06 4.9271e-05 0.0 0.0 0.0 0.0
255041500.0 0.0 0.0 8.102e-06 4.2108e-05 0.0 0.0 0.0 0.0
270041000.0 0.0 0.0 3.3116e-05 7.3721e-05 0.0 0.0 0.0 0.0
285040500.0 0.0 0.0 2.8479e-05 1.3241e-05 0.0 0.0 0.0 0.0
300040000.0 0.0 0.0 0.000203395 -0.00014323 0.0 0.0 0.0 0.0
315039500.0 0.0 0.0 6.524e-05 0.000221143 0.0 0.0 0.0 0.0
330039000.0 0.0 0.0 -0.000305259 -0.000162814 0.0 0.0 0.0 0.0
345038500.0 0.0 0.0 3.343e-05 -0.000105224 0.0 0.0 0.0 0.0
360038000.0 0.0 0.0 0.00019296 -1.208e-06 0.0 0.0 0.0 0.0
375037500.0 0.0 0.0 0.000389143 0.000316618 0.0 0.0 0.0 0.0
390037000.0 0.0 0.0 0.000185523 0.000138478 0.0 0.0 0.0 0.0
405036500.0 0.0 0.0 -4.429e-06 0.000259638 0.0 0.0 0.0 0.0
420036000.0 0.0 0.0 -4.6852e-05 -5.4539e-05 0.0 0.0 0.0 0.0
435035500.0 0.0 0.0 0.000133907 1.6089e-05 0.0 0.0 0.0 0.0
450035000.0 0.0 0.0 0.000259527 8.6376e-05 0.0 0.0 0.0 0.0
465034500.0 0.0 0.0 9.9246e-05 4.6415e-05 0.0 0.0 0.0 0.0
480034000.0 0.0 0.0 -4.6053e-05 -0.000163082 0.0 0.0 0.0 0.0
495033500.0 0.0 0.0 -0.000127136 -0.000381107 0.0 0.0 0.0 0.0
510033000.0 0.0 0.0 0.00021 -0.000267736 0.0 0.0 0.0 0.0
525032500.0 0.0 0.0 0.000268086 -0.000184735 0.0 0.0 0.0 0.0
540032000.0 0.0 0.0 0.00030845 -0.000351847 0.0 0.0 0.0 0.0
555031500.0 0.0 0.0 0.0002201 -0.000538007 0.0 0.0 0.0 0.0
570031000.0 0.0 0.0 0.000222552 -8.5567e-05 0.0 0.0 0.0 0.0
585030500.0 0.0 0.0 0.00087393 -0.000105546 0.0 0.0 0.0 0.0
600030000.0 0.0 0.0 0.000791177 -0.000561081 0.0 0.0 0.0 0.0
615029500.0 0.0 0.0 0.000113071 -0.000145267 0.0 0.0 0.0 0.0
630029000.0 0.0 0.0 0.000105383 -0.000305653 0.0 0.0 0.0 0.0
645028500.0 0.0 0.0 4.2738e-05 -0.000530501 0.0 0.0 0.0 0.0
660028000.0 0.0 0.0 0.000142428 -5.4503e-05 0.0 0.0 0.0 0.0
675027500.0 0.0 0.0 -0.000164996 -0.000620782 0.0 0.0 0.0 0.0
690027000.0 0.0 0.0 -0.000152419 -0.000129735 0.0 0.0 0.0 0.0
705026500.0 0.0 0.0 -0.000292023 -8.5173e-05 0.0 0.0 0.0 0.0
720026000.0 0.0 0.0 0.000130324 -0.00055081 0.0 0.0 0.0 0.0
735025500.0 0.0 0.0 -2.2399e-05 -0.000280321 0.0 0.0 0.0 0.0
750025000.0 0.0 0.0 -0.00029041 -0.000307301 0.0 0.0 0.0 0.0
765024500.0 0.0 0.0 -6.9153e-05 -0.000291572 0.0 0.0 0.0 0.0
780024000.0 0.0 0.0 -0.000714594 -0.000354561 0.0 0.0 0.0 0.0
795023500.0 0.0 0.0 -0.000137725 -0.000118028 0.0 0.0 0.0 0.0
810023000.0 0.0 0.0 0.000140057 -0.000474575 0.0 0.0 0.0 0.0
825022500.0 0.0 0.0 -0.000156845 -0.000306145 0.0 0.0 0.0 0.0
840022000.0 0.0 0.0 0.000517832 -0.000839616 0.0 0.0 0.0 0.0
855021500.0 0.0 0.0 0.000122333 -0.000484197 0.0 0.0 0.0 0.0
870021000.0 0.0 0.0 0.000354919 -0.00017932 0.0 0.0 0.0 0.0
885020500.0 0.0 0.0 -4.2349e-05 -0.000457359 0.0 0.0 0.0 0.0
900020000.0 0.0 0.0 -0.001273239 0.000270696 0.0 0.0 0.0 0.0
915019500.0 0.0 0.0 0.001217433 -0.002002914 0.0 0.0 0.0 0.0
930019000.0 0.0 0.0 0.000842838 0.002055331 0.0 0.0 0.0 0.0
945018500.0 0.0 0.0 -0.000659379 -0.000929228 0.0 0.0 0.0 0.0
960018000.0 0.0 0.0 0.000854517 0.00024385 0.0 0.0 0.0 0.0
975017500.0 0.0 0.0 0.001015212 -0.001006857 0.0 0.0 0.0 0.0
990017000.0 0.0 0.0 0.000362714 -0.000891474 0.0 0.0 0.0 0.0
1005016500.0 0.0 0.0 -0.000148404 0.000368856 0.0 0.0 0.0 0.0
1020016000.0 0.0 0.0 0.001429072 0.001723082 0.0 0.0 0.0 0.0
1035015500.0 0.0 0.0 8.701e-05 -0.001381548 0.0 0.0 0.0 0.0
1050015000.0 0.0 0.0 -0.000115031 -0.000464746 0.0 0.0 0.0 0.0
1065014500.0 0.0 0.0 0.002317236 -0.003948879 0.0 0.0 0.0 0.0
1080014000.0 0.0 0.0 -0.001056865 -0.001872101 0.0 0.0 0.0 0.0
1095013500.0 0.0 0.0 0.000866231 -0.000459121 0.0 0.0 0.0 0.0
1110013000.0 0.0 0.0 -0.002365111 -0.005188861 0.0 0.0 0.0 0.0
1125012500.0 0.0 0.0 -0.000733573 -0.001117953 0.0 0.0 0.0 0.0
1140012000.0 0.0 0.0 0.00165376 -7.7612e-05 0.0 0.0 0.0 0.0
1155011500.0 0.0 0.0 -0.001261169 -0.001370885 0.0 0.0 0.0 0.0
1170011000.0 0.0 0.0 -0.002825969 0.000474129 0.0 0.0 0.0 0.0
1185010500.0 0.0 0.0 -0.005576874 0.001335823 0.0 0.0 0.0 0.0
1200010000.0 0.0 0.0 -0.001342704 -0.000858186 0.0 0.0 0.0 0.0
1215009500.0 0.0 0.0 0.000346626 0.001423333 0.0 0.0 0.0 0.0
1230009000.0 0.0 0.0 0.000464304 0.003506437 0.0 0.0 0.0 0.0
1245008500.0 0.0 0.0 0.002511963 0.001995644 0.0 0.0 0.0 0.0
1260008000.0 0.0 0.0 -0.000173619 -0.002779811 0.0 0.0 0.0 0.0
1275007500.0 0.0 0.0 0.002390333 -0.001839461 0.0 0.0 0.0 0.0
1290007000.0 0.0 0.0 4.4147e-05 -0.000585973 0.0 0.0 0.0 0.0
1305006500.0 0.0 0.0 0.000599866 -0.002031863 0.0 0.0 0.0 0.0
1320006000.0 0.0 0.0 0.006039691 -0.00589354 0.0 0.0 0.0 0.0
1335005500.0 0.0 0.0 -0.003441841 0.002161272 0.0 0.0 0.0 0.0
1350005000.0 0.0 0.0 0.004545841 0.000966311 0.0 0.0 0.0 0.0
1365004500.0 0.0 0.0 0.004783182 0.000473152 0.0 0.0 0.0 0.0
1380004000.0 0.0 0.0 0.003044142 0.005404791 0.0 0.0 0.0 0.0
1395003500.0 0.0 0.0 0.004610178 0.009014802 0.0 0.0 0.0 0.0
1410003000.0 0.0 0.0 -0.003201692 0.005429157 0.0 0.0 0.0 0.0
1425002500.0 0.0 0.0 0.01292521 -0.003142246 0.0 0.0 0.0 0.0
1440002000.0 0.0 0.0 -0.003745721 0.00072049 0.0 0.0 0.0 0.0
1455001500.0 0.0 0.0 0.008148531 0.00351639 0.0 0.0 0.0 0.0
1470001000.0 0.0 0.0 0.005023644 0.001685849 0.0 0.0 0.0 0.0
1485000500.0 0.0 0.0 0.014467972 0.004210806 0.0 0.0 0.0 0.0
1500000000.0 0.0 0.0 0.020368508 0.014142112 0.0 0.0 0.0 0.0
