! Created with skrf 1.8.0 (http://scikit-rf.org).
# Hz S RI R 50.0 
!freq ReS11 ImS11
0.0 -2.9670358992446437 2.38907221729828e-16
300000.0 -2.9717624764229638 -0.054107284398494195
600000.0 -2.9706679860476872 -0.0554384882101448
900000.0 -2.9690254795984345 -0.05671554010350349
1200000.0 -2.972016806372945 -0.05288253954245093
1500000.0 -2.976071196054121 -0.04641481589969224
1800000.0 -2.9768721206537165 -0.04148084857968014
2100000.0 -2.977322278251165 -0.0365813372414892
2400000.0 -2.9775962997703203 -0.03211369903963798
2700000.0 -2.9738098086176263 -0.03199542679486746
3000000.0 -2.971623604861929 -0.03191190651353521
3300000.0 -2.9723659543727243 -0.03019666344339298
3600000.0 -2.9731818904059426 -0.028469908402320176
3900000.0 -2.9739502696323954 -0.026856419408254947
4200000.0 -2.9734876892215616 -0.026435554408375382
4500000.0 -2.973138245836287 -0.026053167061489947
4800000.0 -2.973390125901263 -0.025148016795676898
5100000.0 -2.9736620232232895 -0.024236619441262264
5400000.0 -2.9739181334398257 -0.02337348036835446
5700000.0 -2.973681493624572 -0.02301604646877348
6000000.0 -2.973524315873509 -0.022694931582765837
6300000.0 -2.973650241621469 -0.022121785921959985
6600000.0 -2.97378435484778 -0.021544523527343713
6900000.0 -2.9739108184490797 -0.020993159143114896
7200000.0 -2.9737814302095607 -0.020746055675954056
7500000.0 -2.973701163672544 -0.020465498319395578
7800000.0 -2.9737772875104347 -0.02006527642738804
8100000.0 -2.9738567277962002 -0.01969697027894746
8400000.0 -2.9739283873692437 -0.01930937104230099
8700000.0 -2.9738423278789927 -0.01908557884110683
9000000.0 -2.973782243496878 -0.018897329589571785
9300000.0 -2.9738305851139413 -0.018599914121717565
9600000.0 -2.9739047258298816 -0.01830097887941913
9900000.0 -2.9739827447807907 -0.01804668086503074
10200000.0 -2.9739533687303843 -0.01786613237183909
10500000.0 -2.973922311552253 -0.017685861134809838
10800000.0 -2.9739476089222423 -0.017489940785306447
11100000.0 -2.973990894661231 -0.017258273390963835
11400000.0 -2.974039034747067 -0.01703328386606939
11700000.0 -2.974017320442243 -0.016919334205823155
12000000.0 -2.9740029078471197 -0.016770898605748888
12300000.0 -2.9740259404960496 -0.016586787592160708
12600000.0 -2.9740493734644637 -0.016436389990820765
12900000.0 -2.9740725234583114 -0.016256067208033766
13200000.0 -2.9740467434770435 -0.01616696921567098
13500000.0 -2.9740353143124354 -0.01604289577597866
13800000.0 -2.974060751714378 -0.0158927057931736
14100000.0 -2.9740868324788026 -0.015775944693083733
14400000.0 -2.9741116989839242 -0.01562862155380554
14700000.0 -2.974098177518836 -0.015558167285343327
15000000.0 -2.9740938248505713 -0.015453085226997723
15300000.0 -2.974115255595678 -0.015362650632995677
15600000.0 -2.974137418022961 -0.01523698416118342
15900000.000000002 -2.974158827633994 -0.015114008914684854
16200000.0 -2.9741504588136585 -0.015059053293618582
16500000.0 -2.9741491043889017 -0.014969374815667916
16800000.0 -2.9741675788186037 -0.014898621193700208
17100000.0 -2.974187178454318 -0.014792136358523151
17400000.0 -2.9742054524216925 -0.01472301714375307
17700000.0 -2.974200889472298 -0.01464553434347085
18000000.0 -2.974201561146604 -0.014602951011825193
18300000.0 -2.9742182684865495 -0.014513067559667211
18600000.0 -2.974235678431469 -0.014422267282595156
18900000.0 -2.9742526831016844 -0.014368098610054194
19200000.0 -2.974250481454971 -0.01430115669208967
19500000.0 -2.9742526271471297 -0.014268283172026561
19800000.0 -2.9742680961647427 -0.014190419726654155
20100000.0 -2.9742840551921086 -0.014147293572399881
20400000.0 -2.9742994985081523 -0.014070720275079543
20700000.0 -2.9742989538164544 -0.014046450396587253
21000000.0 -2.9743025454197296 -0.013987950865897736
21300000.0 -2.974316824137294 -0.013955311673077994
21600000.0 -2.974331880487 -0.013887637105149194
21900000.0 -2.974346164271873 -0.013820766134185845
22200000.0 -2.974347532594604 -0.013803396363324045
22500000.0 -2.9743520426726424 -0.013752134597386965
22800000.0 -2.974365683992686 -0.013728010240052003
23100000.0 -2.9743797581283116 -0.013668901328603149
23400000.0 -2.974393114039988 -0.013645462607908408
23700000.0 -2.974395698300842 -0.013599767134846579
24000000.0 -2.9744007589901638 -0.013588676155964294
24300000.0 -2.974413963230271 -0.013537102663995963
24600000.0 -2.9744270956674708 -0.0135197732613675
24900000.0 -2.9744400997381684 -0.013468588517268404
25200000.0 -2.974443565208212 -0.013462713416974114
25500000.0 -2.9744496211441187 -0.013422636088576972
25800000.0 -2.974462211512606 -0.013411821144443047
26100000.0 -2.9744751885256946 -0.013365958645510056
26400000.0 -2.974487630403126 -0.01335524021764149
26700000.0 -2.9744919226923248 -0.013319221639474356
27000000.0 -2.974498406964231 -0.013318417908322987
27300000.0 -2.9745106449688636 -0.01327791148774773
27600000.0 -2.974522998295965 -0.013272186004510125
27900000.0 -2.9745353306075297 -0.01323198834954564
28200000.0 -2.974540459113884 -0.013234974252740625
28500000.0 -2.974547290737504 -0.013202678783242725
28800000.0 -2.9745592767030815 -0.01320204310159349
29100000.0 -2.9745715215537163 -0.013165855172201996
29400000.0 -2.974583450135079 -0.013165020334988273
29700000.0 -2.974589366408953 -0.013136618382891907
30000000.0 -2.9745966942142896 -0.013142808025518909
30300000.0 -2.974608278740938 -0.013111135625786564
30600000.0 -2.9746201508022043 -0.013113693344535028
30900000.0 -2.974632034444319 -0.013082186490612577
31200000.0 -2.9746385066672727 -0.013091662397440612
31500000.0 -2.974646041970392 -0.013065998356791272
31800000.000000004 -2.9746575965177686 -0.013072403836315468
32099999.999999996 -2.9746695061609216 -0.01304369224712348
32400000.0 -2.974681025185399 -0.01305028846585489
32700000.0 -2.974687873972034 -0.013027776808253755
33000000.0 -2.9746961068724507 -0.013039894646522393
33300000.000000004 -2.974707537549366 -0.013014950644849435
33600000.0 -2.97471916183131 -0.013023764153127016
33900000.0 -2.974730646114852 -0.013033632741118484
34200000.0 -2.9747381782307394 -0.013013680084992083
34500000.0 -2.9747463667439953 -0.013027997545516702
34800000.0 -2.9747578336809672 -0.01300530227572468
35100000.0 -2.9747693104058275 -0.013017332752670672
35400000.0 -2.974780744722692 -0.01299523448957199
35700000.0 -2.9747879643214308 -0.013012111824068268
36000000.0 -2.9747962401330024 -0.012993863617006085
36300000.0 -2.974807464287232 -0.013008515756507508
36600000.0 -2.974819713096507 -0.012988415589283916
36900000.0 -2.9748320617895665 -0.013003041118020846
37200000.0 -2.974841147810468 -0.01298721448816222
37500000.0 -2.974850518978252 -0.01300593139887877
37800000.0 -2.97486146720622 -0.012988049779688584
38100000.0 -2.974872697235501 -0.013004849452492985
38400000.0 -2.974883777227348 -0.012987019046105558
38700000.0 -2.974891697329803 -0.01300753184246522
39000000.0 -2.9749007560007352 -0.013028291452404943
39300000.0 -2.974912314716018 -0.013012045876035319
39600000.0 -2.9749238131292985 -0.013030388654505275
39900000.0 -2.9749352551038246 -0.013015018861075077
40200000.0 -2.9749439457388664 -0.013037293320662021
40500000.0 -2.9749536964591963 -0.01302446399742794
40800000.0 -2.9749649668441056 -0.013045266123377443
41100000.0 -2.974976593152749 -0.013030901747029137
41400000.0 -2.9749879955137857 -0.013051732194846694
41700000.0 -2.9749970305446096 -0.013040403179347803
42000000.0 -2.975006675787563 -0.013064535447378199
42300000.0 -2.9750182707493544 -0.013052106290944415
42600000.0 -2.975029849629541 -0.013074039994927348
42900000.0 -2.9750413429741656 -0.013096332643306537
43200000.0 -2.975050703314717 -0.013086739878921732
43500000.0 -2.9750606592601456 -0.013111466426362925
43800000.0 -2.9750723451630265 -0.013100943553694715
44100000.0 -2.975083936764401 -0.013124190309645034
44400000.0 -2.975095370229048 -0.013113216065099742
44700000.0 -2.9751048166875833 -0.013139357367363012
45000000.0 -2.9751146637392796 -0.013131582144218217
45300000.0 -2.9751260862070756 -0.01315670360641345
45600000.0 -2.9751385173199547 -0.013146287235757812
45900000.0 -2.97515062475385 -0.013171857920120421
46200000.0 -2.9751608952796276 -0.013198871438161655
46500000.0 -2.975171559026441 -0.01319162682798064
46800000.0 -2.9751829180835556 -0.013218128053033547
47100000.0 -2.9751946254180837 -0.013209442830508967
47400000.0 -2.975206047897493 -0.013235925541312775
47700000.0 -2.975216069023734 -0.013229908501273131
48000000.0 -2.9752266778366914 -0.013258702978792584
48300000.0 -2.9752384275461097 -0.013251369121056542
48600000.0 -2.9752504017210306 -0.013278391079664395
48900000.0 -2.975261973914691 -0.013305740709744227
49200000.0 -2.9752724334878056 -0.013301028998813162
49500000.0 -2.975283146450457 -0.013330199370495446
49800000.0 -2.975295340505065 -0.013324190567441399
50100000.0 -2.9753071301586256 -0.013352530887827726
50400000.0 -2.975319343979367 -0.01334648881720651
50700000.0 -2.9753296414516712 -0.013376496350904401
51000000.0 -2.975340638826569 -0.013372586607078489
51300000.0 -2.9753526908248027 -0.013401781909073885
51600000.0 -2.9753645612541244 -0.01343129437137081
51900000.0 -2.9753768578158257 -0.013426078694513984
52200000.0 -2.9753874719089834 -0.013457362206513612
52500000.0 -2.9753988210447986 -0.013453921182627135
52800000.0 -2.9754108952325926 -0.013484273456123807
53100000.0 -2.9754233418182032 -0.01347989522622628
53400000.0 -2.975435411702262 -0.013510666380362139
53700000.0 -2.975446273846506 -0.013508016802829507
54000000.0 -2.9754576856426858 -0.013539619117134968
54300000.0 -2.9754697433946062 -0.0135712325740799
54600000.0 -2.9754821966390117 -0.01356764395219985
54900000.0 -2.9754942642310542 -0.01359885718398766
55200000.0 -2.9755057391264454 -0.013596536403734014
55500000.0 -2.9755170621398612 -0.013629714822386747
55800000.0 -2.97552964701217 -0.013627063755265886
56100000.0 -2.97554181938951 -0.013658958876537746
56400000.0 -2.975554179641295 -0.013690832922180847
56700000.0 -2.9755658457647405 -0.013689749392000725
57000000.0 -2.975577400277226 -0.013723354933080014
57300000.0 -2.975589930982364 -0.013721331641487117
57600000.0 -2.9756023419718507 -0.013753659294185497
57900000.0 -2.975615157635336 -0.01375205939934025
58200000.0 -2.9756264985261707 -0.013785952720071118
58500000.0 -2.9756382725957997 -0.013819845881142483
58800000.0 -2.9756509907563395 -0.013819053547647064
59100000.0 -2.9756635856343774 -0.013852143570311759
59400000.0 -2.9756763358905904 -0.013850804213969338
59700000.0 -2.9756881345237938 -0.013885469986794548
60000000.0 -2.975700365093514 -0.013885389288354371
60300000.0 -2.9757127078343393 -0.013919562991192881
60600000.0 -2.975725491221249 -0.013953745288549453
60900000.0 -2.9757383918359506 -0.013952806904260689
61200000.0 -2.975750327014444 -0.013988205071699652
61500000.0 -2.9757626970263695 -0.013988854720321084
61800000.0 -2.9757755450532497 -0.014023331535751289
62100000.0 -2.975788408054645 -0.014023150831166184
62400000.0 -2.9758015012875654 -0.014058045701145903
62700000.00000001 -2.9758132947222884 -0.01409365568131075
63000000.0 -2.975825748672908 -0.014095023143869725
63299999.99999999 -2.9758387085940337 -0.014130225692919723
63600000.00000001 -2.9758520767370844 -0.014130338156006644
63900000.0 -2.9758649367614827 -0.014165914314336898
64199999.99999999 -2.9758774001296024 -0.014167550084360405
64500000.0 -2.975889716658369 -0.014203533634644477
64800000.0 -2.9759027582389654 -0.014239450005142106
65100000.00000001 -2.975916276788563 -0.014240147318279318
65400000.0 -2.9759292076399464 -0.014276088850414878
65699999.99999999 -2.975941796465933 -0.014277949575644858
66000000.0 -2.9759545416342523 -0.014314549267417691
66300000.0 -2.9759679208678596 -0.014316443921672554
66600000.00000001 -2.9759811893982473 -0.014352221150458398
66900000.0 -2.9759942545957467 -0.01438873165846925
67200000.0 -2.97600716307807 -0.014390983234698038
67500000.0 -2.9760199299740107 -0.014428269510142125
67800000.0 -2.976033414806054 -0.014430382837569727
68100000.0 -2.9760467290115447 -0.014466848220063127
68400000.0 -2.9760604711367518 -0.014468901927436287
68700000.0 -2.9760731896310886 -0.014506425788408191
69000000.0 -2.976085950105868 -0.014544043547153562
69300000.0 -2.976099524177778 -0.014546362793740598
69600000.0 -2.9761131409823838 -0.014583561279168692
69900000.0 -2.9761268770217018 -0.01458628871379839
70200000.0 -2.97613996621623 -0.014624064771336494
70500000.0 -2.9761530923766393 -0.014661935066365999
70800000.0 -2.9761669526435273 -0.014664979099196396
71100000.0 -2.976180626919959 -0.01470237662104371
71400000.0 -2.976194448658977 -0.01470529699965488
71700000.0 -2.9762077755265084 -0.014743448135269848
72000000.0 -2.9762212405567183 -0.014747117795756463
72300000.0 -2.9762347489677254 -0.014785202773054224
72600000.0 -2.976248485364012 -0.014823128899022193
72900000.0 -2.9762626390739477 -0.01482595214570224
73200000.0 -2.976275600305531 -0.014865025476620252
73500000.0 -2.9762893999496667 -0.014868932184977753
73800000.0 -2.976303238810701 -0.014907259332448883
74100000.0 -2.9763175174996914 -0.01491116774240366
74400000.0 -2.9763313029663547 -0.014949361918901755
74700000.0 -2.9763446584650755 -0.014988196210984612
75000000.0 -2.976358672560581 -0.014992463319252297
75300000.0 -2.9763725348757375 -0.015031299650701642
75600000.0 -2.9763868017572315 -0.015035029173909751
75900000.0 -2.976400921869617 -0.015073456904040366
76200000.0 -2.9764144652744924 -0.01511298696779454
76500000.0 -2.9764284689953753 -0.015117407845202204
76800000.0 -2.976442517529789 -0.015156943120245545
77100000.0 -2.976457108022782 -0.015160900836475573
77400000.0 -2.976471383163815 -0.015200027458409754
77700000.0 -2.976484920158402 -0.015239701867775884
78000000.0 -2.976499205964263 -0.01524434283794803
78300000.0 -2.9765135324279726 -0.015284103184298901
78600000.0 -2.9765281001742663 -0.015288204686180926
78900000.0 -2.9765423631523507 -0.015327475014457597
79200000.0 -2.9765566813226374 -0.015333179357047469
79500000.0 -2.9765705964336524 -0.015372687708523246
79800000.0 -2.976584876972622 -0.015412242363221442
80100000.0 -2.9765999214447776 -0.015417454319181038
80400000.0 -2.9766141121973035 -0.015456856311506761
80700000.0 -2.9766287031970977 -0.015462428647339896
81000000.0 -2.9766428681347747 -0.015502487784089265
81300000.0 -2.9766572881187283 -0.015542723916772723
81600000.0 -2.976672252932928 -0.015547719764526506
81900000.0 -2.9766867105710513 -0.015587329109206068
82200000.0 -2.976701204070524 -0.015593361007221283
82500000.0 -2.976715801453386 -0.01563383942047129
82800000.0 -2.976730619935275 -0.015638985752685377
83100000.0 -2.976745479864269 -0.01567926605288391
83400000.0 -2.9767600529768172 -0.015719547527499572
83700000.0 -2.9767747697642846 -0.01572543407928208
84000000.0 -2.976789272204281 -0.01576602143895851
84300000.0 -2.9768044823838125 -0.01577227028872427
84600000.0 -2.9768192736765835 -0.015812315340428026
84900000.0 -2.976834368434638 -0.015852889499013933
85200000.0 -2.9768489857544727 -0.015858873053178225
85500000.0 -2.9768637100417497 -0.015899653932361302
85800000.0 -2.9768791254338254 -0.015906098368860262
86100000.0 -2.9768939767629035 -0.015946806072902327
86400000.0 -2.976909108145553 -0.015987008401712292
86700000.0 -2.976924100306678 -0.015993744595708945
87000000.0 -2.976938992620864 -0.016034714254001704
87300000.0 -2.9769543150597038 -0.01604090608249148
87600000.0 -2.976969349783353 -0.016081801542551257
87900000.0 -2.9769848987497762 -0.016087919802569538
88200000.0 -2.9769998633024386 -0.016129452954345168
88500000.0 -2.9770149296722965 -0.01617060609178896
88800000.0 -2.977030273637964 -0.016177449198997294
89100000.0 -2.977045663268697 -0.016218058556205936
89400000.0 -2.9770612289645477 -0.016224827585888942
89700000.0 -2.9770763579163213 -0.01626619689003884
90000000.0 -2.9770916079597747 -0.01630752878572886
90300000.0 -2.977107113675371 -0.0163145488804943
90600000.0 -2.9771225043766916 -0.016355805631042192
90900000.0 -2.977138701449772 -0.01636239153554697
91200000.0 -2.9771540035379873 -0.016403935592573606
91500000.0 -2.977169236813402 -0.016445910928855362
91800000.0 -2.977185081089212 -0.01645263470775754
92100000.0 -2.977200450287319 -0.016494534268927285
92400000.0 -2.97721651218986 -0.016501182873614063
92700000.0 -2.977231617746435 -0.016542781695956167
93000000.0 -2.9772470047245205 -0.016584924787157104
93300000.0 -2.977263298608055 -0.016591929944710187
93600000.0 -2.977278818933858 -0.016633997317835596
93900000.0 -2.9772949959407207 -0.016640811970929325
94200000.0 -2.9773104064973417 -0.016683157247646963
94500000.0 -2.9773260659297365 -0.016724995073062614
94800000.0 -2.977342021673041 -0.01673251608169377
95100000.0 -2.9773581501817534 -0.01677405369166383
95400000.0 -2.977374295980426 -0.01678149869164091
95700000.0 -2.9773899706702567 -0.016823533710746734
96000000.0 -2.9774059899569756 -0.016831250571085487
96300000.0 -2.977422142517779 -0.01687332993604076
96600000.0 -2.97743790663758 -0.016915717914655338
96900000.0 -2.977454355888006 -0.016921136088138423
97200000.0 -2.977469961547101 -0.016964821365370534
97500000.0 -2.9774863593895704 -0.01697384288176541
97800000.0 -2.977502647898659 -0.0170136792705016
98100000.0 -2.977518498805913 -0.017057248185109654
98400000.0 -2.977535056591851 -0.01706555991235798
98700000.0 -2.9775510540189822 -0.017109521110365837
99000000.0 -2.97756727230717 -0.01711513637943616
99300000.0 -2.97758364888315 -0.017158551866373245
99600000.0 -2.977600084813354 -0.017201929304071224
99900000.0 -2.9776168650824504 -0.017207557422711506
100200000.0 -2.9776326476895405 -0.017251534403282726
100500000.0 -2.97764942798283 -0.017260382956918098
100800000.0 -2.977665700873301 -0.017300984435788473
101100000.0 -2.977682212025086 -0.017344507748165153
101400000.0 -2.9776990640869827 -0.017353708166077834
101700000.0 -2.977715235615994 -0.01739452902477858
102000000.0 -2.9777320874209474 -0.01740351771016735
102300000.0 -2.977748418136757 -0.0174476884923566
102600000.0 -2.977765033611197 -0.01748792380300029
102900000.0 -2.9777819482504144 -0.01749726266224651
103200000.0 -2.977798664397081 -0.017541318263751365
103500000.0 -2.9778154048940815 -0.017547480664635153
103800000.0 -2.9778317842620377 -0.01759178672509692
104100000.0 -2.9778487361395167 -0.01763572601065239
104400000.0 -2.9778657425323325 -0.01764176975857783
104700000.0 -2.9778825013680734 -0.017685959750221813
105000000.0 -2.9778992836885227 -0.017695679799963993
105300000.0 -2.9779162435843767 -0.01773636241190691
105600000.0 -2.9779330400758637 -0.017780902640438096
105900000.0 -2.977950609388114 -0.017786751381231185
106200000.0 -2.977966895059328 -0.017831392884645466
106500000.0 -2.9779842122484337 -0.017840914631984277
106800000.0 -2.978001222610401 -0.0178817255045466
107100000.0 -2.97801877466136 -0.017891782288283618
107400000.0 -2.9780356249810445 -0.017935796780617172
107700000.0 -2.978052583455703 -0.01797742578760663
108000000.0 -2.9780699486545714 -0.01798707001356978
108300000.0 -2.9780867282249983 -0.018031899884783716
108600000.0 -2.9781045680189226 -0.01803818508131934
108900000.0 -2.9781217633302477 -0.018082469617447385
109200000.0 -2.978138679520907 -0.018127649118417594
109500000.0 -2.9781560994713265 -0.018133980460402446
109800000.0 -2.978173422248457 -0.018178614139710104
110100000.0 -2.978191038829709 -0.018185484922666993
110400000.0 -2.978208567706192 -0.01823004100770358
110700000.0 -2.978225733982963 -0.018274870360037283
111000000.0 -2.978243463604439 -0.01828146873039532
111300000.0 -2.978260566635 -0.018326684600642372
111600000.0 -2.978278395365013 -0.018336632137364067
111900000.0 -2.978295939676957 -0.018377873196878978
112200000.0 -2.9783134229508557 -0.018422971847288604
112500000.0 -2.978331121177238 -0.018433108599334242
112800000.0 -2.97834877399117 -0.018474698445199028
113100000.0 -2.9783663934474087 -0.018485220379042187
113400000.0 -2.9783842271674827 -0.018526731916208822
