! Created with skrf 1.8.0 (http://scikit-rf.org).
# Hz S RI R 50.0 
!freq ReS11 ImS11 ReS21 ImS21 ReS12 ImS12 ReS22 ImS22
0.0 0.0 0.0 0.996370739292135 -6.3889458897609224e-21 0.0 0.0 0.0 0.0
300000.0 0.0 0.0 0.9999141447351604 -0.0006712851046581474 0.0 0.0 0.0 0.0
600000.0 0.0 0.0 0.9999281384381136 -0.0012245263697949664 0.0 0.0 0.0 0.0
900000.0 0.0 0.0 0.9999296529183931 -0.0017925907492808881 0.0 0.0 0.0 0.0
1200000.0 0.0 0.0 0.9999277006423399 -0.00236531303085418 0.0 0.0 0.0 0.0
1500000.0 0.0 0.0 0.999924168840519 -0.002940228954009009 0.0 0.0 0.0 0.0
1800000.0 0.0 0.0 0.9999191770974898 -0.00351649889111844 0.0 0.0 0.0 0.0
2100000.0 0.0 0.0 0.9999133369238271 -0.004093582185143694 0.0 0.0 0.0 0.0
2400000.0 0.0 0.0 0.9999067575318746 -0.00467123392951983 0.0 0.0 0.0 0.0
2700000.0 0.0 0.0 0.9998986575563226 -0.00524953638386763 0.0 0.0 0.0 0.0
3000000.0 0.0 0.0 0.9998899652143787 -0.0058280389514815826 0.0 0.0 0.0 0.0
3300000.0 0.0 0.0 0.9998811774154137 -0.0064065347507076 0.0 0.0 0.0 0.0
3600000.0 0.0 0.0 0.9998719503731962 -0.0069851612167585566 0.0 0.0 0.0 0.0
3900000.0 0.0 0.0 0.9998622742022713 -0.007563900447267666 0.0 0.0 0.0 0.0
4200000.0 0.0 0.0 0.9998518363813579 -0.008142836763760104 0.0 0.0 0.0 0.0
4500000.0 0.0 0.0 0.9998409783242713 -0.008721867497596552 0.0 0.0 0.0 0.0
4800000.0 0.0 0.0 0.9998298772287046 -0.009300871792196784 0.0 0.0 0.0 0.0
5100000.0 0.0 0.0 0.9998183954608879 -0.009879918060928961 0.0 0.0 0.0 0.0
5400000.0 0.0 0.0 0.9998065216110851 -0.010458988459503547 0.0 0.0 0.0 0.0
5700000.0 0.0 0.0 0.9997940877623467 -0.011038168100313814 0.0 0.0 0.0 0.0
6000000.0 0.0 0.0 0.9997812744979722 -0.011617353786090275 0.0 0.0 0.0 0.0
6300000.0 0.0 0.0 0.9997681768205207 -0.012196494049527168 0.0 0.0 0.0 0.0
6600000.0 0.0 0.0 0.9997547167876157 -0.012775657596322683 0.0 0.0 0.0 0.0
6900000.0 0.0 0.0 0.999740884455597 -0.01335480914884646 0.0 0.0 0.0 0.0
7200000.0 0.0 0.0 0.9997265729721053 -0.013934016767014185 0.0 0.0 0.0 0.0
7500000.0 0.0 0.0 0.9997118983403613 -0.014513211883265877 0.0 0.0 0.0 0.0
7800000.0 0.0 0.0 0.9996969195323615 -0.015092377693413343 0.0 0.0 0.0 0.0
8100000.0 0.0 0.0 0.9996815868230228 -0.01567153072984364 0.0 0.0 0.0 0.0
8400000.0 0.0 0.0 0.9996658921662949 -0.01625067063527907 0.0 0.0 0.0 0.0
8700000.0 0.0 0.0 0.9996497590268518 -0.016829830784955497 0.0 0.0 0.0 0.0
9000000.0 0.0 0.0 0.9996332708291658 -0.01740897735413097 0.0 0.0 0.0 0.0
9300000.0 0.0 0.0 0.9996164680729291 -0.017988163199824773 0.0 0.0 0.0 0.0
9600000.0 0.0 0.0 0.9995993193585093 -0.01856709089190752 0.0 0.0 0.0 0.0
9900000.0 0.0 0.0 0.9995818113473081 -0.01914617881648637 0.0 0.0 0.0 0.0
10200000.0 0.0 0.0 0.999563890801488 -0.019725251164529067 0.0 0.0 0.0 0.0
10500000.0 0.0 0.0 0.99954561872646 -0.020304308846704984 0.0 0.0 0.0 0.0
10800000.0 0.0 0.0 0.999527027354667 -0.020883352313955883 0.0 0.0 0.0 0.0
11100000.0 0.0 0.0 0.9995080879277656 -0.02146238078229273 0.0 0.0 0.0 0.0
11400000.0 0.0 0.0 0.9994888008521341 -0.02204121951564145 0.0 0.0 0.0 0.0
11700000.0 0.0 0.0 0.9994691125196028 -0.022620216140905768 0.0 0.0 0.0 0.0
12000000.0 0.0 0.0 0.9994490761691657 -0.023199197057292047 0.0 0.0 0.0 0.0
12300000.0 0.0 0.0 0.9994287159761807 -0.02377816262347543 0.0 0.0 0.0 0.0
12600000.0 0.0 0.0 0.9994080143408048 -0.024356937702839143 0.0 0.0 0.0 0.0
12900000.0 0.0 0.0 0.9993869594222485 -0.024935870859942876 0.0 0.0 0.0 0.0
13200000.0 0.0 0.0 0.9993655230182251 -0.025514612081195483 0.0 0.0 0.0 0.0
13500000.0 0.0 0.0 0.9993437366072926 -0.026093510984067012 0.0 0.0 0.0 0.0
13800000.0 0.0 0.0 0.9993216276175255 -0.026672219007257556 0.0 0.0 0.0 0.0
14100000.0 0.0 0.0 0.9992991755004321 -0.027250909953724672 0.0 0.0 0.0 0.0
14400000.0 0.0 0.0 0.999276371960101 -0.027829757926005835 0.0 0.0 0.0 0.0
14700000.0 0.0 0.0 0.9992531955612693 -0.028408413009773512 0.0 0.0 0.0 0.0
15000000.0 0.0 0.0 0.9992296749248639 -0.02898705031553136 0.0 0.0 0.0 0.0
15300000.0 0.0 0.0 0.9992058261693477 -0.029565670109881863 0.0 0.0 0.0 0.0
15600000.0 0.0 0.0 0.9991816355026459 -0.030144271794414212 0.0 0.0 0.0 0.0
15900000.000000002 0.0 0.0 0.9991570994870361 -0.03072285505709075 0.0 0.0 0.0 0.0
16200000.0 0.0 0.0 0.9991321916793974 -0.03130141885714834 0.0 0.0 0.0 0.0
16500000.0 0.0 0.0 0.9991069420023707 -0.031879963891010075 0.0 0.0 0.0 0.0
16800000.0 0.0 0.0 0.9990813687872573 -0.03245831599125004 0.0 0.0 0.0 0.0
17100000.0 0.0 0.0 0.9990554481654486 -0.033036823305285914 0.0 0.0 0.0 0.0
17400000.0 0.0 0.0 0.9990291904317179 -0.03361513684799742 0.0 0.0 0.0 0.0
17700000.0 0.0 0.0 0.9990025598141867 -0.03419360431643432 0.0 0.0 0.0 0.0
18000000.0 0.0 0.0 0.9989755873975421 -0.034772051973439355 0.0 0.0 0.0 0.0
18300000.0 0.0 0.0 0.9989482920167927 -0.03535030571148818 0.0 0.0 0.0 0.0
18600000.0 0.0 0.0 0.9989206573669328 -0.03592853933345517 0.0 0.0 0.0 0.0
18900000.0 0.0 0.0 0.9988926788622295 -0.036506752469569664 0.0 0.0 0.0 0.0
19200000.0 0.0 0.0 0.9988643327951985 -0.037085118604483026 0.0 0.0 0.0 0.0
19500000.0 0.0 0.0 0.9988356515756998 -0.03766328956132991 0.0 0.0 0.0 0.0
19800000.0 0.0 0.0 0.9988066414961229 -0.038241439958456316 0.0 0.0 0.0 0.0
20100000.0 0.0 0.0 0.9987772910715592 -0.03881956916529814 0.0 0.0 0.0 0.0
20400000.0 0.0 0.0 0.9987476003170753 -0.03939767697825992 0.0 0.0 0.0 0.0
20700000.0 0.0 0.0 0.9987175578278751 -0.03997558814827981 0.0 0.0 0.0 0.0
21000000.0 0.0 0.0 0.9986871681641966 -0.040553651810364084 0.0 0.0 0.0 0.0
21300000.0 0.0 0.0 0.9986564485653837 -0.041131693872801106 0.0 0.0 0.0 0.0
21600000.0 0.0 0.0 0.9986253971280742 -0.04170953947283535 0.0 0.0 0.0 0.0
21900000.0 0.0 0.0 0.9985939994093253 -0.04228753700042395 0.0 0.0 0.0 0.0
22200000.0 0.0 0.0 0.9985622528405306 -0.04286533693334938 0.0 0.0 0.0 0.0
22500000.0 0.0 0.0 0.9985301598212003 -0.04344328835996972 0.0 0.0 0.0 0.0
22800000.0 0.0 0.0 0.9984977434779296 -0.044021042875279075 0.0 0.0 0.0 0.0
23100000.0 0.0 0.0 0.9984649905969468 -0.04459877431718186 0.0 0.0 0.0 0.0
23400000.0 0.0 0.0 0.9984318898609505 -0.04517665659156156 0.0 0.0 0.0 0.0
23700000.0 0.0 0.0 0.9983984443111997 -0.04575434039136562 0.0 0.0 0.0 0.0
24000000.0 0.0 0.0 0.9983646599744708 -0.04633200039647729 0.0 0.0 0.0 0.0
24300000.0 0.0 0.0 0.9983305460622918 -0.04690963683767275 0.0 0.0 0.0 0.0
24600000.0 0.0 0.0 0.9982960945450793 -0.04748724914694386 0.0 0.0 0.0 0.0
24900000.0 0.0 0.0 0.9982613138283915 -0.048064662895563756 0.0 0.0 0.0 0.0
25200000.0 0.0 0.0 0.9982261723118094 -0.048642225621328423 0.0 0.0 0.0 0.0
25500000.0 0.0 0.0 0.9981906955400559 -0.049219763713525454 0.0 0.0 0.0 0.0
25800000.0 0.0 0.0 0.9981548956686856 -0.049797102938019866 0.0 0.0 0.0 0.0
26100000.0 0.0 0.0 0.9981187508360236 -0.05037459130168105 0.0 0.0 0.0 0.0
26400000.0 0.0 0.0 0.9980822773933864 -0.05095188013327891 0.0 0.0 0.0 0.0
26700000.0 0.0 0.0 0.9980454461829354 -0.051529317043233214 0.0 0.0 0.0 0.0
27000000.0 0.0 0.0 0.9980082865997965 -0.05210655402243192 0.0 0.0 0.0 0.0
27300000.0 0.0 0.0 0.9979707978114979 -0.05268376549468517 0.0 0.0 0.0 0.0
27600000.0 0.0 0.0 0.9979329636455921 -0.05326112507921654 0.0 0.0 0.0 0.0
27900000.0 0.0 0.0 0.9978948026106824 -0.0538382842280727 0.0 0.0 0.0 0.0
28200000.0 0.0 0.0 0.9978562928924752 -0.05441541623392583 0.0 0.0 0.0 0.0
28500000.0 0.0 0.0 0.9978174482957632 -0.054992521637651 0.0 0.0 0.0 0.0
28800000.0 0.0 0.0 0.9977782734334382 -0.05556960050021295 0.0 0.0 0.0 0.0
29100000.0 0.0 0.0 0.9977387637282642 -0.05614665237608823 0.0 0.0 0.0 0.0
29400000.0 0.0 0.0 0.9976989268012648 -0.05672350280843525 0.0 0.0 0.0 0.0
29700000.0 0.0 0.0 0.9976587349312646 -0.05730049940620964 0.0 0.0 0.0 0.0
30000000.0 0.0 0.0 0.9976182071257572 -0.057877468351386845 0.0 0.0 0.0 0.0
30300000.0 0.0 0.0 0.9975773604966378 -0.05845423574078719 0.0 0.0 0.0 0.0
30600000.0 0.0 0.0 0.9975361690158431 -0.05903114927706971 0.0 0.0 0.0 0.0
30900000.0 0.0 0.0 0.9974946520587762 -0.05960786048386715 0.0 0.0 0.0 0.0
31200000.0 0.0 0.0 0.9974527797511504 -0.06018471680864381 0.0 0.0 0.0 0.0
31500000.0 0.0 0.0 0.9974105833558009 -0.060761370484332965 0.0 0.0 0.0 0.0
31800000.000000004 0.0 0.0 0.9973680570813189 -0.06133799569442102 0.0 0.0 0.0 0.0
32099999.999999996 0.0 0.0 0.9973251975016773 -0.06191459203839703 0.0 0.0 0.0 0.0
32400000.0 0.0 0.0 0.9972820034878777 -0.06249115925168755 0.0 0.0 0.0 0.0
32700000.0 0.0 0.0 0.9972384537189221 -0.06306787053714706 0.0 0.0 0.0 0.0
33000000.0 0.0 0.0 0.9971945827585939 -0.06364437837871739 0.0 0.0 0.0 0.0
33300000.000000004 0.0 0.0 0.9971503920761217 -0.06422068268270813 0.0 0.0 0.0 0.0
33600000.0 0.0 0.0 0.9971058570782296 -0.06479713119024406 0.0 0.0 0.0 0.0
33900000.0 0.0 0.0 0.9970609877447636 -0.0653735495902088 0.0 0.0 0.0 0.0
34200000.0 0.0 0.0 0.9970157760607229 -0.06594993715656693 0.0 0.0 0.0 0.0
34500000.0 0.0 0.0 0.9969702428407687 -0.06652612028945312 0.0 0.0 0.0 0.0
34800000.0 0.0 0.0 0.9969243684267907 -0.06710244704437772 0.0 0.0 0.0 0.0
35100000.0 0.0 0.0 0.9968781609058208 -0.06767874298896603 0.0 0.0 0.0 0.0
35400000.0 0.0 0.0 0.9968316310632382 -0.06825483387219876 0.0 0.0 0.0 0.0
35700000.0 0.0 0.0 0.9967847614700371 -0.06883089309967823 0.0 0.0 0.0 0.0
36000000.0 0.0 0.0 0.9967375457715706 -0.06940709483022865 0.0 0.0 0.0 0.0
36300000.0 0.0 0.0 0.9966900138531161 -0.06998309133709416 0.0 0.0 0.0 0.0
36600000.0 0.0 0.0 0.9966421491317637 -0.07055905608278457 0.0 0.0 0.0 0.0
36900000.0 0.0 0.0 0.9965939504809795 -0.07113498879314561 0.0 0.0 0.0 0.0
37200000.0 0.0 0.0 0.9965454121853026 -0.07171088886114346 0.0 0.0 0.0 0.0
37500000.0 0.0 0.0 0.9964965296811849 -0.07228693058663216 0.0 0.0 0.0 0.0
37800000.0 0.0 0.0 0.9964473419861402 -0.07286259209890489 0.0 0.0 0.0 0.0
38100000.0 0.0 0.0 0.9963978112718114 -0.0734383949741031 0.0 0.0 0.0 0.0
38400000.0 0.0 0.0 0.9963479467344211 -0.07401416484692423 0.0 0.0 0.0 0.0
38700000.0 0.0 0.0 0.9962977426604976 -0.07458990109383072 0.0 0.0 0.0 0.0
39000000.0 0.0 0.0 0.9962472071015098 -0.07516560411649426 0.0 0.0 0.0 0.0
39300000.0 0.0 0.0 0.9961963555921749 -0.07574110003009453 0.0 0.0 0.0 0.0
39600000.0 0.0 0.0 0.9961451595219046 -0.07631673621979845 0.0 0.0 0.0 0.0
39900000.0 0.0 0.0 0.9960936308845364 -0.07689233852900926 0.0 0.0 0.0 0.0
40200000.0 0.0 0.0 0.9960417774891405 -0.07746773247759707 0.0 0.0 0.0 0.0
40500000.0 0.0 0.0 0.9959895792979234 -0.07804326609591512 0.0 0.0 0.0 0.0
40800000.0 0.0 0.0 0.9959370657680013 -0.07861859169995719 0.0 0.0 0.0 0.0
41100000.0 0.0 0.0 0.9958842211074156 -0.07919388276352979 0.0 0.0 0.0 0.0
41400000.0 0.0 0.0 0.9958310453384716 -0.07976913909674622 0.0 0.0 0.0 0.0
41700000.0 0.0 0.0 0.9957775175822444 -0.080344533750699 0.0 0.0 0.0 0.0
42000000.0 0.0 0.0 0.9957236715393328 -0.08091971938809407 0.0 0.0 0.0 0.0
42300000.0 0.0 0.0 0.9956694990417398 -0.08149487009152803 0.0 0.0 0.0 0.0
42600000.0 0.0 0.0 0.9956149943802393 -0.08206998520668482 0.0 0.0 0.0 0.0
42900000.0 0.0 0.0 0.9955601587240529 -0.08264506463691204 0.0 0.0 0.0 0.0
43200000.0 0.0 0.0 0.9955049863655544 -0.08322010771335601 0.0 0.0 0.0 0.0
43500000.0 0.0 0.0 0.9954494830590397 -0.08379511471866462 0.0 0.0 0.0 0.0
43800000.0 0.0 0.0 0.9953936669910027 -0.08436991202550423 0.0 0.0 0.0 0.0
44100000.0 0.0 0.0 0.9953375053960395 -0.08494484662442306 0.0 0.0 0.0 0.0
44400000.0 0.0 0.0 0.9952810129225379 -0.08551974458696836 0.0 0.0 0.0 0.0
44700000.0 0.0 0.0 0.9952241988913608 -0.08609443152842386 0.0 0.0 0.0 0.0
45000000.0 0.0 0.0 0.9951670391034202 -0.08666925515681535 0.0 0.0 0.0 0.0
45300000.0 0.0 0.0 0.9951095519454265 -0.08724404187446914 0.0 0.0 0.0 0.0
45600000.0 0.0 0.0 0.9950517493310851 -0.08781861752505292 0.0 0.0 0.0 0.0
45900000.0 0.0 0.0 0.9949936173031925 -0.0883931557102529 0.0 0.0 0.0 0.0
46200000.0 0.0 0.0 0.9949351334850075 -0.08896782927694889 0.0 0.0 0.0 0.0
46500000.0 0.0 0.0 0.9948763357293827 -0.08954229133614892 0.0 0.0 0.0 0.0
46800000.0 0.0 0.0 0.994817209778159 -0.09011671546328563 0.0 0.0 0.0 0.0
47100000.0 0.0 0.0 0.9947577386814279 -0.09069127498646203 0.0 0.0 0.0 0.0
47400000.0 0.0 0.0 0.994697952875212 -0.0912656223667783 0.0 0.0 0.0 0.0
47700000.0 0.0 0.0 0.9946378320752569 -0.09183993062025045 0.0 0.0 0.0 0.0
48000000.0 0.0 0.0 0.9945773820323239 -0.0924142000815373 0.0 0.0 0.0 0.0
48300000.0 0.0 0.0 0.994516605060954 -0.09298843077736574 0.0 0.0 0.0 0.0
48600000.0 0.0 0.0 0.9944554966057751 -0.09356262209345881 0.0 0.0 0.0 0.0
48900000.0 0.0 0.0 0.9943940566920033 -0.09413677383849396 0.0 0.0 0.0 0.0
49200000.0 0.0 0.0 0.9943322853449641 -0.09471088582116469 0.0 0.0 0.0 0.0
49500000.0 0.0 0.0 0.9942702106674 -0.09528478541430224 0.0 0.0 0.0 0.0
49800000.0 0.0 0.0 0.9942077766297142 -0.09585881731589432 0.0 0.0 0.0 0.0
50100000.0 0.0 0.0 0.9941450226809075 -0.09643280999158003 0.0 0.0 0.0 0.0
50400000.0 0.0 0.0 0.9940819543306362 -0.09700658865307953 0.0 0.0 0.0 0.0
50700000.0 0.0 0.0 0.9940185263991538 -0.0975804989968568 0.0 0.0 0.0 0.0
51000000.0 0.0 0.0 0.9939547786319789 -0.09815436956092792 0.0 0.0 0.0 0.0
51300000.0 0.0 0.0 0.9938907282843029 -0.09872802670726477 0.0 0.0 0.0 0.0
51600000.0 0.0 0.0 0.9938263181339342 -0.09930181492254575 0.0 0.0 0.0 0.0
51900000.0 0.0 0.0 0.9937616056543243 -0.09987538937355651 0.0 0.0 0.0 0.0
52200000.0 0.0 0.0 0.9936965507576071 -0.10044892104286765 0.0 0.0 0.0 0.0
52500000.0 0.0 0.0 0.993631158719987 -0.10102258546719675 0.0 0.0 0.0 0.0
52800000.0 0.0 0.0 0.993565453290384 -0.10159603445157035 0.0 0.0 0.0 0.0
53100000.0 0.0 0.0 0.9934994169638544 -0.1021694412378302 0.0 0.0 0.0 0.0
53400000.0 0.0 0.0 0.9934330497672231 -0.10274280563507057 0.0 0.0 0.0 0.0
53700000.0 0.0 0.0 0.9933663517274256 -0.10331612745240278 0.0 0.0 0.0 0.0
54000000.0 0.0 0.0 0.9932993343072889 -0.10388940769502598 0.0 0.0 0.0 0.0
54300000.0 0.0 0.0 0.9932319860966361 -0.10446264498921376 0.0 0.0 0.0 0.0
54600000.0 0.0 0.0 0.9931643071227215 -0.10503583914412692 0.0 0.0 0.0 0.0
54900000.0 0.0 0.0 0.9930962974129097 -0.1056089899689435 0.0 0.0 0.0 0.0
55200000.0 0.0 0.0 0.9930279569946748 -0.10618209727285872 0.0 0.0 0.0 0.0
55500000.0 0.0 0.0 0.9929592858956015 -0.10675516086508514 0.0 0.0 0.0 0.0
55800000.0 0.0 0.0 0.9928902955744561 -0.10732818179051394 0.0 0.0 0.0 0.0
56100000.0 0.0 0.0 0.9928209746263749 -0.1079011586359243 0.0 0.0 0.0 0.0
56400000.0 0.0 0.0 0.9927513420115465 -0.10847391794278537 0.0 0.0 0.0 0.0
56700000.0 0.0 0.0 0.992681359993401 -0.10904680606818018 0.0 0.0 0.0 0.0
57000000.0 0.0 0.0 0.9926110665645745 -0.10961947629814521 0.0 0.0 0.0 0.0
57300000.0 0.0 0.0 0.9925404350158704 -0.1101922762095841 0.0 0.0 0.0 0.0
57600000.0 0.0 0.0 0.9924694729791964 -0.11076503110080005 0.0 0.0 0.0 0.0
57900000.0 0.0 0.0 0.9923981999150809 -0.11133756757498384 0.0 0.0 0.0 0.0
58200000.0 0.0 0.0 0.9923265966198562 -0.11191005867266005 0.0 0.0 0.0 0.0
58500000.0 0.0 0.0 0.9922546434902444 -0.11248267738449441 0.0 0.0 0.0 0.0
58800000.0 0.0 0.0 0.9921823797189219 -0.1130550771452367 0.0 0.0 0.0 0.0
59100000.0 0.0 0.0 0.9921097773930831 -0.11362760542215085 0.0 0.0 0.0 0.0
59400000.0 0.0 0.0 0.9920368646815305 -0.11419991440547099 0.0 0.0 0.0 0.0
59700000.0 0.0 0.0 0.9919636218814811 -0.11477217707331758 0.0 0.0 0.0 0.0
60000000.0 0.0 0.0 0.9918900490221099 -0.11534439323533796 0.0 0.0 0.0 0.0
60300000.0 0.0 0.0 0.9918161575514074 -0.11591656403573641 0.0 0.0 0.0 0.0
60600000.0 0.0 0.0 0.991741936078354 -0.11648868796283177 0.0 0.0 0.0 0.0
60900000.0 0.0 0.0 0.9916673846324426 -0.11706076482632467 0.0 0.0 0.0 0.0
61200000.0 0.0 0.0 0.9915924827124657 -0.11763296750147256 0.0 0.0 0.0 0.0
61500000.0 0.0 0.0 0.9915172919405677 -0.11820477660139783 0.0 0.0 0.0 0.0
61800000.0 0.0 0.0 0.9914417621685337 -0.11877671249993921 0.0 0.0 0.0 0.0
62100000.0 0.0 0.0 0.9913659025409646 -0.1193486005870338 0.0 0.0 0.0 0.0
62400000.0 0.0 0.0 0.9912897130878906 -0.1199204406724734 0.0 0.0 0.0 0.0
62700000.00000001 0.0 0.0 0.9912131938394514 -0.12049223256606852 0.0 0.0 0.0 0.0
63000000.0 0.0 0.0 0.9911363448258966 -0.12106397607764846 0.0 0.0 0.0 0.0
63299999.99999999 0.0 0.0 0.9910591987169907 -0.12163549944498467 0.0 0.0 0.0 0.0
63600000.00000001 0.0 0.0 0.9909817017723691 -0.12220714704916855 0.0 0.0 0.0 0.0
63900000.0 0.0 0.0 0.9909038751522339 -0.1227787457141571 0.0 0.0 0.0 0.0
64199999.99999999 0.0 0.0 0.9908257404159343 -0.12335012231814084 0.0 0.0 0.0 0.0
64500000.0 0.0 0.0 0.9907472660430563 -0.12392162397486702 0.0 0.0 0.0 0.0
64800000.0 0.0 0.0 0.9906684620851997 -0.12449307613538121 0.0 0.0 0.0 0.0
65100000.00000001 0.0 0.0 0.9905893504012129 -0.1250643057191877 0.0 0.0 0.0 0.0
65400000.0 0.0 0.0 0.9905098874662108 -0.12563565833104398 0.0 0.0 0.0 0.0
65699999.99999999 0.0 0.0 0.9904301284695352 -0.1262067894670272 0.0 0.0 0.0 0.0
66000000.0 0.0 0.0 0.9903500288082097 -0.12677786892833837 0.0 0.0 0.0 0.0
66300000.0 0.0 0.0 0.9902695890916156 -0.12734907227242895 0.0 0.0 0.0 0.0
66600000.00000001 0.0 0.0 0.990188853702006 -0.12792005364585768 0.0 0.0 0.0 0.0
66900000.0 0.0 0.0 0.9901077777431926 -0.12849098276866153 0.0 0.0 0.0 0.0
67200000.0 0.0 0.0 0.990026361520338 -0.12906203519534562 0.0 0.0 0.0 0.0
67500000.0 0.0 0.0 0.9899446272196242 -0.12963286217234551 0.0 0.0 0.0 0.0
67800000.0 0.0 0.0 0.9898625866385351 -0.13020364079373017 0.0 0.0 0.0 0.0
68100000.0 0.0 0.0 0.9897802056176334 -0.13077436639246295 0.0 0.0 0.0 0.0
68400000.0 0.0 0.0 0.9896975069805399 -0.13134504178350656 0.0 0.0 0.0 0.0
68700000.0 0.0 0.0 0.9896144679699292 -0.13191566375946268 0.0 0.0 0.0 0.0
69000000.0 0.0 0.0 0.9895311114058322 -0.13248623516161454 0.0 0.0 0.0 0.0
69300000.0 0.0 0.0 0.9894474373178342 -0.1330567558200708 0.0 0.0 0.0 0.0
69600000.0 0.0 0.0 0.9893634343451411 -0.1336272240265163 0.0 0.0 0.0 0.0
69900000.0 0.0 0.0 0.9892790911309279 -0.13419763804638393 0.0 0.0 0.0 0.0
70200000.0 0.0 0.0 0.9891944304879442 -0.13476800077358256 0.0 0.0 0.0 0.0
70500000.0 0.0 0.0 0.9891094524461559 -0.13533831203829258 0.0 0.0 0.0 0.0
70800000.0 0.0 0.0 0.9890241342624941 -0.1359085685413007 0.0 0.0 0.0 0.0
71100000.0 0.0 0.0 0.9889385225641892 -0.13647860061364145 0.0 0.0 0.0 0.0
71400000.0 0.0 0.0 0.9888525584563659 -0.13704875172738087 0.0 0.0 0.0 0.0
71700000.0 0.0 0.0 0.9887662656928448 -0.1376188490758025 0.0 0.0 0.0 0.0
72000000.0 0.0 0.0 0.9886796556896466 -0.1381888940604462 0.0 0.0 0.0 0.0
72300000.0 0.0 0.0 0.988592741313687 -0.13875871237209922 0.0 0.0 0.0 0.0
72600000.0 0.0 0.0 0.988505474262113 -0.13932864892057525 0.0 0.0 0.0 0.0
72900000.0 0.0 0.0 0.9884179031040472 -0.1398983584478957 0.0 0.0 0.0 0.0
73200000.0 0.0 0.0 0.9883299905175935 -0.1404681874202002 0.0 0.0 0.0 0.0
73500000.0 0.0 0.0 0.9882417380959779 -0.14103795989357834 0.0 0.0 0.0 0.0
73800000.0 0.0 0.0 0.9881531933445715 -0.14160750645442735 0.0 0.0 0.0 0.0
74100000.0 0.0 0.0 0.9880643317781146 -0.14217699942943637 0.0 0.0 0.0 0.0
74400000.0 0.0 0.0 0.9879751057648368 -0.14274660779651885 0.0 0.0 0.0 0.0
74700000.0 0.0 0.0 0.9878855878176407 -0.14331598976291493 0.0 0.0 0.0 0.0
75000000.0 0.0 0.0 0.9877957166681453 -0.14388548835534032 0.0 0.0 0.0 0.0
75300000.0 0.0 0.0 0.9877055424770362 -0.14445475856327883 0.0 0.0 0.0 0.0
75600000.0 0.0 0.0 0.9876150516359486 -0.14502397428593933 0.0 0.0 0.0 0.0
75900000.0 0.0 0.0 0.9875242073964214 -0.14559330603328877 0.0 0.0 0.0 0.0
76200000.0 0.0 0.0 0.9874330605156257 -0.1461624088894777 0.0 0.0 0.0 0.0
76500000.0 0.0 0.0 0.9873415857170735 -0.14673145503690987 0.0 0.0 0.0 0.0
76800000.0 0.0 0.0 0.9872497944019929 -0.14730044598252773 0.0 0.0 0.0 0.0
77100000.0 0.0 0.0 0.9871576752373329 -0.1478693798546774 0.0 0.0 0.0 0.0
77400000.0 0.0 0.0 0.9870652282583943 -0.14843825646448383 0.0 0.0 0.0 0.0
77700000.0 0.0 0.0 0.986972427493931 -0.14900724788228056 0.0 0.0 0.0 0.0
78000000.0 0.0 0.0 0.9868793362553738 -0.1495760111066697 0.0 0.0 0.0 0.0
78300000.0 0.0 0.0 0.98678590594616 -0.1501447147866533 0.0 0.0 0.0 0.0
78600000.0 0.0 0.0 0.9866921706843921 -0.15071336391925624 0.0 0.0 0.0 0.0
78900000.0 0.0 0.0 0.9865980964235257 -0.1512819531298959 0.0 0.0 0.0 0.0
