! Created with skrf 1.8.0 (http://scikit-rf.org).
# Hz S RI R 50.0 
!freq ReS11 ImS11 ReS21 ImS21 ReS12 ImS12 ReS22 ImS22
50000.0 0.0 0.0 -0.000311547 0.000242652 0.0 0.0 0.0 0.0
15049500.0 0.0 0.0 -4.3821e-05 1.9638e-05 0.0 0.0 0.0 0.0
30049000.0 0.0 0.0 -2.183e-05 2.1202e-05 0.0 0.0 0.0 0.0
45048500.0 0.0 0.0 -3.5805e-05 1.8931e-05 0.0 0.0 0.0 0.0
60048000.0 0.0 0.0 -2.2386e-05 -1.7164e-05 0.0 0.0 0.0 0.0
75047500.0 0.0 0.0 -5.6619e-05 2.6884e-05 0.0 0.0 0.0 0.0
90047000.0 0.0 0.0 -4.2902e-05 -2.6463e-05 0.0 0.0 0.0 0.0
105046500.0 0.0 0.0 -4.8553e-05 -2.7139e-05 0.0 0.0 0.0 0.0
120046000.0 0.0 0.0 -3.2946e-05 4.3086e-05 0.0 0.0 0.0 0.0
135045500.0 0.0 0.0 6.854e-06 4.1798e-05 0.0 0.0 0.0 0.0
150045000.0 0.0 0.0 7.54e-06 -9.53e-07 0.0 0.0 0.0 0.0
165044500.0 0.0 0.0 2.5549e-05 -2.4799e-05 0.0 0.0 0.0 0.0
180044000.0 0.0 0.0 1.8858e-05 -1.4438e-05 0.0 0.0 0.0 0.0
195043500.0 0.0 0.0 -1.1936e-05 2.1059e-05 0.0 0.0 0.0 0.0
210043000.0 0.0 0.0 1.877e-05 -2.856e-06 0.0 0.0 0.0 0.0
225042500.0 0.0 0.0 2.1502e-05 -8.96e-07 0.0 0.0 0.0 0.0
240042000.0 0.0 0.0 -4.332e-06 -7.266e-06 0.0 0.0 0.0 0.0
255041500.0 0.0 0.0 -1.7185e-05 4.2252e-05 0.0 0.0 0.0 0.0
270041000.0 0.0 0.0 -9.394e-06 6.185e-06 0.0 0.0 0.0 0.0
285040500.0 0.0 0.0 8.611e-06 2.7556e-05 0.0 0.0 0.0 0.0
300040000.0 0.0 0.0 0.000239967 -0.000108473 0.0 0.0 0.0 0.0
315039500.0 0.0 0.0 -0.000523065 0.000399076 0.0 0.0 0.0 0.0
330039000.0 0.0 0.0 0.000257982 3.0449e-05 0.0 0.0 0.0 0.0
345038500.0 0.0 0.0 0.000497546 -0.000457789 0.0 0.0 0.0 0.0
360038000.0 0.0 0.0 0.000246556 0.000491277 0.0 0.0 0.0 0.0
375037500.0 0.0 0.0 -0.000162248 0.000245475 0.0 0.0 0.0 0.0
390037000.0 0.0 0.0 -0.000410741 0.00032439 0.0 0.0 0.0 0.0
405036500.0 0.0 0.0 6.7343e-05 0.000525595 0.0 0.0 0.0 0.0
420036000.0 0.0 0.0 -4.0256e-05 -4.2482e-05 0.0 0.0 0.0 0.0
435035500.0 0.0 0.0 -0.000414029 -0.000159383 0.0 0.0 0.0 0.0
450035000.0 0.0 0.0 -0.000327705 5.717e-05 0.0 0.0 0.0 0.0
465034500.0 0.0 0.0 -0.000409535 -0.000306781 0.0 0.0 0.0 0.0
480034000.0 0.0 0.0 -0.000292395 -0.000713136 0.0 0.0 0.0 0.0
495033500.0 0.0 0.0 0.000497263 0.000447693 0.0 0.0 0.0 0.0
510033000.0 0.0 0.0 0.000181623 -0.000330728 0.0 0.0 0.0 0.0
525032500.0 0.0 0.0 0.00041197 -0.0002977 0.0 0.0 0.0 0.0
540032000.0 0.0 0.0 -8.8186e-05 -4.5317e-05 0.0 0.0 0.0 0.0
555031500.0 0.0 0.0 -0.000277116 0.000398347 0.0 0.0 0.0 0.0
570031000.0 0.0 0.0 0.000387771 -0.000185182 0.0 0.0 0.0 0.0
585030500.0 0.0 0.0 4.7932e-05 0.000462049 0.0 0.0 0.0 0.0
600030000.0 0.0 0.0 0.000485241 -0.000183642 0.0 0.0 0.0 0.0
615029500.0 0.0 0.0 0.000341721 0.000127203 0.0 0.0 0.0 0.0
630029000.0 0.0 0.0 -0.000218753 -4.56e-07 0.0 0.0 0.0 0.0
645028500.0 0.0 0.0 8.9485e-05 0.000256735 0.0 0.0 0.0 0.0
660028000.0 0.0 0.0 -0.000224154 0.000100724 0.0 0.0 0.0 0.0
675027500.0 0.0 0.0 -3.5846e-05 -0.000199491 0.0 0.0 0.0 0.0
690027000.0 0.0 0.0 -6.3971e-05 -0.000192998 0.0 0.0 0.0 0.0
705026500.0 0.0 0.0 0.000346263 -0.000339189 0.0 0.0 0.0 0.0
720026000.0 0.0 0.0 -0.000293769 -4.0333e-05 0.0 0.0 0.0 0.0
735025500.0 0.0 0.0 -0.000122996 -4.2276e-05 0.0 0.0 0.0 0.0
750025000.0 0.0 0.0 0.000620455 -0.000186258 0.0 0.0 0.0 0.0
765024500.0 0.0 0.0 0.001040424 -0.000353637 0.0 0.0 0.0 0.0
780024000.0 0.0 0.0 -7.098e-06 0.000227699 0.0 0.0 0.0 0.0
795023500.0 0.0 0.0 -0.000422225 0.000513429 0.0 0.0 0.0 0.0
810023000.0 0.0 0.0 0.000338482 -0.000662268 0.0 0.0 0.0 0.0
825022500.0 0.0 0.0 -0.000715466 -0.00018898 0.0 0.0 0.0 0.0
840022000.0 0.0 0.0 0.000318271 -0.000130603 0.0 0.0 0.0 0.0
855021500.0 0.0 0.0 -1.8795e-05 -0.001159253 0.0 0.0 0.0 0.0
870021000.0 0.0 0.0 3.4038e-05 -0.000210414 0.0 0.0 0.0 0.0
885020500.0 0.0 0.0 -0.000203175 -0.000722399 0.0 0.0 0.0 0.0
900020000.0 0.0 0.0 0.00011365 0.002157355 0.0 0.0 0.0 0.0
915019500.0 0.0 0.0 0.001266129 0.002460079 0.0 0.0 0.0 0.0
930019000.0 0.0 0.0 0.000856786 -0.00245275 0.0 0.0 0.0 0.0
945018500.0 0.0 0.0 -2.3196e-05 0.001552223 0.0 0.0 0.0 0.0
960018000.0 0.0 0.0 -0.001807213 0.001766427 0.0 0.0 0.0 0.0
975017500.0 0.0 0.0 -0.002019243 0.00071942 0.0 0.0 0.0 0.0
990017000.0 0.0 0.0 0.00114512 -0.000133015 0.0 0.0 0.0 0.0
1005016500.0 0.0 0.0 0.001659731 -0.000118147 0.0 0.0 0.0 0.0
1020016000.0 0.0 0.0 0.000357242 -0.003613983 0.0 0.0 0.0 0.0
1035015500.0 0.0 0.0 0.002463783 -0.00140709 0.0 0.0 0.0 0.0
1050015000.0 0.0 0.0 0.001336046 -0.003043828 0.0 0.0 0.0 0.0
1065014500.0 0.0 0.0 -0.001289156 0.000111349 0.0 0.0 0.0 0.0
1080014000.0 0.0 0.0 -0.002918498 -0.003623198 0.0 0.0 0.0 0.0
1095013500.0 0.0 0.0 0.001552383 -0.00099977 0.0 0.0 0.0 0.0
1110013000.0 0.0 0.0 0.000417995 0.002806681 0.0 0.0 0.0 0.0
1125012500.0 0.0 0.0 -0.005001772 0.000542481 0.0 0.0 0.0 0.0
1140012000.0 0.0 0.0 0.002547776 -0.004956617 0.0 0.0 0.0 0.0
1155011500.0 0.0 0.0 0.000986387 0.000863593 0.0 0.0 0.0 0.0
1170011000.0 0.0 0.0 0.002268676 0.000969299 0.0 0.0 0.0 0.0
1185010500.0 0.0 0.0 0.003331841 2.6464e-05 0.0 0.0 0.0 0.0
1200010000.0 0.0 0.0 0.00513081 0.008349311 0.0 0.0 0.0 0.0
1215009500.0 0.0 0.0 0.000691929 0.003353274 0.0 0.0 0.0 0.0
1230009000.0 0.0 0.0 -0.006360659 0.006470417 0.0 0.0 0.0 0.0
1245008500.0 0.0 0.0 0.007213217 0.008814606 0.0 0.0 0.0 0.0
1260008000.0 0.0 0.0 -0.0003311 -0.001253649 0.0 0.0 0.0 0.0
1275007500.0 0.0 0.0 0.007942323 -0.002704146 0.0 0.0 0.0 0.0
1290007000.0 0.0 0.0 0.002417922 0.007113317 0.0 0.0 0.0 0.0
1305006500.0 0.0 0.0 0.00308264 -0.001090751 0.0 0.0 0.0 0.0
1320006000.0 0.0 0.0 0.007431733 0.001286936 0.0 0.0 0.0 0.0
1335005500.0 0.0 0.0 0.005573675 0.002154068 0.0 0.0 0.0 0.0
1350005000.0 0.0 0.0 0.005468955 -0.008350234 0.0 0.0 0.0 0.0
1365004500.0 0.0 0.0 0.004009562 0.006026172 0.0 0.0 0.0 0.0
1380004000.0 0.0 0.0 0.007416767 -0.002165843 0.0 0.0 0.0 0.0
1395003500.0 0.0 0.0 0.012922338 0.006188866 0.0 0.0 0.0 0.0
1410003000.0 0.0 0.0 0.000467569 -0.000506392 0.0 0.0 0.0 0.0
1425002500.0 0.0 0.0 0.016973684 0.001562937 0.0 0.0 0.0 0.0
1440002000.0 0.0 0.0 -0.019868262 -0.010655448 0.0 0.0 0.0 0.0
1455001500.0 0.0 0.0 0.001491508 0.008347713 0.0 0.0 0.0 0.0
1470001000.0 0.0 0.0 -0.005379694 0.014449232 0.0 0.0 0.0 0.0
1485000500.0 0.0 0.0 -0.008135993 -0.002622895 0.0 0.0 0.0 0.0
1500000000.0 0.0 0.0 0.006144828 0.011346484 0.0 0.0 0.0 0.0
