! Created with skrf 1.8.0 (http://scikit-rf.org).
# Hz S RI R 50.0 
!freq ReS11 ImS11
50000.0 0.757078888643116 -0.0055866229779945814
15049500.0 0.7237962077129877 -0.20302309898221527
30049000.0 0.6499407401360392 -0.37102284316111045
45048500.0 0.5387627919266631 -0.5150366373248045
60048000.0 0.3992422369727221 -0.62578113882642
75047500.0 0.23882462547730832 -0.6988676864452696
90047000.0 0.05886435489212216 -0.7306199715986905
105046500.0 -0.11757595060157777 -0.7216412547846848
120046000.0 -0.2846497018143917 -0.6707866640954133
135045500.0 -0.4342703768736602 -0.581355925336266
150045000.0 -0.5581126123732315 -0.4595428424185679
165044500.0 -0.6486658956207106 -0.3122464161054053
180044000.0 -0.7013985359465608 -0.14838729314666257
195043500.0 -0.7134238309212331 0.023142303567350374
210043000.0 -0.6838533214244455 0.1915261399197284
225042500.0 -0.6149483960237447 0.347257860494999
240042000.0 -0.5115438956535967 0.48209557536119324
255041500.0 -0.378648898484965 0.5877778014465258
270041000.0 -0.22461682414408624 0.6581537960707983
285040500.0 -0.05939335497027913 0.6887877346014128
300040000.0 0.09582026014006376 0.6820408846554803
315039500.0 0.2548890707549175 0.6368947215356927
330039000.0 0.39667930067567 0.5559213097714097
345038500.0 0.5122954931284016 0.4438768936342106
360038000.0 0.5987867852458965 0.30927310658457213
375037500.0 0.649458283981641 0.15964438387331736
390037000.0 0.6628005481766388 0.00584322535364884
405036500.0 0.6398910751588955 -0.14368875424807015
420036000.0 0.5830383961518378 -0.281472099631883
435035500.0 0.4922806573314295 -0.40351247411419533
450035000.0 0.37511290754343535 -0.5022451003513431
465034500.0 0.24083673416886744 -0.5665278040809882
480034000.0 0.097806836809474 -0.59687224052326
495033500.0 -0.046722003235566786 -0.5954720167358785
510033000.0 -0.18298462137095928 -0.5616807270859863
525032500.0 -0.3068212186286454 -0.49833699459530656
540032000.0 -0.40887898119408633 -0.4093125417690855
555031500.0 -0.4875788681110291 -0.30071277142683756
570031000.0 -0.5394306243365233 -0.1792789408155516
585030500.0 -0.5609258781429035 -0.050648608152134574
600030000.0 -0.5539184814262895 0.07007017378001597
615029500.0 -0.5164819559298459 0.1931573544836065
630029000.0 -0.4545398019011759 0.3018335521784249
645028500.0 -0.3691325983622582 0.3945659105742551
660028000.0 -0.26632824283944595 0.4629110761281167
675027500.0 -0.15120908073039063 0.5060227688453562
690027000.0 -0.03181213505393717 0.5227889667629793
705026500.0 0.08871226636553173 0.510738923658785
720026000.0 0.20104902025050683 0.47160985426501534
735025500.0 0.30164170464864354 0.40934001664326886
750025000.0 0.3818149219465903 0.3249856170548999
765024500.0 0.4429929872212059 0.22600528504847217
780024000.0 0.4755024238227714 0.11723472883746765
795023500.0 0.4850549235642455 0.004056806143872413
810023000.0 0.46789232078850373 -0.10678496901850135
825022500.0 0.4257449819050264 -0.20963548002831683
840022000.0 0.3612036618939472 -0.2994141016501244
855021500.0 0.27931521479886484 -0.3721534679234252
870021000.0 0.18758770299271246 -0.4221331866809281
885020500.0 0.0838717661569451 -0.45156735485239646
900020000.0 -0.02119046841666289 -0.4601566906192166
915019500.0 -0.1175871968038664 -0.44097891399691597
930019000.0 -0.2072318892478948 -0.4037548503221847
945018500.0 -0.2869719278600998 -0.34596148523442855
960018000.0 -0.3514954658566494 -0.27808060250206773
975017500.0 -0.4014592851529632 -0.19147186887286657
990017000.0 -0.43020553993897026 -0.10142274068088186
1005016500.0 -0.44120413902984257 -0.00915797712977651
1020016000.0 -0.43127203264439257 0.08869764146892692
1035015500.0 -0.4016057530211891 0.1807782444306476
1050015000.0 -0.349750779721174 0.26156588516713525
1065014500.0 -0.2906166720546987 0.33860461522398577
1080014000.0 -0.21242302301915034 0.3973417651991151
1095013500.0 -0.12720474788880254 0.4392609060073174
1110013000.0 -0.02506662876549934 0.46012630532538984
1125012500.0 0.06549123938794862 0.4535089974202034
1140012000.0 0.16316237352271828 0.4368307008789956
1155011500.0 0.2725362363126327 0.39820786451316564
1170011000.0 0.3255949410205274 0.3256158210962944
1185010500.0 0.4007782379609487 0.2481192785873699
1200010000.0 0.448014861230536 0.14589881908621424
1215009500.0 0.45746072065542576 0.0398722884874442
1230009000.0 0.4501176206416416 -0.06885114198257317
1245008500.0 0.43108972584042815 -0.17066754517042831
1260008000.0 0.3685984711863687 -0.26817109023454766
1275007500.0 0.2863941813634081 -0.3548693603542726
1290007000.0 0.19317732743699345 -0.4202156020916134
1305006500.0 0.08380999784161067 -0.46494768729593494
1320006000.0 -0.029937614074176208 -0.46723507226636507
1335005500.0 -0.16898989952759547 -0.4633070210713723
1350005000.0 -0.2714451290100492 -0.4220781193557886
1365004500.0 -0.3841775815644217 -0.3628694131559274
1380004000.0 -0.45490305542082443 -0.28770741025488844
1395003500.0 -0.5320721110680788 -0.2013627700038233
1410003000.0 -0.5775767891761858 -0.08990838446812524
1425002500.0 -0.5782147047007214 0.009278228769933176
1440002000.0 -0.5761371854926034 0.11749986545065513
1455001500.0 -0.5409827640291839 0.22552933564245697
1470001000.0 -0.4633081375455502 0.29220042067944946
1485000500.0 -0.43672194294809247 0.3688420324303536
1500000000.0 -0.323509168164134 0.41970612006223906
