! Created with skrf 1.8.0 (http://scikit-rf.org).
# Hz S RI R 50.0 
!freq ReS11 ImS11 ReS21 ImS21 ReS12 ImS12 ReS22 ImS22
50000.0 0.0 0.0 -0.814525888 -0.015413084 0.0 0.0 0.0 0.0
15049500.0 0.0 0.0 -0.786538368 0.200226512 0.0 0.0 0.0 0.0
30049000.0 0.0 0.0 -0.71696288 0.375321152 0.0 0.0 0.0 0.0
45048500.0 0.0 0.0 -0.60866816 0.529286144 0.0 0.0 0.0 0.0
60048000.0 0.0 0.0 -0.470514784 0.652007936 0.0 0.0 0.0 0.0
75047500.0 0.0 0.0 -0.3103688 0.738331392 0.0 0.0 0.0 0.0
90047000.0 0.0 0.0 -0.12836936 0.784509568 0.0 0.0 0.0 0.0
105046500.0 0.0 0.0 0.052394736 0.79220352 0.0 0.0 0.0 0.0
120046000.0 0.0 0.0 0.226313392 0.759249024 0.0 0.0 0.0 0.0
135045500.0 0.0 0.0 0.388097696 0.688109632 0.0 0.0 0.0 0.0
150045000.0 0.0 0.0 0.530329344 0.584639744 0.0 0.0 0.0 0.0
165044500.0 0.0 0.0 0.645824128 0.453056736 0.0 0.0 0.0 0.0
180044000.0 0.0 0.0 0.729412032 0.2993232 0.0 0.0 0.0 0.0
195043500.0 0.0 0.0 0.777626752 0.130786568 0.0 0.0 0.0 0.0
210043000.0 0.0 0.0 0.786912128 -0.04525252 0.0 0.0 0.0 0.0
225042500.0 0.0 0.0 0.755963072 -0.2191044 0.0 0.0 0.0 0.0
240042000.0 0.0 0.0 0.68555616 -0.382379904 0.0 0.0 0.0 0.0
255041500.0 0.0 0.0 0.579900224 -0.524675136 0.0 0.0 0.0 0.0
270041000.0 0.0 0.0 0.4450864 -0.638062464 0.0 0.0 0.0 0.0
285040500.0 0.0 0.0 0.287696288 -0.718080192 0.0 0.0 0.0 0.0
300040000.0 0.0 0.0 0.135620656 -0.760234816 0.0 0.0 0.0 0.0
315039500.0 0.0 0.0 -0.035801088 -0.767867008 0.0 0.0 0.0 0.0
330039000.0 0.0 0.0 -0.20380712 -0.739645696 0.0 0.0 0.0 0.0
345038500.0 0.0 0.0 -0.362125472 -0.673596608 0.0 0.0 0.0 0.0
360038000.0 0.0 0.0 -0.499604128 -0.575697408 0.0 0.0 0.0 0.0
375037500.0 0.0 0.0 -0.614364608 -0.45296576 0.0 0.0 0.0 0.0
390037000.0 0.0 0.0 -0.694065856 -0.307020768 0.0 0.0 0.0 0.0
405036500.0 0.0 0.0 -0.744942336 -0.14739792 0.0 0.0 0.0 0.0
420036000.0 0.0 0.0 -0.75236064 0.01890908 0.0 0.0 0.0 0.0
435035500.0 0.0 0.0 -0.719407872 0.18423192 0.0 0.0 0.0 0.0
450035000.0 0.0 0.0 -0.649431872 0.338966592 0.0 0.0 0.0 0.0
465034500.0 0.0 0.0 -0.544372992 0.470381216 0.0 0.0 0.0 0.0
480034000.0 0.0 0.0 -0.415651584 0.573848192 0.0 0.0 0.0 0.0
495033500.0 0.0 0.0 -0.275234752 0.643550464 0.0 0.0 0.0 0.0
510033000.0 0.0 0.0 -0.123181128 0.678738432 0.0 0.0 0.0 0.0
525032500.0 0.0 0.0 0.025300494 0.685048256 0.0 0.0 0.0 0.0
540032000.0 0.0 0.0 0.171904272 0.657312384 0.0 0.0 0.0 0.0
555031500.0 0.0 0.0 0.309082784 0.600339136 0.0 0.0 0.0 0.0
570031000.0 0.0 0.0 0.430254592 0.518252 0.0 0.0 0.0 0.0
585030500.0 0.0 0.0 0.534580832 0.414327392 0.0 0.0 0.0 0.0
600030000.0 0.0 0.0 0.612818176 0.295352384 0.0 0.0 0.0 0.0
615029500.0 0.0 0.0 0.662326016 0.153602736 0.0 0.0 0.0 0.0
630029000.0 0.0 0.0 0.678239552 0.002296287 0.0 0.0 0.0 0.0
645028500.0 0.0 0.0 0.65922496 -0.15028 0.0 0.0 0.0 0.0
660028000.0 0.0 0.0 0.60596992 -0.292749568 0.0 0.0 0.0 0.0
675027500.0 0.0 0.0 0.519145856 -0.418875136 0.0 0.0 0.0 0.0
690027000.0 0.0 0.0 0.40664432 -0.518197056 0.0 0.0 0.0 0.0
705026500.0 0.0 0.0 0.280593856 -0.589460992 0.0 0.0 0.0 0.0
720026000.0 0.0 0.0 0.144254688 -0.627176256 0.0 0.0 0.0 0.0
735025500.0 0.0 0.0 0.005160156 -0.639374464 0.0 0.0 0.0 0.0
750025000.0 0.0 0.0 -0.130676624 -0.617809088 0.0 0.0 0.0 0.0
765024500.0 0.0 0.0 -0.257989584 -0.572256256 0.0 0.0 0.0 0.0
780024000.0 0.0 0.0 -0.37768592 -0.50771392 0.0 0.0 0.0 0.0
795023500.0 0.0 0.0 -0.469315328 -0.406709984 0.0 0.0 0.0 0.0
810023000.0 0.0 0.0 -0.547108224 -0.294283232 0.0 0.0 0.0 0.0
825022500.0 0.0 0.0 -0.596631616 -0.165045328 0.0 0.0 0.0 0.0
840022000.0 0.0 0.0 -0.61864 -0.02771656 0.0 0.0 0.0 0.0
855021500.0 0.0 0.0 -0.607323264 0.112415088 0.0 0.0 0.0 0.0
870021000.0 0.0 0.0 -0.567022464 0.246206528 0.0 0.0 0.0 0.0
885020500.0 0.0 0.0 -0.498956512 0.363255744 0.0 0.0 0.0 0.0
900020000.0 0.0 0.0 -0.378768736 0.47556208 0.0 0.0 0.0 0.0
915019500.0 0.0 0.0 -0.266262416 0.542592896 0.0 0.0 0.0 0.0
930019000.0 0.0 0.0 -0.142244944 0.585606912 0.0 0.0 0.0 0.0
945018500.0 0.0 0.0 -0.015590276 0.604845184 0.0 0.0 0.0 0.0
960018000.0 0.0 0.0 0.106946992 0.595828672 0.0 0.0 0.0 0.0
975017500.0 0.0 0.0 0.22837672 0.56702944 0.0 0.0 0.0 0.0
990017000.0 0.0 0.0 0.3479648 0.507890272 0.0 0.0 0.0 0.0
1005016500.0 0.0 0.0 0.452870208 0.430703424 0.0 0.0 0.0 0.0
1020016000.0 0.0 0.0 0.54772256 0.327777856 0.0 0.0 0.0 0.0
1035015500.0 0.0 0.0 0.615917376 0.20461752 0.0 0.0 0.0 0.0
1050015000.0 0.0 0.0 0.660312256 0.055082904 0.0 0.0 0.0 0.0
1065014500.0 0.0 0.0 0.66961184 -0.092091568 0.0 0.0 0.0 0.0
1080014000.0 0.0 0.0 0.641874432 -0.2513352 0.0 0.0 0.0 0.0
1095013500.0 0.0 0.0 0.57145632 -0.403058336 0.0 0.0 0.0 0.0
1110013000.0 0.0 0.0 0.46943008 -0.530084544 0.0 0.0 0.0 0.0
1125012500.0 0.0 0.0 0.34072336 -0.621529344 0.0 0.0 0.0 0.0
1140012000.0 0.0 0.0 0.184615728 -0.695068736 0.0 0.0 0.0 0.0
1155011500.0 0.0 0.0 0.014014272 -0.746447936 0.0 0.0 0.0 0.0
1170011000.0 0.0 0.0 -0.132259144 -0.718934784 0.0 0.0 0.0 0.0
1185010500.0 0.0 0.0 -0.306775552 -0.682858304 0.0 0.0 0.0 0.0
1200010000.0 0.0 0.0 -0.45856624 -0.619841728 0.0 0.0 0.0 0.0
1215009500.0 0.0 0.0 -0.605328576 -0.509869408 0.0 0.0 0.0 0.0
1230009000.0 0.0 0.0 -0.722108096 -0.382425184 0.0 0.0 0.0 0.0
1245008500.0 0.0 0.0 -0.807140736 -0.228225424 0.0 0.0 0.0 0.0
1260008000.0 0.0 0.0 -0.8627008 -0.057760772 0.0 0.0 0.0 0.0
1275007500.0 0.0 0.0 -0.869389312 0.143711136 0.0 0.0 0.0 0.0
1290007000.0 0.0 0.0 -0.83982624 0.341008256 0.0 0.0 0.0 0.0
1305006500.0 0.0 0.0 -0.751009984 0.531538144 0.0 0.0 0.0 0.0
1320006000.0 0.0 0.0 -0.617861504 0.686447616 0.0 0.0 0.0 0.0
1335005500.0 0.0 0.0 -0.452238912 0.807832768 0.0 0.0 0.0 0.0
1350005000.0 0.0 0.0 -0.278957376 0.892301568 0.0 0.0 0.0 0.0
1365004500.0 0.0 0.0 -0.065705628 0.9420336 0.0 0.0 0.0 0.0
1380004000.0 0.0 0.0 0.114403424 0.941775424 0.0 0.0 0.0 0.0
1395003500.0 0.0 0.0 0.297007776 0.90309632 0.0 0.0 0.0 0.0
1410003000.0 0.0 0.0 0.482465024 0.855258752 0.0 0.0 0.0 0.0
1425002500.0 0.0 0.0 0.622976128 0.749147904 0.0 0.0 0.0 0.0
1440002000.0 0.0 0.0 0.768354048 0.635613184 0.0 0.0 0.0 0.0
1455001500.0 0.0 0.0 0.900308032 0.477109984 0.0 0.0 0.0 0.0
1470001000.0 0.0 0.0 0.996403072 0.302647328 0.0 0.0 0.0 0.0
1485000500.0 0.0 0.0 1.048241376 0.115472984 0.0 0.0 0.0 0.0
1500000000.0 0.0 0.0 1.043987752 -0.093355976 0.0 0.0 0.0 0.0
