! Created with skrf 1.8.0 (http://scikit-rf.org).
# Hz S RI R 50.0 
!freq ReS11 ImS11
50000.0 0.037937819957733154 -0.02138860523700714
10049750.0 0.015071246773004532 0.0008852165192365646
20049500.0 0.015708692371845245 -9.336043149232864e-05
30049250.0 0.014931946992874146 -0.0017988597974181175
40049000.0 0.014531470835208893 -0.003867175430059433
50048750.0 0.01276078075170517 -0.004779142327606678
60048500.0 0.010752301663160324 -0.0062072016298770905
70048250.0 0.008694078773260117 -0.0057381633669137955
80048000.0 0.006584320217370987 -0.005600715056061745
90047750.0 0.005281809717416763 -0.00410954374819994
100047500.0 0.004423003643751144 -0.002986065112054348
110047250.0 0.003604978322982788 -0.001010071486234665
120047000.0 0.0037425532937049866 0.0006547477096319199
130046750.0 0.005023196339607239 0.0022225286811590195
140046500.0 0.005633566528558731 0.00254818145185709
150046250.0 0.007410943508148193 0.0035459520295262337
160046000.0 0.009512487798929214 0.00363887008279562
170045750.0 0.012110363692045212 0.0033652912825345993
180045500.0 0.014406148344278336 0.0020621130242943764
190045250.0 0.01640791818499565 0.00020070187747478485
200045000.0 0.017771735787391663 -0.0020925523713231087
210044750.0 0.018305867910385132 -0.004616198129951954
220044500.0 0.018045123666524887 -0.007385166361927986
230044250.0 0.017248976975679398 -0.010273560881614685
240044000.0 0.016261186450719833 -0.012057499028742313
250043750.0 0.014233119785785675 -0.01429897453635931
260043500.0 0.01175108551979065 -0.015710268169641495
270043250.0 0.008785367012023926 -0.016396228224039078
280043000.0 0.006339613348245621 -0.015856698155403137
290042750.0 0.004303988069295883 -0.014920344576239586
300042500.0 0.0029047541320323944 -0.013185976073145866
310042250.0 0.0014057755470275879 -0.010781345888972282
320042000.0 0.0006074532866477966 -0.00870121642947197
330041750.0 0.0016946196556091309 -0.006644068285822868
340041500.0 0.0029763132333755493 -0.004604533314704895
350041250.0 0.004338458180427551 -0.003322889097034931
360041000.0 0.007187381386756897 -0.0023427559062838554
370040750.0 0.00902574136853218 -0.0017259791493415833
380040500.0 0.011755488812923431 -0.0024765264242887497
390040250.0 0.014517027884721756 -0.0039003314450383186
400040000.0 0.016429971903562546 -0.00654382910579443
410039750.0 0.01759379357099533 -0.009286037646234035
420039500.0 0.01806218922138214 -0.011731207370758057
430039250.0 0.017853304743766785 -0.015109794214367867
440039000.0 0.016467202454805374 -0.017787449061870575
450038750.0 0.015081509947776794 -0.019847381860017776
460038500.0 0.012744918465614319 -0.02200317569077015
470038250.0 0.009670156985521317 -0.023177817463874817
480038000.0 0.007062133401632309 -0.022674135863780975
490037750.0 0.003892708569765091 -0.02253950759768486
500037500.0 0.0019248425960540771 -0.02105582132935524
510037250.0 -0.00025850534439086914 -0.01865936815738678
520037000.0 -0.001252010464668274 -0.01631120778620243
530036750.0 -0.0015870854258537292 -0.013610940426588058
540036500.0 -0.0007225573062896729 -0.010822753421962261
550036250.0 0.0008867606520652771 -0.008836991153657436
560036000.0 0.0029441528022289276 -0.0067336177453398705
570035750.0 0.005928929895162582 -0.005717532709240913
580035500.0 0.009303353726863861 -0.005074869841337204
590035250.0 0.012037623673677444 -0.00597754493355751
600035000.0 0.015464842319488525 -0.006621415726840496
610034750.0 0.01792064681649208 -0.009037855081260204
620034500.0 0.019959066063165665 -0.011784380301833153
630034250.0 0.02154041826725006 -0.014173285104334354
640034000.0 0.022211488336324692 -0.017110945656895638
650033750.0 0.021641217172145844 -0.02110951393842697
660033500.0 0.021203164011240005 -0.02482088841497898
670033250.0 0.018853288143873215 -0.027866560965776443
680033000.0 0.017044760286808014 -0.02998022548854351
690032750.0 0.01378588005900383 -0.03140982985496521
700032500.0 0.011175237596035004 -0.032306648790836334
710032250.0 0.008357230573892593 -0.0318225622177124
720032000.0 0.005496766418218613 -0.030905352905392647
730031750.0 0.003420349210500717 -0.02880280837416649
740031500.0 0.002499602735042572 -0.027391666546463966
750031250.0 0.0009488575160503387 -0.02458905801177025
760031000.0 0.001392066478729248 -0.02207166701555252
770030750.0 0.001756276935338974 -0.019711771979928017
780030500.0 0.003984849900007248 -0.01785431057214737
790030250.0 0.006366461515426636 -0.016613589599728584
800030000.0 0.009267497807741165 -0.015696484595537186
810029750.0 0.01246730238199234 -0.016436057165265083
820029500.0 0.015170156955718994 -0.01752476394176483
830029250.0 0.01726692169904709 -0.018954221159219742
840029000.0 0.019696716219186783 -0.021691249683499336
850028750.0 0.020613841712474823 -0.024131761863827705
860028500.0 0.02173800580203533 -0.027067920193076134
870028250.0 0.022137023508548737 -0.030677398666739464
880028000.0 0.02143734134733677 -0.03445228934288025
890027750.0 0.019533291459083557 -0.037181586027145386
900027500.0 0.016507502645254135 -0.039509117603302
910027250.0 0.013745483011007309 -0.04095395654439926
920027000.0 0.010837621986865997 -0.04241357371211052
930026750.0 0.007873382419347763 -0.042486224323511124
940026500.0 0.004568666219711304 -0.04185278341174126
950026250.0 0.001289326697587967 -0.03978756070137024
960026000.0 -0.0013516955077648163 -0.037355564534664154
970025750.0 -0.0018121004104614258 -0.034521158784627914
980025500.0 -0.00160309299826622 -0.03191233426332474
990025250.0 -0.0013620741665363312 -0.02746066078543663
1000025000.0 0.00026932358741760254 -0.02449435368180275
1010024750.0 0.003134682774543762 -0.021740488708019257
1020024500.0 0.0070066675543785095 -0.02009432017803192
1030024250.0 0.010884951800107956 -0.019691649824380875
1040024000.0 0.016381902620196342 -0.020176172256469727
1050023750.0 0.02059703879058361 -0.021518301218748093
1060023500.0 0.024882718920707703 -0.023930363357067108
1070023250.0 0.0290897898375988 -0.027800682932138443
1080023000.0 0.03193709999322891 -0.033296890556812286
1090022750.0 0.03353654220700264 -0.038730282336473465
1100022500.0 0.03346952050924301 -0.045075032860040665
1110022250.0 0.0325799286365509 -0.0500975102186203
1120022000.0 0.02989766001701355 -0.056608639657497406
1130021750.0 0.028224604204297066 -0.06227859854698181
1140021500.0 0.021422699093818665 -0.06636819988489151
1150021250.0 0.016495848074555397 -0.06951773166656494
1160021000.0 0.010521645657718182 -0.07048341631889343
1170020750.0 0.0036879591643810272 -0.07107090950012207
1180020500.0 -0.0030861608684062958 -0.06855476647615433
1190020250.0 -0.008680608123540878 -0.06561911106109619
1200020000.0 -0.01268092729151249 -0.061074379831552505
1210019750.0 -0.015972184017300606 -0.055448029190301895
1220019500.0 -0.01620652712881565 -0.05008319020271301
1230019250.0 -0.01372985728085041 -0.04341926798224449
1240019000.0 -0.012030716985464096 -0.03798648715019226
1250018750.0 -0.0073590464890003204 -0.033649612218141556
1260018500.0 -0.0018312968313694 -0.02999374270439148
1270018250.0 0.003761531785130501 -0.028682660311460495
1280018000.0 0.011588371358811855 -0.02934170886874199
1290017750.0 0.017088722437620163 -0.03197983652353287
1300017500.0 0.022345520555973053 -0.03671323508024216
1310017250.0 0.028513817116618156 -0.04212018474936485
1320017000.0 0.030661020427942276 -0.049474429339170456
1330016750.0 0.03216560557484627 -0.05754838511347771
1340016500.0 0.030489686876535416 -0.06640739738941193
1350016250.0 0.02558775246143341 -0.0745936930179596
1360016000.0 0.019447537139058113 -0.08151410520076752
1370015750.0 0.012216783128678799 -0.08598531782627106
1380015500.0 0.002368754707276821 -0.087831050157547
1390015250.0 -0.005468405783176422 -0.08841849118471146
1400015000.0 -0.01254135463386774 -0.08669020980596542
1410014750.0 -0.020365053787827492 -0.08184932172298431
1420014500.0 -0.02595553547143936 -0.07613043487071991
1430014250.0 -0.032219298183918 -0.06884486973285675
1440014000.0 -0.03326927497982979 -0.06025255471467972
1450013750.0 -0.03256751969456673 -0.05206702649593353
1460013500.0 -0.02831299789249897 -0.04417828842997551
1470013250.0 -0.022815966978669167 -0.03721940889954567
1480013000.0 -0.01603037118911743 -0.03312035650014877
1490012750.0 -0.007916625589132309 -0.030693627893924713
1500012500.0 0.0020962581038475037 -0.03095865249633789
1510012250.0 0.011653492227196693 -0.03481299430131912
1520012000.0 0.01942860521376133 -0.04069621115922928
1530011750.0 0.024550501257181168 -0.05009494721889496
1540011500.0 0.026999207213521004 -0.05989990010857582
1550011250.0 0.027891691774129868 -0.07078906148672104
1560011000.0 0.024361921474337578 -0.08052338659763336
1570010750.0 0.020152248442173004 -0.09037141501903534
1580010500.0 0.010658778250217438 -0.09903065115213394
1590010250.0 -0.0022177863866090775 -0.10443148016929626
1600010000.0 -0.014158600941300392 -0.10667333006858826
1610009750.0 -0.026093458756804466 -0.10561145842075348
1620009500.0 -0.03894719481468201 -0.1011085957288742
1630009250.0 -0.04595651105046272 -0.09409356117248535
1640009000.0 -0.05482979118824005 -0.08345139026641846
1650008750.0 -0.06091086566448212 -0.07211130112409592
1660008500.0 -0.06101188063621521 -0.05945069342851639
1670008250.0 -0.05941843241453171 -0.04694372043013573
1680008000.0 -0.05321288853883743 -0.036467764526605606
1690007750.0 -0.04565661400556564 -0.026395117864012718
1700007500.0 -0.034413039684295654 -0.01936320960521698
1710007250.0 -0.02276124618947506 -0.016116682440042496
1720007000.0 -0.010759472846984863 -0.0171208493411541
1730006750.0 0.0009257867932319641 -0.02166237123310566
1740006500.0 0.010921832174062729 -0.02883542887866497
1750006250.0 0.018141373991966248 -0.039509981870651245
1760006000.0 0.02178759127855301 -0.050598084926605225
1770005750.0 0.020982589572668076 -0.06473678350448608
1780005500.0 0.017877280712127686 -0.0757644921541214
1790005250.0 0.011257268488407135 -0.0863540768623352
1800005000.0 0.0015166103839874268 -0.09518855810165405
1810004750.0 -0.010580666363239288 -0.09950841963291168
1820004500.0 -0.024661751464009285 -0.10087721049785614
1830004250.0 -0.037301965057849884 -0.10024742782115936
1840004000.0 -0.0519140362739563 -0.09257669746875763
1850003750.0 -0.05995526164770126 -0.08321697264909744
1860003500.0 -0.06874402612447739 -0.071147121489048
1870003250.0 -0.07199667394161224 -0.05607456713914871
1880003000.0 -0.0703340619802475 -0.04173452407121658
1890002750.0 -0.06620699167251587 -0.02746707759797573
1900002500.0 -0.0588705949485302 -0.014358164742588997
1910002250.0 -0.046956658363342285 -0.006570193916559219
1920002000.0 -0.03434547036886215 6.860494613647461e-05
1930001750.0 -0.01909349113702774 0.003043677657842636
1940001500.0 -0.005015674978494644 -0.0003010425716638565
1950001250.0 0.009131848812103271 -0.004258481785655022
1960001000.0 0.021440498530864716 -0.01471840962767601
1970000750.0 0.030658118426799774 -0.026875268667936325
1980000500.0 0.035502128303050995 -0.04089086502790451
1990000250.0 0.03458858281373978 -0.05757226049900055
2000000000.0 0.03044293075799942 -0.07202930748462677
