! Created with skrf 1.8.0 (http://scikit-rf.org).
# Hz S RI R 50.0 
!freq ReS11 ImS11
50000.0 0.02275189425756139 0.01853664622992255
10049750.0 0.03508986478661945 -0.014641967216079042
20049500.0 0.02942445829109391 -0.027540033443716378
30049250.0 0.020800317649918555 -0.03571668068049908
40049000.0 0.00944772752658755 -0.04067118154880687
50048750.0 -0.0023491835222913147 -0.04089400925816225
60048500.0 -0.014288645649822821 -0.03721908290999282
70048250.0 -0.02358037198510772 -0.03025036050719789
80048000.0 -0.03136415628820427 -0.01928941459347009
90047750.0 -0.035291948511045945 -0.003047058642704627
100047500.0 -0.035561513201899445 0.010207533425307946
110047250.0 -0.03286732295966088 0.02069674417676703
120047000.0 -0.027829042488334434 0.02922075034065587
130046750.0 -0.020220666475424764 0.03512260910624369
140046500.0 -0.009934651787246462 0.04887906429689509
150046250.0 0.005514123976773952 0.0462922695710253
160046000.0 0.019531488762072474 0.0378008377737581
170045750.0 0.028878603119311452 0.02656471463638981
180045500.0 0.03499934819354725 0.012813572720697762
190045250.0 0.03509703142051517 -0.00095131526339098
200045000.0 0.031223128656154918 -0.013826914740952078
210044750.0 0.02402262530381639 -0.025487695075681
220044500.0 0.01450603835246161 -0.031851646380185485
230044250.0 0.0029830190452187827 -0.03303945396198848
240044000.0 -0.007952621246380432 -0.031837268163153847
250043750.0 -0.016456701071700726 -0.027333520308331714
260043500.0 -0.02372665191553363 -0.01844123506160516
270043250.0 -0.027958340712087033 -0.00855083101779685
280043000.0 -0.029249283779244253 0.00117886136039407
290042750.0 -0.0272618247846145 0.010836458854031882
300042500.0 -0.023609708019453394 0.016992771472352074
310042250.0 -0.018978563615839234 0.02219363405971343
320042000.0 -0.01386154523269165 0.02342626534976541
330041750.0 -0.007593227003102829 0.024661997514720226
340041500.0 -0.003234454333091893 0.02011550686483384
350041250.0 -7.364960871514741e-07 0.017884223978501482
360041000.0 0.0019510117973532675 0.013134509383043063
370040750.0 0.0022198597351784184 0.007376282763853497
380040500.0 0.002755255706248068 0.005666056664954399
390040250.0 0.0006880569514142061 0.0028771126146148337
400040000.0 -0.00010837625668894303 0.003005035707907446
410039750.0 -0.0011512197799465169 0.0030014168919596097
420039500.0 -0.002261012413605621 0.002205117214921417
430039250.0 -0.0021939622823068995 0.0014916440646721377
440039000.0 -0.00017671522284106462 0.004855690655732863
450038750.0 0.0018290834567738546 0.005359843700854866
460038500.0 0.003238634925822467 0.0038993495632971245
470038250.0 0.0045460966546887315 0.002328453437777764
480038000.0 0.006027906222071333 0.00500621085944434
490037750.0 0.0046257883124231755 0.003282794537665458
500037500.0 0.0014509655509089756 -0.002164723808678318
510037250.0 -0.0010767916654756682 -0.005961881427232692
520037000.0 -0.006392085713446254 -0.008833762707699424
530036750.0 -0.011875489852984708 -0.006724771000542846
540036500.0 -0.01866579370408265 -0.005754309749816552
550036250.0 -0.02243204029055489 -0.0030431899524658926
560036000.0 -0.028837581530147437 0.00066046661527563
570035750.0 -0.03121230540246089 0.008263533196178407
580035500.0 -0.03196951990425388 0.01425689272914275
590035250.0 -0.02939928508188573 0.020670308178298513
600035000.0 -0.025085443905964882 0.029875677378022793
610034750.0 -0.01671023899421729 0.03536073449835245
620034500.0 -0.0064117637662118665 0.03842779239695903
630034250.0 0.0046268887172899445 0.03848913617353343
640034000.0 0.014436714402744142 0.03542598346415572
650033750.0 0.023023387970251753 0.03589460754082305
660033500.0 0.02861718008003299 0.0222868444875158
670033250.0 0.03085967803552518 0.013675676198076697
680033000.0 0.030858144448301122 0.005358120591224281
690032750.0 0.024921151720717846 -0.00838004704298141
700032500.0 0.016078582872695694 -0.01898775798137835
710032250.0 0.0042932519866437134 -0.022447415240158926
720032000.0 -0.008200211748304041 -0.020503548090476095
730031750.0 -0.02142720344900036 -0.016987485860257463
740031500.0 -0.03196545139857592 -0.010109733319213023
750031250.0 -0.03968934427054396 -0.005873652198958426
760031000.0 -0.04393321430276805 0.007278578974794646
770030750.0 -0.04278188381012559 0.01890495523972928
780030500.0 -0.0371661232112815 0.03409039907865623
790030250.0 -0.027233518654110212 0.040873907108712484
800030000.0 -0.014503058009334083 0.04601645024429425
810029750.0 -0.0008545134379050577 0.05007665847805309
820029500.0 0.012882735489794852 0.05014791005087803
830029250.0 0.025382491369998716 0.0458281458861247
840029000.0 0.033426874713015836 0.029330748233185537
850028750.0 0.03676369207634198 0.018014988186884025
860028500.0 0.036631653282964104 0.004472405474658968
870028250.0 0.029515003061385266 -0.0004535263774923565
880028000.0 0.02015852054076346 -0.013287453581463559
890027750.0 0.005672208987837858 -0.01580539775973453
900027500.0 -0.005128364274040217 -0.011746810619542069
910027250.0 -0.021110548949674703 -0.007431312560693348
920027000.0 -0.03069959246370347 0.000666585622913578
930026750.0 -0.0378602762591171 0.010635801959843117
940026500.0 -0.039724545974170584 0.02274792806528205
950026250.0 -0.03779711572766893 0.03512836493611911
960026000.0 -0.029184661578576427 0.04606887129194592
970025750.0 -0.019309975758996786 0.045894185353242946
980025500.0 -0.00425768451062817 0.056138623118251865
990025250.0 0.008924615200155432 0.05572200438147223
1000025000.0 0.020079983645276453 0.04620204314699241
1010024750.0 0.029101662958174568 0.03787299004601524
1020024500.0 0.03436952970271322 0.03155136625301841
1030024250.0 0.035703181376869925 0.015265124463192625
1040024000.0 0.029219838125051873 0.003887374575986569
1050023750.0 0.020090719718063147 -0.002270164034795576
1060023500.0 0.008560968780929365 -0.006188644858392451
1070023250.0 -0.004122866735088844 -0.005395694619105219
1080023000.0 -0.017317477867260584 0.005803747374934171
1090022750.0 -0.02666222326281815 0.013043413711145268
1100022500.0 -0.03378793825180728 0.029712189731392655
1110022250.0 -0.03433156612100343 0.042491862459557855
1120022000.0 -0.031264507832139306 0.05116525189065793
1130021750.0 -0.020267158264886294 0.0663676620268428
1140021500.0 -0.011748656434873248 0.07999240908689036
1150021250.0 0.004505889862351167 0.079105212690145
1160021000.0 0.021632931592283463 0.07774985361157372
1170020750.0 0.039129550506373206 0.06817105906534532
1180020500.0 0.05159427863297875 0.057871239357802993
1190020250.0 0.060366803217401295 0.04473063251722416
1200020000.0 0.06625359259098765 0.02596548565301304
1210019750.0 0.06542028258503457 0.012465764160317467
1220019500.0 0.06100439291514702 -0.002272575055539101
1230019250.0 0.049616718489227815 -0.01876790312747952
1240019000.0 0.03643399327285787 -0.029826967056744508
1250018750.0 0.02137949386013887 -0.026238697015063667
1260018500.0 0.005009383925941579 -0.021981144065246382
1270018250.0 -0.00959393957354333 -0.018680073394974506
1280018000.0 -0.02205097932785128 -0.007002425359013982
1290017750.0 -0.029007060602613502 0.010829525148779903
1300017500.0 -0.0326390834430051 0.03578149061124829
1310017250.0 -0.026299844477183178 0.04512472729305987
1320017000.0 -0.02309346505454176 0.06346899544951724
1330016750.0 -0.009482635221333972 0.06701934945390707
1340016500.0 0.005594850884504039 0.07901266545930023
1350016250.0 0.020083865871243826 0.07128708813497121
1360016000.0 0.037891815794564875 0.07349340915585421
1370015750.0 0.05456177193638391 0.06877442303852856
1380015500.0 0.06625241999350545 0.04755417517507762
1390015250.0 0.07679053611365667 0.02889903441624725
1400015000.0 0.08038508815687367 0.0163067203218172
1410014750.0 0.07838860197501894 -0.0010446878316632707
1420014500.0 0.07711392995175256 -0.0116502150110268
1430014250.0 0.0682698188147155 -0.025296028222132616
1440014000.0 0.05675302443914269 -0.022479846740841275
1450013750.0 0.040720865228661925 -0.03314246544103219
1460013500.0 0.02455188164716214 -0.0347706374650347
1470013250.0 0.00933936068278781 -0.024131308782008833
1480013000.0 -0.002135942928788846 -0.009430099435625155
1490012750.0 -0.012336267638277236 0.00018943311396965517
1500012500.0 -0.01764940360924391 0.011968678515279533
1510012250.0 -0.018639738869531942 0.032764029176998416
1520012000.0 -0.012353631286981852 0.038554313919691864
1530011750.0 -0.008174775931995538 0.06125005705086629
1540011500.0 0.0020721591059102763 0.06333340854244984
1550011250.0 0.015093455388039741 0.06556748774088117
1560011000.0 0.03018190731998326 0.06418624897076057
1570010750.0 0.04613800603280011 0.07517242710197157
1580010500.0 0.062015081218167144 0.06319880988546514
1590010250.0 0.0713217386867915 0.0367944592631792
1600010000.0 0.08362083841284018 0.03397352713525369
1610009750.0 0.0887496716650326 0.020484298481103214
1620009500.0 0.09381129802174232 0.015048260011288882
1630009250.0 0.09190680311238823 0.008794389721889373
1640009000.0 0.08905053446177705 -0.007474016805607941
1650008750.0 0.08559314649143562 -0.020457580133235554
1660008500.0 0.07434632621399899 -0.021714863537301028
1670008250.0 0.0639767874046418 -0.030275799356671216
1680008000.0 0.050750711798713995 -0.03462995642259839
1690007750.0 0.038091869422547144 -0.028808115419127266
1700007500.0 0.02663815141190262 -0.027097094757155934
1710007250.0 0.01603090892867307 -0.010112402614854726
1720007000.0 0.006695496230023566 -0.01241797821963033
1730006750.0 0.0014796455283758207 -0.0031357367253390875
1740006500.0 -0.001175090502651938 0.010278249106539539
1750006250.0 -0.001555821928782662 0.01992999292318647
1760006000.0 0.00335471294714377 0.03070801860391933
1770005750.0 0.01194132502281326 0.05064985140642772
1780005500.0 0.025152798540142386 0.04871889744543111
1790005250.0 0.040981784793062075 0.06194602695758686
1800005000.0 0.057818318013211946 0.06407223233798764
1810004750.0 0.07667150986578164 0.0637043296501171
1820004500.0 0.0932931839503147 0.05578898219415916
1830004250.0 0.10545985505701395 0.03338210304903843
1840004000.0 0.11853527935268675 0.01916530412736423
1850003750.0 0.1218237921107079 0.008473706696464087
1860003500.0 0.12250751333364099 -0.020535021478437436
1870003250.0 0.11515486885293431 -0.03088232157791609
1880003000.0 0.10167564432725298 -0.03679648423979132
1890002750.0 0.08563377163625363 -0.04793288077470269
1900002500.0 0.0649151756145897 -0.06309601974853556
1910002250.0 0.04189412071207478 -0.06157767036051224
1920002000.0 0.02250898868716696 -0.05616495829942242
1930001750.0 0.0034319565925577116 -0.041589775771367715
1940001500.0 -0.010308726629628557 -0.026595815807333677
1950001250.0 -0.011832710745149695 -0.010730917859183777
1960001000.0 -0.01424258362023675 0.011364678508913442
1970000750.0 -0.0023062669779496444 0.026535226950745196
1980000500.0 0.013440514173314207 0.04349460705108916
1990000250.0 0.03365594529716086 0.05838482839152075
2000000000.0 0.061524711845731356 0.06736058092278772
