! Created with skrf 1.8.0 (http://scikit-rf.org).
# Hz S RI R 50.0 
!freq ReS11 ImS11
50000.0 0.5198393273163263 0.16603080797759376
10049750.0 0.9451704636516484 -0.3093308639750653
20049500.0 0.814115036357576 -0.5702645379327875
30049250.0 0.6095408201238854 -0.7862841776217647
40049000.0 0.348209070916835 -0.9333881401802451
50048750.0 0.05471899934942782 -0.9953942348415451
60048500.0 -0.24538387827655303 -0.965842149918009
70048250.0 -0.5235093225357556 -0.8487753817484038
80048000.0 -0.7533985020503943 -0.6545118896322589
90047750.0 -0.9141096665857759 -0.40120791691474517
100047500.0 -0.9936198284490997 -0.10933693445575157
110047250.0 -0.9807469675654561 0.1922240536427026
120047000.0 -0.878690444173955 0.47684287896780175
130046750.0 -0.696858671378229 0.7186605208836846
140046500.0 -0.45799459688056676 0.8664347601396231
150046250.0 -0.1699392624124454 0.9665312584620426
160046000.0 0.12662609240264824 0.9751326802044062
170045750.0 0.41186321933097975 0.8940734634546113
180045500.0 0.6605929581109216 0.731874160581505
190045250.0 0.8499819333820685 0.5025833544002953
200045000.0 0.9620677800000634 0.22514751050395276
210044750.0 0.987222904711133 -0.07228033216779095
220044500.0 0.9210291744549066 -0.3644052772342817
230044250.0 0.7713379000527023 -0.623356013077379
240044000.0 0.5504759767992479 -0.8257832244177091
250043750.0 0.27891269802921836 -0.9538340327439793
260043500.0 -0.01868588838990401 -0.9944663921224264
270043250.0 -0.31448276476331305 -0.9447913853665767
280043000.0 -0.5847221254281724 -0.8067146946426913
290042750.0 -0.7995853028176666 -0.5964562579263248
300042500.0 -0.9419445684654404 -0.3304831632979376
310042250.0 -0.9987319305001856 -0.033000335913303695
320042000.0 -0.9639761307612671 0.26804387547210634
330041750.0 -0.8402353500007242 0.5451424744770802
340041500.0 -0.6390971974653604 0.7716493050887823
350041250.0 -0.37958706418026006 0.9270044956153877
360041000.0 -0.08481182084813993 0.9993841463448243
370040750.0 0.21969502438956998 0.9783819616990664
380040500.0 0.5038800763634272 0.8670221649089871
390040250.0 0.7384812358361793 0.6776602671362689
400040000.0 0.9091429671408123 0.4229870846484084
410039750.0 0.9944947371833532 0.13089889949237782
420039500.0 0.9886499110950518 -0.16883771993492572
430039250.0 0.8931572614148433 -0.45608829647038607
440039000.0 0.7143422634947781 -0.7037657765128486
450038750.0 0.4707926930475094 -0.8855190248469074
460038500.0 0.18495295907779544 -0.9850177062145297
470038250.0 -0.1209001138422833 -0.9943339369168702
480038000.0 -0.40989009867991616 -0.9132224188174591
490037750.0 -0.6664591843668982 -0.7466187698634862
500037500.0 -0.8579034822413502 -0.5134813427202201
510037250.0 -0.9721417295855204 -0.23208665772115292
520037000.0 -0.9953376987353874 0.06937649293780451
530036750.0 -0.9299835788800362 0.36120082680372306
540036500.0 -0.7766308459392245 0.6230986188563892
550036250.0 -0.5500140554105115 0.8277530966725101
560036000.0 -0.2822609422558104 0.9522966909093649
570035750.0 0.018050832229505633 0.9919642542941651
580035500.0 0.3125961416098364 0.9391601885848567
590035250.0 0.5787175813331118 0.8001363587728652
600035000.0 0.7916979598917921 0.5910617874243805
610034750.0 0.9300304880629439 0.3262925804336568
620034500.0 0.9839944820492817 0.03307536632678353
630034250.0 0.9472097709305825 -0.2583861524978117
640034000.0 0.8241903203700235 -0.5306558586446092
650033750.0 0.6258077607112529 -0.7528301854830118
660033500.0 0.3689972497592833 -0.9019063974115787
670033250.0 0.08297574366348476 -0.971110301832844
680033000.0 -0.20458495142574443 -0.9506336075786034
690032750.0 -0.4806384578134984 -0.84200850268811
700032500.0 -0.7108483968586654 -0.6567939565341226
710032250.0 -0.8726250508442945 -0.41379169332080895
720032000.0 -0.9521886209636178 -0.13759736741800663
730031750.0 -0.9466127471888655 0.153778368943978
740031500.0 -0.8557339601763808 0.4263886126515207
750031250.0 -0.6851550010500633 0.6634099025073841
760031000.0 -0.4579552836492873 0.832275216386947
770030750.0 -0.19071738942143684 0.9282171931135145
780030500.0 0.09773344043649806 0.9387583404756286
790030250.0 0.36730708920329086 0.8677996586877232
800030000.0 0.6088478483509235 0.7138819247014928
810029750.0 0.7901519897752339 0.5020660915207111
820029500.0 0.9007841272715065 0.2427311640972523
830029250.0 0.9298718409292251 -0.032172064726709686
840029000.0 0.8740729791470754 -0.3086028410827642
850028750.0 0.7429829212029954 -0.5514339319140764
860028500.0 0.54303048291913 -0.7455470722350295
870028250.0 0.2969128086418348 -0.8724000151768565
880028000.0 0.029896118392120457 -0.9166934735791223
890027750.0 -0.24744130174802592 -0.8793157329477661
900027500.0 -0.492549013137475 -0.768074651942571
910027250.0 -0.7025829100566671 -0.5789628501579418
920027000.0 -0.8369805846494025 -0.34951393098316774
930026750.0 -0.9009790260987378 -0.09112376785307078
940026500.0 -0.8844046277780279 0.1811751321322895
950026250.0 -0.7905779635871464 0.43070463219013083
960026000.0 -0.6254346757499983 0.6460106675406165
970025750.0 -0.40633613315360734 0.8000070170763581
980025500.0 -0.14819427839839244 0.8844371358828406
990025250.0 0.12030946507885885 0.8863882987281655
1000025000.0 0.37186522385907583 0.8150455481139177
1010024750.0 0.5969215472605643 0.6650944464541054
1020024500.0 0.7685470154534583 0.4587903717605259
1030024250.0 0.8690803688836031 0.21034309041768337
1040024000.0 0.892162346483781 -0.05497199245179261
1050023750.0 0.8353906553569371 -0.31766162783078156
1060023500.0 0.7097062800417973 -0.5445128186751195
1070023250.0 0.511444696112842 -0.7326061838929964
1080023000.0 0.2680590081847304 -0.8520461373764626
1090022750.0 0.00013856976999958892 -0.891416887429585
1100022500.0 -0.26241048700299574 -0.8496521889925835
1110022250.0 -0.49947881995414584 -0.7399576124287582
1120022000.0 -0.6984575028357232 -0.5523362261890863
1130021750.0 -0.8300573757188436 -0.3181435788005302
1140021500.0 -0.8866482310333063 -0.062293659703601394
1150021250.0 -0.8641876025013235 0.20347940158560898
1160021000.0 -0.762462126147927 0.45657671947320727
1170020750.0 -0.5955505858835569 0.6582831142199718
1180020500.0 -0.3755585696244829 0.8037370241243184
1190020250.0 -0.11443470138544938 0.8793756682059958
1200020000.0 0.1503533990389557 0.8759383124117975
1210019750.0 0.40044517774859384 0.7925080279663159
1220019500.0 0.6179427204485121 0.6385431888428126
1230019250.0 0.7790298016403465 0.4264572529882089
1240019000.0 0.8723164176155898 0.17192110113232942
1250018750.0 0.8842161212414075 -0.10037287257488614
1260018500.0 0.8169109123673743 -0.35511912136785595
1270018250.0 0.6728713388312706 -0.5805035142024242
1280018000.0 0.46692174059204106 -0.7581238212811383
1290017750.0 0.22161128174725506 -0.8621929970162855
1300017500.0 -0.057297130894614946 -0.8876631155916255
1310017250.0 -0.3125570980244014 -0.8294888173259771
1320017000.0 -0.545110993722303 -0.6903849777183182
1330016750.0 -0.7250114467994495 -0.5098700194659546
1340016500.0 -0.8444056821052395 -0.2625931438534568
1350016250.0 -0.8818358863853867 -0.0018025879267435955
1360016000.0 -0.8398810375969237 0.2620671328536524
1370015750.0 -0.7201436137087407 0.5021740052270921
1380015500.0 -0.5323361867533366 0.6894313858789243
1390015250.0 -0.3173145669691521 0.8195099737084298
1400015000.0 -0.05276751437344964 0.8751919022722706
1410014750.0 0.21220298926590508 0.8529384485390903
1420014500.0 0.44778589425823256 0.7530363201551366
1430014250.0 0.6605343514180662 0.5787172343393044
1440014000.0 0.7964435975126868 0.36306503652396416
1450013750.0 0.8713406099125351 0.10223741022373707
1460013500.0 0.8625143050370309 -0.15910110734875066
1470013250.0 0.7694045002744934 -0.41882490971916053
1480013000.0 0.6117490865580738 -0.6263482488878078
1490012750.0 0.39200062632911953 -0.7803475573148022
1500012500.0 0.13613040328767997 -0.8589551616790594
1510012250.0 -0.11825268617656495 -0.8634925683064837
1520012000.0 -0.3723863812822422 -0.7867521781340048
1530011750.0 -0.5895913253326251 -0.6340101384703798
1540011500.0 -0.7543011022404235 -0.4233347025035585
1550011250.0 -0.8438635277736797 -0.17720238786545867
1560011000.0 -0.8549931288129562 0.09074162565706775
1570010750.0 -0.7886901504380905 0.33266488860595944
1580010500.0 -0.6555038143971396 0.5463025328319482
1590010250.0 -0.4648346903498302 0.713784304215569
1600010000.0 -0.22522689798049142 0.8186345025209071
1610009750.0 0.028871490247379155 0.8480952807158239
1620009500.0 0.2898102853809106 0.7934577378334582
1630009250.0 0.5057023763948292 0.6742775134545186
1640009000.0 0.6842517419995947 0.4943384843445558
1650008750.0 0.7967703157797468 0.2708632962482402
1660008500.0 0.8400718917117539 0.020268570391123092
1670008250.0 0.802694747539452 -0.24485930114387477
1680008000.0 0.6956130827772254 -0.4693943118978409
1690007750.0 0.522760180474695 -0.653867657098075
1700007500.0 0.309585640071183 -0.7740439768004183
1710007250.0 0.06263879186120326 -0.8290926237945707
1720007000.0 -0.19957739564902766 -0.8080854862396931
1730006750.0 -0.42996398214566106 -0.7100119285458135
1740006500.0 -0.6174496926401315 -0.5468794224683221
1750006250.0 -0.7485501842064917 -0.3418508495304183
1760006000.0 -0.8146989050576334 -0.09827317893409454
1770005750.0 -0.8027585134636167 0.16046197732320983
1780005500.0 -0.7138849479614704 0.39071843270388784
1790005250.0 -0.5634897296776252 0.5812878398582274
1800005000.0 -0.3658481495950685 0.717009360988471
1810004750.0 -0.13278589721667852 0.7916062597349561
1820004500.0 0.10755647606787574 0.7903165487709705
1830004250.0 0.3356160096358767 0.7194435920295207
1840004000.0 0.5313613868816094 0.5853259211290608
1850003750.0 0.6759565163545191 0.40612306711604973
1860003500.0 0.7629098107353269 0.18813447933818694
1870003250.0 0.781957676488025 -0.05177528254043881
1880003000.0 0.7232252020010402 -0.2939004997100238
1890002750.0 0.6104247695800353 -0.486249089733212
1900002500.0 0.4340337917636176 -0.6485077725264701
1910002250.0 0.2278137625149453 -0.7458981742166283
1920002000.0 -0.006100486835733167 -0.7854173690773796
1930001750.0 -0.23322055003371223 -0.748048575221046
1940001500.0 -0.44325123315575377 -0.6483659617264748
1950001250.0 -0.6297385352687469 -0.46420986544297066
1960001000.0 -0.7413018083856109 -0.25131238685609586
1970000750.0 -0.7801732204879849 -0.020409089132969797
1980000500.0 -0.7522587943695904 0.2082185040255897
1990000250.0 -0.655121640490149 0.4203603878484484
2000000000.0 -0.5022569447781556 0.5903530493364894
