! Created with skrf 1.8.0 (http://scikit-rf.org).
# Hz S RI R 50.0 
!freq ReS11 ImS11
50000.0 0.665854464 -0.010533356
15049500.0 0.664399168 -0.041115936
30049000.0 0.661776 -0.066487492
45048500.0 0.65819136 -0.0909988
60048000.0 0.653617728 -0.115449376
75047500.0 0.648065408 -0.138747104
90047000.0 0.641377152 -0.160513008
105046500.0 0.634162752 -0.183501456
120046000.0 0.626218112 -0.205450624
135045500.0 0.617233856 -0.226744032
150045000.0 0.607755712 -0.248380832
165044500.0 0.597470912 -0.268963744
180044000.0 0.586081856 -0.289565472
195043500.0 0.57344096 -0.309799296
210043000.0 0.560781568 -0.329681248
225042500.0 0.547090432 -0.348993952
240042000.0 0.53244336 -0.367533472
255041500.0 0.51690496 -0.386289504
270041000.0 0.500893728 -0.404227552
285040500.0 0.48389728 -0.420707424
300040000.0 0.470423808 -0.429414816
315039500.0 0.454278176 -0.442986112
330039000.0 0.43790608 -0.454949184
345038500.0 0.4200632 -0.468014336
360038000.0 0.401805952 -0.479428672
375037500.0 0.3855384 -0.491707936
390037000.0 0.370866112 -0.498380544
405036500.0 0.35118736 -0.51121008
420036000.0 0.33374 -0.520760608
435035500.0 0.318490816 -0.527875968
450035000.0 0.29686688 -0.534630368
465034500.0 0.281108032 -0.53978464
480034000.0 0.262232304 -0.54563808
495033500.0 0.244750976 -0.55016544
510033000.0 0.226652208 -0.555633792
525032500.0 0.209094608 -0.558030336
540032000.0 0.191515792 -0.560340416
555031500.0 0.17364376 -0.56477472
570031000.0 0.158063856 -0.563699648
585030500.0 0.137730432 -0.566995776
600030000.0 0.125033064 -0.573659712
615029500.0 0.107632008 -0.573030016
630029000.0 0.093582696 -0.57556832
645028500.0 0.075151832 -0.573677888
660028000.0 0.061960528 -0.574160192
675027500.0 0.046064752 -0.572133824
690027000.0 0.03146911 -0.571333888
705026500.0 0.017459416 -0.56776992
720026000.0 0.001169916 -0.568349056
735025500.0 -0.009485234 -0.564782464
750025000.0 -0.022030776 -0.562722368
765024500.0 -0.033933736 -0.561752192
780024000.0 -0.05597596 -0.566984384
795023500.0 -0.059282792 -0.556306048
810023000.0 -0.069379152 -0.55132384
825022500.0 -0.082429096 -0.55203072
840022000.0 -0.091111832 -0.548003328
855021500.0 -0.105185528 -0.546705536
870021000.0 -0.114159864 -0.543432
885020500.0 -0.131413384 -0.540779648
900020000.0 -0.124386592 -0.54215488
915019500.0 -0.13541232 -0.543306944
930019000.0 -0.142655552 -0.546502336
945018500.0 -0.15153176 -0.544952256
960018000.0 -0.164453232 -0.550093952
975017500.0 -0.175681952 -0.556224832
990017000.0 -0.183375664 -0.559156032
1005016500.0 -0.1960228 -0.562105856
1020016000.0 -0.209235072 -0.566159488
1035015500.0 -0.222205216 -0.56527072
1050015000.0 -0.256202256 -0.576121536
1065014500.0 -0.256194208 -0.574510528
1080014000.0 -0.271087168 -0.576674432
1095013500.0 -0.290159392 -0.584592192
1110013000.0 -0.308554432 -0.589904128
1125012500.0 -0.324200192 -0.57758464
1140012000.0 -0.351189664 -0.584840896
1155011500.0 -0.369177152 -0.599072064
1170011000.0 -0.418510432 -0.57505056
1185010500.0 -0.42070656 -0.581087936
1200010000.0 -0.442040064 -0.579322432
1215009500.0 -0.46777088 -0.56845312
1230009000.0 -0.491728192 -0.582254976
1245008500.0 -0.531206304 -0.563370112
1260008000.0 -0.564557568 -0.555698752
1275007500.0 -0.602498112 -0.552719616
1290007000.0 -0.624558528 -0.528093568
1305006500.0 -0.665647424 -0.507014976
1320006000.0 -0.707756864 -0.489498688
1335005500.0 -0.725555712 -0.480694336
1350005000.0 -0.752991232 -0.4427256
1365004500.0 -0.772965568 -0.463561312
1380004000.0 -0.800044288 -0.380575968
1395003500.0 -0.839087808 -0.354483744
1410003000.0 -0.858254272 -0.304872928
1425002500.0 -0.855003456 -0.278199104
1440002000.0 -0.879626944 -0.234101216
1455001500.0 -0.89614048 -0.1791104
1470001000.0 -0.89744992 -0.159906368
1485000500.0 -0.915290048 -0.101278112
1500000000.0 -0.91288096 -0.070565352
