! Created with skrf 1.8.0 (http://scikit-rf.org).
# Hz S RI R 50.0 
!freq ReS11 ImS11
50000.0 0.666360512 -0.010684958
15049500.0 0.664244352 -0.041587088
30049000.0 0.661493952 -0.066673404
45048500.0 0.657909184 -0.091270032
60048000.0 0.653483968 -0.11556148
75047500.0 0.647959872 -0.138726016
90047000.0 0.6411232 -0.160787024
105046500.0 0.634019904 -0.183740832
120046000.0 0.626071232 -0.205806096
135045500.0 0.617667456 -0.22769552
150045000.0 0.607334528 -0.248749472
165044500.0 0.596813056 -0.269273184
180044000.0 0.585429952 -0.289848224
195043500.0 0.573080576 -0.3104184
210043000.0 0.560330176 -0.330110528
225042500.0 0.546716096 -0.34923072
240042000.0 0.532094176 -0.367925856
255041500.0 0.5163952 -0.386764736
270041000.0 0.500075648 -0.404626016
285040500.0 0.483379616 -0.42116768
300040000.0 0.470785536 -0.428993728
315039500.0 0.453385664 -0.443973952
330039000.0 0.43690224 -0.45599456
345038500.0 0.41940016 -0.469141984
360038000.0 0.400871424 -0.48085712
375037500.0 0.384751456 -0.492238016
390037000.0 0.369670048 -0.508961632
405036500.0 0.350677664 -0.511844576
420036000.0 0.333807616 -0.520029664
435035500.0 0.316213952 -0.52710496
450035000.0 0.295894176 -0.533563616
465034500.0 0.279826144 -0.540947008
480034000.0 0.262016416 -0.546050816
495033500.0 0.245271344 -0.550396608
510033000.0 0.225595088 -0.55497248
525032500.0 0.207228496 -0.560102848
540032000.0 0.190201408 -0.561146176
555031500.0 0.174101472 -0.563453248
570031000.0 0.15603896 -0.564253312
585030500.0 0.138001888 -0.56722432
600030000.0 0.123988248 -0.571620032
615029500.0 0.10678176 -0.575082688
630029000.0 0.090982016 -0.574680832
645028500.0 0.076338824 -0.57219072
660028000.0 0.060702004 -0.571463936
675027500.0 0.045731016 -0.571636608
690027000.0 0.02901009 -0.570764224
705026500.0 0.015259906 -0.569622144
720026000.0 0.002408673 -0.566126464
735025500.0 -0.011220076 -0.565082368
750025000.0 -0.024965722 -0.562928576
765024500.0 -0.035461624 -0.56093344
780024000.0 -0.057793844 -0.553934912
795023500.0 -0.058931864 -0.555920064
810023000.0 -0.0712268 -0.555277056
825022500.0 -0.081468384 -0.550380032
840022000.0 -0.091551976 -0.547404736
855021500.0 -0.105515984 -0.545528704
870021000.0 -0.113549472 -0.54807104
885020500.0 -0.127609136 -0.540840064
900020000.0 -0.12318992 -0.54773568
915019500.0 -0.13454888 -0.543362688
930019000.0 -0.146196048 -0.547798464
945018500.0 -0.155367456 -0.547705344
960018000.0 -0.166361984 -0.548100928
975017500.0 -0.176416 -0.556373568
990017000.0 -0.186741136 -0.55616256
1005016500.0 -0.200911264 -0.560296896
1020016000.0 -0.207425568 -0.56375456
1035015500.0 -0.226488256 -0.569488064
1050015000.0 -0.239876864 -0.586102144
1065014500.0 -0.262234832 -0.576816448
1080014000.0 -0.275323456 -0.584777088
1095013500.0 -0.284337088 -0.584706624
1110013000.0 -0.306396768 -0.590114304
1125012500.0 -0.31899776 -0.579500928
1140012000.0 -0.347207648 -0.590972736
1155011500.0 -0.396881952 -0.592565376
1170011000.0 -0.396575008 -0.589773568
1185010500.0 -0.421758272 -0.584720064
1200010000.0 -0.448854656 -0.580177792
1215009500.0 -0.478944768 -0.58521024
1230009000.0 -0.51048576 -0.57616896
1245008500.0 -0.537349312 -0.568590656
1260008000.0 -0.567088256 -0.57112672
1275007500.0 -0.60148384 -0.563489728
1290007000.0 -0.634486976 -0.54160384
1305006500.0 -0.68346528 -0.522303808
1320006000.0 -0.69508256 -0.504638784
1335005500.0 -0.73565856 -0.486783104
1350005000.0 -0.771431616 -0.457424864
1365004500.0 -0.83576832 -0.370019328
1380004000.0 -0.816185088 -0.39085184
1395003500.0 -0.83968992 -0.36594992
1410003000.0 -0.863908352 -0.315788224
1425002500.0 -0.868601728 -0.256783808
1440002000.0 -0.898870144 -0.230111664
1455001500.0 -0.88255744 -0.195393616
1470001000.0 -0.899054208 -0.163156208
1485000500.0 -0.918587328 -0.102616424
1500000000.0 -0.899541376 -0.061363456
