! Created with skrf 1.8.0 (http://scikit-rf.org).
# Hz S RI R 50.0 
!freq ReS11 ImS11
50000.0 0.007253271 -0.004111504
15049500.0 0.009534372 0.000108949
30049000.0 0.011005686 -0.001120918
45048500.0 0.01239943 -0.003021359
60048000.0 0.013661334 -0.005482697
75047500.0 0.014426158 -0.00853685
90047000.0 0.015321808 -0.011512656
105046500.0 0.015410206 -0.015286904
120046000.0 0.014981848 -0.019175942
135045500.0 0.013848946 -0.023062414
150045000.0 0.01227359 -0.026816356
165044500.0 0.010021666 -0.030337934
180044000.0 0.007289088 -0.033574316
195043500.0 0.00397899 -0.036204512
210043000.0 0.000478027 -0.03819456
225042500.0 -0.003164783 -0.039457504
240042000.0 -0.006281192 -0.040694828
255041500.0 -0.010427634 -0.04052736
270041000.0 -0.013708666 -0.040040304
285040500.0 -0.016497298 -0.038937724
300040000.0 -0.01792521 -0.037268572
315039500.0 -0.019508694 -0.035890052
330039000.0 -0.020311824 -0.034337376
345038500.0 -0.020163956 -0.032939936
360038000.0 -0.020395238 -0.031690228
375037500.0 -0.01930964 -0.030807076
390037000.0 -0.018201048 -0.030533584
405036500.0 -0.015924476 -0.030515188
420036000.0 -0.014243126 -0.031777986
435035500.0 -0.012176686 -0.033372976
450035000.0 -0.010722942 -0.035783308
465034500.0 -0.009281418 -0.038656536
480034000.0 -0.008094324 -0.042439972
495033500.0 -0.007993538 -0.046420976
510033000.0 -0.008877422 -0.050499828
525032500.0 -0.010445444 -0.055245532
540032000.0 -0.011770396 -0.059915552
555031500.0 -0.014736088 -0.064522132
570031000.0 -0.01800983 -0.068190784
585030500.0 -0.022357088 -0.071490192
600030000.0 -0.026990874 -0.075209048
615029500.0 -0.032159772 -0.077504656
630029000.0 -0.038116284 -0.07940748
645028500.0 -0.043917392 -0.080003616
660028000.0 -0.048809652 -0.079301632
675027500.0 -0.054276704 -0.079129736
690027000.0 -0.059391004 -0.07695816
705026500.0 -0.063346692 -0.074899792
720026000.0 -0.067169728 -0.0713456
735025500.0 -0.070410656 -0.06829768
750025000.0 -0.072638024 -0.065307156
765024500.0 -0.073368696 -0.061265916
780024000.0 -0.073122576 -0.057312956
795023500.0 -0.073170576 -0.055555676
810023000.0 -0.072279968 -0.053054968
825022500.0 -0.070937344 -0.051170604
840022000.0 -0.06826388 -0.050197828
855021500.0 -0.066766264 -0.0496907
870021000.0 -0.064805144 -0.050883336
885020500.0 -0.061771772 -0.052363364
900020000.0 -0.061692432 -0.05414954
915019500.0 -0.057177656 -0.060370696
930019000.0 -0.058027636 -0.063579024
945018500.0 -0.0571081 -0.067774952
960018000.0 -0.059457552 -0.074278376
975017500.0 -0.058315912 -0.076833128
990017000.0 -0.061045384 -0.084571
1005016500.0 -0.06586858 -0.08865644
1020016000.0 -0.07000968 -0.093642576
1035015500.0 -0.075900888 -0.098359912
1050015000.0 -0.08508476 -0.101849536
1065014500.0 -0.090751016 -0.106476648
1080014000.0 -0.099351688 -0.11081912
1095013500.0 -0.111726712 -0.110830888
1110013000.0 -0.120390112 -0.108813928
1125012500.0 -0.130297752 -0.102805416
1140012000.0 -0.136884816 -0.101667016
1155011500.0 -0.139281392 -0.094542432
1170011000.0 -0.145188976 -0.096293112
1185010500.0 -0.155606592 -0.084046472
1200010000.0 -0.158774768 -0.077835024
1215009500.0 -0.163169088 -0.071797632
1230009000.0 -0.16189792 -0.064655036
1245008500.0 -0.168959728 -0.061215604
1260008000.0 -0.16483072 -0.051433552
1275007500.0 -0.172505488 -0.048981084
1290007000.0 -0.168570528 -0.046040308
1305006500.0 -0.163079056 -0.035103272
1320006000.0 -0.16377128 -0.031106016
1335005500.0 -0.166929328 -0.041112748
1350005000.0 -0.1638716 -0.035080076
1365004500.0 -0.156664992 -0.041474588
1380004000.0 -0.159452448 -0.03838274
1395003500.0 -0.171977376 -0.040361336
1410003000.0 -0.174336 -0.037776144
1425002500.0 -0.165744016 -0.045806488
1440002000.0 -0.171919616 -0.057583928
1455001500.0 -0.18887816 -0.0592746
1470001000.0 -0.17590416 -0.0598559
1485000500.0 -0.196001984 -0.066010648
1500000000.0 -0.2107388 -0.059715844
