! Created with skrf 1.8.0 (http://scikit-rf.org).
# Hz S RI R 50.0 
!freq ReS11 ImS11
50000.0 -0.14899482087146687 -0.0037866427802926298
15049500.0 -0.14053343339894755 0.037897479672657525
30049000.0 -0.12586266378177688 0.07166315310197122
45048500.0 -0.10410014706230314 0.10063741860717249
60048000.0 -0.07695771244580671 0.12339411707122952
75047500.0 -0.045532341563030154 0.13934132456422857
90047000.0 -0.009825009513726595 0.1481846953794707
105046500.0 0.02490950192698447 0.14838926120750404
120046000.0 0.05851777929905872 0.14130141866899157
135045500.0 0.08994041164310315 0.1266047955107991
150045000.0 0.11620598009867329 0.10493632520844359
165044500.0 0.1363228598187204 0.07804242652059405
180044000.0 0.1502359170099618 0.04672781572046157
195043500.0 0.15623292488559767 0.012788005436697171
210043000.0 0.1549358886713579 -0.022079469814126652
225042500.0 0.14480166955816468 -0.054824581651859286
240042000.0 0.12898516856730927 -0.08438329185985334
255041500.0 0.10369827151768421 -0.1092864147926544
270041000.0 0.07498802942975052 -0.12798478984514633
285040500.0 0.03952250900063225 -0.13967075086224934
300040000.0 -0.00046401884343932187 -0.1401960013521584
315039500.0 -0.03696625269365063 -0.1352319164299897
330039000.0 -0.06966630451218375 -0.11986379630146779
345038500.0 -0.10011321189360325 -0.10068780530819921
360038000.0 -0.12597684733178582 -0.07402066326202401
375037500.0 -0.14477314232435293 -0.04200647224564456
390037000.0 -0.15267911950845417 -0.006326136211563078
405036500.0 -0.15772743391737434 0.031102421313906777
420036000.0 -0.15105252150205634 0.06769523830188923
435035500.0 -0.13571880218297203 0.10204806394388806
450035000.0 -0.10874344555310514 0.1336350657867236
465034500.0 -0.08013876571868295 0.15688812398529298
480034000.0 -0.04507781482246279 0.173154155685885
495033500.0 -0.007516165484398276 0.18406779929806433
510033000.0 0.03240983530562613 0.18631523234421113
525032500.0 0.06882559362787229 0.18020134699321544
540032000.0 0.10422249528005641 0.16554415746250867
555031500.0 0.13658512626108052 0.1452612342693477
570031000.0 0.16434418309653095 0.116310146206142
585030500.0 0.18492636894634049 0.0839902490872186
600030000.0 0.19887597336691284 0.04568592293344921
615029500.0 0.20295551427380965 0.0055183222774887715
630029000.0 0.1976303149606285 -0.036089688614311166
645028500.0 0.18231892494820814 -0.07208119209837384
660028000.0 0.1625560205893526 -0.10608372415173845
675027500.0 0.13413804137214494 -0.1276680247303627
690027000.0 0.09880212560515525 -0.1518788491731556
705026500.0 0.060950161742914385 -0.15856108190689286
720026000.0 0.020943336537466106 -0.16041202870271623
735025500.0 -0.0180891083039802 -0.1512363044588972
750025000.0 -0.05462657739859906 -0.13059786972515186
765024500.0 -0.09067877008317247 -0.10813481609712025
780024000.0 -0.1167439882211702 -0.08001685838926852
795023500.0 -0.13866026288101146 -0.040256075162012454
810023000.0 -0.14669243183136293 0.001115784371466306
825022500.0 -0.1482862507037502 0.04390938800728327
840022000.0 -0.1405458837139244 0.07961318678707058
855021500.0 -0.12027601953443773 0.114879016736643
870021000.0 -0.09156254851345849 0.14767233128992782
885020500.0 -0.0601588671408474 0.16488211536104042
900020000.0 -0.03220017655343613 0.2082288661865084
915019500.0 0.001951723790894183 0.20082696564499192
930019000.0 0.04087197439520772 0.20229573638535003
945018500.0 0.08540668523181406 0.18713913362369672
960018000.0 0.12267866945520824 0.16729035174679527
975017500.0 0.16227383870018766 0.13988274211362736
990017000.0 0.19136867363290377 0.09929532300250235
1005016500.0 0.20711639807623508 0.05469755316974288
1020016000.0 0.22673147774594482 0.012262949997608486
1035015500.0 0.2237450589472348 -0.035070639306509825
1050015000.0 0.20752865602396212 -0.09222925441901107
1065014500.0 0.21141492389520797 -0.12231131800192124
1080014000.0 0.184949707793944 -0.162217048389006
1095013500.0 0.1649785583418662 -0.20114672355033908
1110013000.0 0.12923588432799865 -0.21393945559711636
1125012500.0 0.08520095618876682 -0.23255622798305653
1140012000.0 0.047600199510251365 -0.21233142382276593
1155011500.0 -0.0017156148531346643 -0.1697367212675791
1170011000.0 -0.009271126718708063 -0.1683284566292012
1185010500.0 -0.06600042954954839 -0.16064369325659061
1200010000.0 -0.10029783036457082 -0.1136812009414829
1215009500.0 -0.11618226084368152 -0.07481963481189263
1230009000.0 -0.12498847953651608 -0.02889598826267677
1245008500.0 -0.1142834571311833 0.032135630408154155
1260008000.0 -0.11958919683269653 0.07653939547556135
1275007500.0 -0.08866025808187064 0.11876561201631423
1290007000.0 -0.047134794522376774 0.13673613057119405
1305006500.0 0.0061433921363270765 0.1453230872816679
1320006000.0 0.04387574588897039 0.1513337082983762
1335005500.0 0.09128474591841146 0.14456426385562843
1350005000.0 0.12987829143465468 0.10808686025673082
1365004500.0 0.16934249939437368 0.062253127097640644
1380004000.0 0.22597792776910958 0.01745970659164564
1395003500.0 0.26889802856419265 -0.02776883734823655
1410003000.0 0.2780221701835937 -0.07833639393595145
1425002500.0 0.33001294039407847 -0.1577152814161389
1440002000.0 0.34847598915749456 -0.22517746162041635
1455001500.0 0.3322387970859483 -0.27980196380822514
1470001000.0 0.3588780864764868 -0.29987961711493977
1485000500.0 0.33456604246239857 -0.3716197182875577
1500000000.0 0.3010602487016296 -0.3795404511450833
