! Created with skrf 1.8.0 (http://scikit-rf.org).
# Hz S RI R 50.0 
!freq ReS11 ImS11
50000.0 -2.6851009327217636 4.5051466543732
15049500.0 -0.1724988256342576 -2.5468880270678964
30049000.0 -0.08887246448909589 0.04320826413270946
45048500.0 1.2934617632327108 0.7654590126336853
60048000.0 0.10814492544551586 2.4936380601831107
75047500.0 0.32325020703928686 -0.7791669505800666
90047000.0 0.6060853685067187 -0.588748621923667
105046500.0 -1.2232425890380616 -0.2850312884650759
120046000.0 1.0873622660942575 2.261513966841457
135045500.0 -6.283728886845243 7.435165479911489
150045000.0 0.5062838838819207 -0.8958325120175499
165044500.0 -0.8020972989886335 0.02093162767156028
180044000.0 0.19019954013569323 1.6072754596433347
195043500.0 1.3292937702172791 1.3751554489371067
210043000.0 0.6609425139119667 1.0344673540816425
225042500.0 0.3653438840978057 1.3434671110225427
240042000.0 -1.7773965520532828 -0.6653618314212852
255041500.0 -0.37829314410325776 -1.329604795660729
270041000.0 -1.6961898625251224 1.3038668291485511
285040500.0 -0.37764537037000506 0.5859838236339118
300040000.0 -5.147242976258833 1.9825607158958742
315039500.0 1.7602542401199608 -1.247226007744059
330039000.0 -1.1276919899459041 -0.7357482206343966
345038500.0 -38.824092596364956 9.147928456029172
360038000.0 -2.0312332721848914 -0.5404878328129339
375037500.0 0.2352998458589627 0.17750765770345206
390037000.0 -2.9216397240857286 2.1522130112999425
405036500.0 1.2539470216204844 0.22154597736768397
420036000.0 14.290086668768529 -7.087646921932141
435035500.0 -2.0094809391592836 0.5936051612564172
450035000.0 -0.2810835368662766 -2.352608120374418
465034500.0 -0.27615061296813287 0.5850051560055212
480034000.0 -5.640697001414692 -0.38588652254225697
495033500.0 0.7267406164903156 0.8828619065596818
510033000.0 -5.401976461498238 0.15754686658706168
525032500.0 1.0846688479430382 0.24227752370676567
540032000.0 2.8697586830991084 -1.0633234242351823
555031500.0 14.58265186128104 -11.650375029845769
570031000.0 -0.9909409501855261 -0.5232357443867223
585030500.0 2.1823084673870157 1.757119621538141
600030000.0 1.474083556877202 0.2101265240148276
615029500.0 1.632046443596724 3.9378531540380095
630029000.0 -2.562702508826489 0.6982855730076597
645028500.0 1.904330494890573 -0.5142495694526256
660028000.0 -1.1520388545875238 -1.2898474777231534
675027500.0 -0.22943813259874848 0.6453499637620481
690027000.0 -1.7334191134782375 1.5743647102165699
705026500.0 0.595782488486918 0.18513076895528705
720026000.0 -0.6583251854487709 -2.0833063987947735
735025500.0 0.6286114439790526 1.3731908872315175
750025000.0 1.4953439759764344 -0.9566715090457047
765024500.0 -2.195255312093253 0.9423873163516089
780024000.0 13.116447282771205 -11.008705559424433
795023500.0 0.1643055951000868 -0.5696036553563814
810023000.0 0.014724187406027519 -2.799454515289589
825022500.0 -0.2741837762889172 -0.39543950104921916
840022000.0 -1.3759489203519857 0.7898620171627725
855021500.0 0.45604704774503796 0.8116250358776977
870021000.0 -0.44997564321987366 -1.9207391031058116
885020500.0 2.7079578011509065 0.016613473931986516
900020000.0 -1.3323763741596928 2.4366294499786356
915019500.0 -0.24964378066269943 -0.6581837984675071
930019000.0 -1.403072825624216 3.3891447755560575
945018500.0 -0.6377808302319783 0.6032618609819944
960018000.0 -0.31929481720963654 0.7590216260604657
975017500.0 0.5763545384754469 -1.17014758340359
990017000.0 0.2104527204160805 -0.8282373623518522
1005016500.0 1.851209984647196 4.660934005745851
1020016000.0 -5.242764824151488 1.378721686063506
1035015500.0 -0.36161127139235555 0.974950722042065
1050015000.0 -0.8324560546504934 -2.4495412672644923
1065014500.0 -0.7779390002800193 3.3209584548799405
1080014000.0 -0.9045376837302112 0.6535059045070556
1095013500.0 -2.928352150423789 1.5503815243777577
1110013000.0 2.6722730951820117 -0.011624875660942016
1125012500.0 0.43357270619164023 -0.5999974079014889
1140012000.0 -0.2498831895577165 0.4896383494259123
1155011500.0 0.6579926871924655 -2.86492734658013
1170011000.0 -3.9655873218406654 3.8714160606183854
1185010500.0 -0.5526733465964545 -1.2723932404561762
1200010000.0 -0.48283165975700454 1.4085723937827483
1215009500.0 -2.0438015007891885 -0.6690599846862838
1230009000.0 -7.052755697366108 5.475920248368391
1245008500.0 0.2817594154447226 -0.6196472820894681
1260008000.0 0.9322592672806638 -1.1970444178807655
1275007500.0 -3.1291128402790878 3.121932700706259
1290007000.0 0.33049323410923026 -1.3471407881870727
1305006500.0 2.2737727853395 1.4640770297007906
1320006000.0 -1.121807282984408 -2.888254463131548
1335005500.0 0.28459645245160664 0.52213945339873
1350005000.0 -1.218184577497488 0.738948310122798
1365004500.0 0.33745347481806226 -7.52588931386635
1380004000.0 -1.5908343650070307 0.6132535467113316
1395003500.0 0.9907384893026029 2.5058805369831343
1410003000.0 1.1025958069936523 -0.5954301164873725
1425002500.0 -1.6775227572404408 -0.38979703014303757
1440002000.0 -0.31058843780975043 -0.31740372606621337
1455001500.0 1.758605536362653 2.116802216181044
1470001000.0 0.5464898341908573 -1.4260146407634755
1485000500.0 -0.30747905979944734 -0.15696649564912168
1500000000.0 -3.9216675509746044 2.0206220727821544
