! Created with skrf 1.8.0 (http://scikit-rf.org).
# Hz S RI R 50.0 
!freq ReS11 ImS11
50000.0 0.0015086069258968711 -0.003620325275168446
15049500.0 0.0005074963146019663 0.0004469143870138391
30049000.0 -7.952284900467697e-05 0.00016475006134752026
45048500.0 -0.00012091230431562623 0.00010664708273820128
60048000.0 0.00030447229493232376 -0.0003782042125293948
75047500.0 -9.918885831913323e-05 0.00014494132612034735
90047000.0 -0.0001124078046207683 7.624387349160832e-06
105046500.0 -1.0334992843407727e-05 -8.40873689403336e-05
120046000.0 -0.0006482973023840198 0.00013332352184210243
135045500.0 0.0006229151033824174 -0.011474230179826257
150045000.0 0.00013630963318854298 0.0002267820495645326
165044500.0 -5.304834891559222e-05 5.073564692981386e-05
180044000.0 -0.0003540432450994787 -0.0005045643907941464
195043500.0 -0.0006568946615525521 -0.0007465583029856241
210043000.0 -2.1050939318241834e-05 -0.0001971604132054981
225042500.0 -0.0004684953101384916 6.53751837682024e-05
240042000.0 -0.00022857891633803088 -6.03037469639615e-05
255041500.0 -0.000481133925607236 -0.000318872355787539
270041000.0 -0.0008718842532286011 0.0008078603972781582
285040500.0 -0.0002940774000382078 -0.00028098656410374776
300040000.0 0.002699266352306524 0.006188431089328841
315039500.0 -0.001001064643511555 -0.0009935534698878234
330039000.0 0.0001224593916417431 -0.0012579436054111497
345038500.0 -0.01900997897907601 -0.02463224247923378
360038000.0 0.0026255092164664904 7.902051649123228e-05
375037500.0 0.0007473790881948219 -9.331442498211888e-07
390037000.0 -0.01603794422841994 0.0069513020407526395
405036500.0 -0.0002228500823038447 0.00022460186907452887
420036000.0 -0.021402392686396078 -0.012452284682032742
435035500.0 -0.0002860541890072723 0.0012528222391935586
450035000.0 0.0026193326859399453 0.01503102614156343
465034500.0 -0.00026336102317385285 -0.001223155705367618
480034000.0 0.007175573236422487 0.0033082291240200162
495033500.0 -0.0008833361122909407 0.00047663065004533995
510033000.0 0.0026267217563924646 0.0076805994010812765
525032500.0 0.0001943775109372966 -0.00012912750798038512
540032000.0 0.0005882193349498782 0.0028464181927094134
555031500.0 -0.032979416907793005 0.005000295322252134
570031000.0 -0.00030365160231065035 -0.00045658917332832216
585030500.0 -0.0023079028821616342 -0.011008852620095199
600030000.0 0.00014695645438968826 -0.0006836643490844086
615029500.0 -0.005149436789457749 -0.0022021873579402924
630029000.0 -0.0018868244653518537 0.0064131891265468005
645028500.0 -0.0019317987410590147 0.0005763132230062005
660028000.0 -0.003644787296651206 0.0001332782377028028
675027500.0 -0.00048461542898335294 -0.0008257385836962777
690027000.0 0.002553618103941108 -0.0002386102707095549
705026500.0 -0.00042671387939357224 -0.0005877282787765117
720026000.0 -0.005052963211135673 0.0023008409077394203
735025500.0 -4.6371001654005716e-05 0.002336286085128123
750025000.0 0.0017174179666045368 4.9361443555172216e-05
765024500.0 -0.0024237984463608506 0.00488225049758349
780024000.0 -0.28789951980076345 0.14495454386580806
795023500.0 0.0002920074636750453 -0.0007029589122950793
810023000.0 0.012844667760939371 -0.006688012612998258
825022500.0 0.0002089613628603593 0.0006230771272795749
840022000.0 -0.0025627329664978295 -0.0009574425053414473
855021500.0 -0.0009335912892562762 -0.001973394349748604
870021000.0 0.004566676755953127 -0.006550474496243153
885020500.0 -0.006610161487723532 0.009054053624262875
900020000.0 -0.01578342300159288 0.0005730062501696455
915019500.0 0.00230625734691823 0.0014789965433916485
930019000.0 0.00869559706809502 0.00826353881243345
945018500.0 -0.002174809275845036 0.002862472648959039
960018000.0 0.0023087975975182662 0.000962837807841256
975017500.0 -0.013722457836788172 0.0034746943208967384
990017000.0 -0.007777080188537508 -0.0007106358548740441
1005016500.0 0.019106755780406864 -0.0015598391860286774
1020016000.0 0.01919310803387727 0.03316749321840837
1035015500.0 -0.0022050332410918122 0.005176126012879266
1050015000.0 -0.034057125409201805 0.07142258236311401
1065014500.0 0.0025557660067106994 0.01087873831091254
1080014000.0 -0.005312939445547345 0.0021242644744288394
1095013500.0 -0.010410168580634552 0.0018696453794879212
1110013000.0 0.002249246775913355 -0.007860340191955814
1125012500.0 -0.0013241111495678661 0.005396068056914628
1140012000.0 0.001824071264049362 -0.002711637670497792
1155011500.0 -0.0916830443098833 -0.009380441387210342
1170011000.0 0.057961541464671085 -0.14922505009607132
1185010500.0 0.0019054606956716569 0.012783177811614923
1200010000.0 -0.004162359275417705 -0.012059748300066236
1215009500.0 0.0018292420273938914 -0.01864366821106986
1230009000.0 -0.005644330146328705 0.10059695467201889
1245008500.0 0.0031099726445734024 0.008064494602552565
1260008000.0 0.01368768002551407 0.009048787390712763
1275007500.0 0.04342193675327075 -0.057773886577501835
1290007000.0 0.020952699463625036 0.002050609534941724
1305006500.0 -0.04371557035806299 0.03847484267937857
1320006000.0 0.044017026442579314 0.028520285050213503
1335005500.0 0.004372214726359453 0.010435068753374148
1350005000.0 -0.016692513356177174 0.0008932098739788502
1365004500.0 -0.645655719606289 0.21733585594909863
1380004000.0 -0.03229320194232724 -0.004719343735721653
1395003500.0 -0.04853654364862912 -0.006687548090054975
1410003000.0 0.01656810665575436 0.0024276582554987034
1425002500.0 -0.019031396263644914 0.0020951615511540273
1440002000.0 0.01125213020670104 -0.0016205882699751482
1455001500.0 -0.05211674427938967 -0.062058595559851215
1470001000.0 -0.04521890953662604 -0.0014235278278142095
1485000500.0 -0.008890369924757183 -0.0178224272459527
1500000000.0 0.021345541277878907 -0.06930549778912884
