! Created with skrf 1.8.0 (http://scikit-rf.org).
# Hz S RI R 50.0 
!freq ReS11 ImS11 ReS21 ImS21 ReS12 ImS12 ReS22 ImS22
50000.0 0.0 0.0 -7.962e-06 -7.8821e-05 0.0 0.0 0.0 0.0
15049500.0 0.0 0.0 -1.8443e-05 5.212e-06 0.0 0.0 0.0 0.0
30049000.0 0.0 0.0 -3.0811e-05 -4.4088e-05 0.0 0.0 0.0 0.0
45048500.0 0.0 0.0 -4.337e-05 -4.1786e-05 0.0 0.0 0.0 0.0
60048000.0 0.0 0.0 -4.1163e-05 -8.588e-06 0.0 0.0 0.0 0.0
75047500.0 0.0 0.0 -5.5793e-05 2.819e-06 0.0 0.0 0.0 0.0
90047000.0 0.0 0.0 -1.7e-07 2.279e-06 0.0 0.0 0.0 0.0
105046500.0 0.0 0.0 -3.7254e-05 -5.893e-06 0.0 0.0 0.0 0.0
120046000.0 0.0 0.0 -1.5323e-05 5.998e-06 0.0 0.0 0.0 0.0
135045500.0 0.0 0.0 -7.1758e-05 1.8373e-05 0.0 0.0 0.0 0.0
150045000.0 0.0 0.0 -3.2202e-05 5.7661e-05 0.0 0.0 0.0 0.0
165044500.0 0.0 0.0 -4.0295e-05 3.3957e-05 0.0 0.0 0.0 0.0
180044000.0 0.0 0.0 6.095e-06 4.4279e-05 0.0 0.0 0.0 0.0
195043500.0 0.0 0.0 -9.042e-06 4.2393e-05 0.0 0.0 0.0 0.0
210043000.0 0.0 0.0 -1.5377e-05 6.5416e-05 0.0 0.0 0.0 0.0
225042500.0 0.0 0.0 -1.7431e-05 6.5228e-05 0.0 0.0 0.0 0.0
240042000.0 0.0 0.0 -1.5794e-05 5.7871e-05 0.0 0.0 0.0 0.0
255041500.0 0.0 0.0 -7.696e-06 3.212e-05 0.0 0.0 0.0 0.0
270041000.0 0.0 0.0 1.487e-05 6.4036e-05 0.0 0.0 0.0 0.0
285040500.0 0.0 0.0 4.5114e-05 4.7923e-05 0.0 0.0 0.0 0.0
300040000.0 0.0 0.0 -0.000168506 -0.000289785 0.0 0.0 0.0 0.0
315039500.0 0.0 0.0 0.000190084 0.000181145 0.0 0.0 0.0 0.0
330039000.0 0.0 0.0 -0.000143115 0.000140475 0.0 0.0 0.0 0.0
345038500.0 0.0 0.0 9.4157e-05 -0.000180827 0.0 0.0 0.0 0.0
360038000.0 0.0 0.0 -5.2036e-05 0.000213827 0.0 0.0 0.0 0.0
375037500.0 0.0 0.0 1.3074e-05 5.1538e-05 0.0 0.0 0.0 0.0
390037000.0 0.0 0.0 -0.000136748 -0.00029729 0.0 0.0 0.0 0.0
405036500.0 0.0 0.0 0.000432769 0.000135904 0.0 0.0 0.0 0.0
420036000.0 0.0 0.0 0.000186968 8.4564e-05 0.0 0.0 0.0 0.0
435035500.0 0.0 0.0 0.000521091 -0.000268782 0.0 0.0 0.0 0.0
450035000.0 0.0 0.0 -8.6171e-05 9.1683e-05 0.0 0.0 0.0 0.0
465034500.0 0.0 0.0 0.000162386 -0.000148193 0.0 0.0 0.0 0.0
480034000.0 0.0 0.0 0.000593878 -0.000209183 0.0 0.0 0.0 0.0
495033500.0 0.0 0.0 0.0007016 -0.000416119 0.0 0.0 0.0 0.0
510033000.0 0.0 0.0 0.0003701 -0.00019385 0.0 0.0 0.0 0.0
525032500.0 0.0 0.0 0.000559874 -7.0517e-05 0.0 0.0 0.0 0.0
540032000.0 0.0 0.0 0.00044859 -0.00031682 0.0 0.0 0.0 0.0
555031500.0 0.0 0.0 0.00021894 -0.000655134 0.0 0.0 0.0 0.0
570031000.0 0.0 0.0 4.847e-06 -0.00084689 0.0 0.0 0.0 0.0
585030500.0 0.0 0.0 0.000131673 -0.000306123 0.0 0.0 0.0 0.0
600030000.0 0.0 0.0 0.00022734 0.000114357 0.0 0.0 0.0 0.0
615029500.0 0.0 0.0 -9.4169e-05 -0.000663244 0.0 0.0 0.0 0.0
630029000.0 0.0 0.0 0.000115898 -0.000759524 0.0 0.0 0.0 0.0
645028500.0 0.0 0.0 3.0177e-05 -0.000756877 0.0 0.0 0.0 0.0
660028000.0 0.0 0.0 -0.000444212 -4.1475e-05 0.0 0.0 0.0 0.0
675027500.0 0.0 0.0 -7.8143e-05 -0.000377377 0.0 0.0 0.0 0.0
690027000.0 0.0 0.0 7.6222e-05 -0.000282905 0.0 0.0 0.0 0.0
705026500.0 0.0 0.0 3.9699e-05 -0.000542606 0.0 0.0 0.0 0.0
720026000.0 0.0 0.0 0.000472592 -0.00059608 0.0 0.0 0.0 0.0
735025500.0 0.0 0.0 -0.000399045 -0.00026157 0.0 0.0 0.0 0.0
750025000.0 0.0 0.0 0.00023585 -4.7027e-05 0.0 0.0 0.0 0.0
765024500.0 0.0 0.0 0.000306747 -0.000617506 0.0 0.0 0.0 0.0
780024000.0 0.0 0.0 -0.00020702 -0.000356232 0.0 0.0 0.0 0.0
795023500.0 0.0 0.0 0.000199597 -0.000352711 0.0 0.0 0.0 0.0
810023000.0 0.0 0.0 -9.086e-06 -0.000538778 0.0 0.0 0.0 0.0
825022500.0 0.0 0.0 -0.000335739 -0.00055262 0.0 0.0 0.0 0.0
840022000.0 0.0 0.0 -0.00019585 -0.000440966 0.0 0.0 0.0 0.0
855021500.0 0.0 0.0 -0.000159796 -0.000611393 0.0 0.0 0.0 0.0
870021000.0 0.0 0.0 0.000240178 0.000346289 0.0 0.0 0.0 0.0
885020500.0 0.0 0.0 -0.000727464 -0.00042391 0.0 0.0 0.0 0.0
900020000.0 0.0 0.0 0.001818815 -0.00034544 0.0 0.0 0.0 0.0
915019500.0 0.0 0.0 -0.000724552 -0.00163315 0.0 0.0 0.0 0.0
930019000.0 0.0 0.0 0.000305111 0.001332708 0.0 0.0 0.0 0.0
945018500.0 0.0 0.0 -0.000965051 -0.000543552 0.0 0.0 0.0 0.0
960018000.0 0.0 0.0 -0.000593355 -0.00023589 0.0 0.0 0.0 0.0
975017500.0 0.0 0.0 0.000705303 -0.000151108 0.0 0.0 0.0 0.0
990017000.0 0.0 0.0 0.000698108 0.000385953 0.0 0.0 0.0 0.0
1005016500.0 0.0 0.0 2.0541e-05 0.000497236 0.0 0.0 0.0 0.0
1020016000.0 0.0 0.0 -0.000548133 0.000401109 0.0 0.0 0.0 0.0
1035015500.0 0.0 0.0 5.2237e-05 -4.4771e-05 0.0 0.0 0.0 0.0
1050015000.0 0.0 0.0 0.000770214 -0.000834704 0.0 0.0 0.0 0.0
1065014500.0 0.0 0.0 0.000252169 -0.001911098 0.0 0.0 0.0 0.0
1080014000.0 0.0 0.0 -0.001041069 -0.00243387 0.0 0.0 0.0 0.0
1095013500.0 0.0 0.0 -0.001089946 -0.000423535 0.0 0.0 0.0 0.0
1110013000.0 0.0 0.0 0.001175003 -0.000851589 0.0 0.0 0.0 0.0
1125012500.0 0.0 0.0 0.000768882 -0.003009144 0.0 0.0 0.0 0.0
1140012000.0 0.0 0.0 -0.000433636 9.2743e-05 0.0 0.0 0.0 0.0
1155011500.0 0.0 0.0 0.000734879 -0.000586976 0.0 0.0 0.0 0.0
1170011000.0 0.0 0.0 -0.005089083 -0.000131964 0.0 0.0 0.0 0.0
1185010500.0 0.0 0.0 0.000554656 -0.003343524 0.0 0.0 0.0 0.0
1200010000.0 0.0 0.0 0.0008295 0.004237853 0.0 0.0 0.0 0.0
1215009500.0 0.0 0.0 -0.002939084 -0.001951449 0.0 0.0 0.0 0.0
1230009000.0 0.0 0.0 0.00115969 0.003013833 0.0 0.0 0.0 0.0
1245008500.0 0.0 0.0 0.001660231 0.000584085 0.0 0.0 0.0 0.0
1260008000.0 0.0 0.0 -0.00298858 0.003670183 0.0 0.0 0.0 0.0
1275007500.0 0.0 0.0 -0.001673216 0.001935274 0.0 0.0 0.0 0.0
1290007000.0 0.0 0.0 0.004286484 0.000774366 0.0 0.0 0.0 0.0
1305006500.0 0.0 0.0 -0.001036569 0.002512399 0.0 0.0 0.0 0.0
1320006000.0 0.0 0.0 -0.006763544 0.003544255 0.0 0.0 0.0 0.0
1335005500.0 0.0 0.0 0.000356242 -0.00254603 0.0 0.0 0.0 0.0
1350005000.0 0.0 0.0 0.008317014 0.010229336 0.0 0.0 0.0 0.0
1365004500.0 0.0 0.0 -0.003926184 0.004226162 0.0 0.0 0.0 0.0
1380004000.0 0.0 0.0 0.003847769 0.005063232 0.0 0.0 0.0 0.0
1395003500.0 0.0 0.0 0.00454781 -0.006841039 0.0 0.0 0.0 0.0
1410003000.0 0.0 0.0 -0.001552049 0.01210562 0.0 0.0 0.0 0.0
1425002500.0 0.0 0.0 -0.005821484 0.002552381 0.0 0.0 0.0 0.0
1440002000.0 0.0 0.0 0.005339257 0.001402251 0.0 0.0 0.0 0.0
1455001500.0 0.0 0.0 0.008371043 -0.009155168 0.0 0.0 0.0 0.0
1470001000.0 0.0 0.0 0.004781722 0.004937369 0.0 0.0 0.0 0.0
1485000500.0 0.0 0.0 0.015537432 0.000750821 0.0 0.0 0.0 0.0
1500000000.0 0.0 0.0 0.014859928 0.012302238 0.0 0.0 0.0 0.0
