! Created with skrf 1.8.0 (http://scikit-rf.org).
# Hz S RI R 50.0 
!freq ReS11 ImS11 ReS21 ImS21 ReS12 ImS12 ReS22 ImS22
50000.0 0.66610976 -0.010999002 -9.6032e-05 -6.3384e-05 0.0 0.0 0.0 0.0
15049500.0 0.664264512 -0.041451148 -2.1626e-05 -1.7583e-05 0.0 0.0 0.0 0.0
30049000.0 0.661553472 -0.066656692 -1.8988e-05 -5.5038e-05 0.0 0.0 0.0 0.0
45048500.0 0.657863168 -0.091242312 1.177e-05 -3.7225e-05 0.0 0.0 0.0 0.0
60048000.0 0.653333888 -0.115639712 7.654e-06 2.2613e-05 0.0 0.0 0.0 0.0
75047500.0 0.647805184 -0.139039472 -1.4209e-05 -2.2382e-05 0.0 0.0 0.0 0.0
90047000.0 0.641040192 -0.160793472 -2.4404e-05 7.472e-06 0.0 0.0 0.0 0.0
105046500.0 0.633562112 -0.184117392 -5.1596e-05 -1.1105e-05 0.0 0.0 0.0 0.0
120046000.0 0.625720064 -0.206174464 -7.1987e-05 -1.911e-05 0.0 0.0 0.0 0.0
135045500.0 0.616639616 -0.227852928 -6.1631e-05 2.222e-05 0.0 0.0 0.0 0.0
150045000.0 0.607034048 -0.248786768 -8.019e-06 6.3715e-05 0.0 0.0 0.0 0.0
165044500.0 0.596634176 -0.269692768 -2.1269e-05 5.3012e-05 0.0 0.0 0.0 0.0
180044000.0 0.584830464 -0.290236864 -8.961e-06 2.4732e-05 0.0 0.0 0.0 0.0
195043500.0 0.572447296 -0.310506336 -6.361e-06 2.498e-06 0.0 0.0 0.0 0.0
210043000.0 0.559716672 -0.330693984 -1.5664e-05 2.4312e-05 0.0 0.0 0.0 0.0
225042500.0 0.545871168 -0.350206912 7.768e-06 3.0216e-05 0.0 0.0 0.0 0.0
240042000.0 0.530881696 -0.368592832 -1.0906e-05 3.5495e-05 0.0 0.0 0.0 0.0
255041500.0 0.51515616 -0.387299424 -1.8375e-05 6.5206e-05 0.0 0.0 0.0 0.0
270041000.0 0.49929264 -0.405621632 1.8138e-05 2.9027e-05 0.0 0.0 0.0 0.0
285040500.0 0.482892864 -0.421651552 2.0918e-05 4.4664e-05 0.0 0.0 0.0 0.0
300040000.0 0.469282656 -0.428683904 -0.000136287 0.000398725 0.0 0.0 0.0 0.0
315039500.0 0.452801152 -0.443546688 -0.000193279 0.000318573 0.0 0.0 0.0 0.0
330039000.0 0.436424832 -0.457855104 0.000581325 -0.000107523 0.0 0.0 0.0 0.0
345038500.0 0.418729088 -0.469767616 0.000109067 0.000154758 0.0 0.0 0.0 0.0
360038000.0 0.40129248 -0.480990304 -9.5561e-05 -0.000121905 0.0 0.0 0.0 0.0
375037500.0 0.382821248 -0.492835008 8.7349e-05 0.00023495 0.0 0.0 0.0 0.0
390037000.0 0.369132416 -0.500027424 0.000382958 -0.000173851 0.0 0.0 0.0 0.0
405036500.0 0.34945456 -0.511935584 -0.000178655 8.7427e-05 0.0 0.0 0.0 0.0
420036000.0 0.331891552 -0.520902048 0.000394114 4.8289e-05 0.0 0.0 0.0 0.0
435035500.0 0.315295232 -0.528988832 0.000322048 -5.21e-05 0.0 0.0 0.0 0.0
450035000.0 0.294638656 -0.532399968 0.000252769 -0.00012884 0.0 0.0 0.0 0.0
465034500.0 0.279183104 -0.540759168 0.000468121 -0.000174118 0.0 0.0 0.0 0.0
480034000.0 0.259891744 -0.544241664 0.000243668 1.4563e-05 0.0 0.0 0.0 0.0
495033500.0 0.241470512 -0.551167936 0.000256186 8.324e-05 0.0 0.0 0.0 0.0
510033000.0 0.223739248 -0.55355872 0.000408171 -0.000259375 0.0 0.0 0.0 0.0
525032500.0 0.20590024 -0.556898304 0.000137426 -0.000244258 0.0 0.0 0.0 0.0
540032000.0 0.189068704 -0.560248704 0.000530729 -0.000434824 0.0 0.0 0.0 0.0
555031500.0 0.17229832 -0.5623648 0.00044901 -0.000456918 0.0 0.0 0.0 0.0
570031000.0 0.15451576 -0.56344416 0.000258856 -0.000733016 0.0 0.0 0.0 0.0
585030500.0 0.136889984 -0.568623808 6.28e-06 -0.00047897 0.0 0.0 0.0 0.0
600030000.0 0.122264288 -0.572476992 0.000206826 -0.000988685 0.0 0.0 0.0 0.0
615029500.0 0.10522524 -0.571628928 8.5757e-05 -0.000366303 0.0 0.0 0.0 0.0
630029000.0 0.08979756 -0.572340672 -3.7013e-05 -0.000577237 0.0 0.0 0.0 0.0
645028500.0 0.07567944 -0.570986816 -8.1558e-05 -0.000598676 0.0 0.0 0.0 0.0
660028000.0 0.059434568 -0.571352128 0.00021767 -0.000828393 0.0 0.0 0.0 0.0
675027500.0 0.04570334 -0.567514304 0.000173253 -0.000236853 0.0 0.0 0.0 0.0
690027000.0 0.0293682 -0.567206016 -0.000179613 -0.000188948 0.0 0.0 0.0 0.0
705026500.0 0.01491281 -0.568053952 0.00012317 -0.000342118 0.0 0.0 0.0 0.0
720026000.0 0.001092784 -0.566339008 -0.000457961 -0.000521135 0.0 0.0 0.0 0.0
735025500.0 -0.011095648 -0.56110912 -0.000133538 -0.000383281 0.0 0.0 0.0 0.0
750025000.0 -0.024204716 -0.56151808 -0.000327046 -0.00067574 0.0 0.0 0.0 0.0
765024500.0 -0.036129252 -0.558016768 -0.000189855 -0.000320089 0.0 0.0 0.0 0.0
780024000.0 -0.058439952 -0.55248768 -0.000440287 -0.000685464 0.0 0.0 0.0 0.0
795023500.0 -0.058757864 -0.552789056 -0.000284699 -0.00055704 0.0 0.0 0.0 0.0
810023000.0 -0.072098936 -0.552900288 7.1656e-05 -0.000520378 0.0 0.0 0.0 0.0
825022500.0 -0.082363 -0.549557056 -0.000648548 -0.000132241 0.0 0.0 0.0 0.0
840022000.0 -0.094246816 -0.549350912 -0.00057555 -0.000570484 0.0 0.0 0.0 0.0
855021500.0 -0.10431988 -0.547048064 0.000156026 -0.000429068 0.0 0.0 0.0 0.0
870021000.0 -0.115746936 -0.548064 0.000188984 -0.000520068 0.0 0.0 0.0 0.0
885020500.0 -0.127740504 -0.544128896 -0.000316194 -0.000670382 0.0 0.0 0.0 0.0
900020000.0 -0.121007496 -0.545985728 0.001908195 -0.001415559 0.0 0.0 0.0 0.0
915019500.0 -0.131729184 -0.544142528 -0.000762248 -0.002076872 0.0 0.0 0.0 0.0
930019000.0 -0.140795744 -0.546975488 0.000390008 -0.001598669 0.0 0.0 0.0 0.0
945018500.0 -0.150976416 -0.543958912 -0.000305754 -0.000487587 0.0 0.0 0.0 0.0
960018000.0 -0.162404368 -0.549670144 -0.00072395 0.000676147 0.0 0.0 0.0 0.0
975017500.0 -0.17577016 -0.553626688 0.000381363 0.000886704 0.0 0.0 0.0 0.0
990017000.0 -0.186211552 -0.559119872 0.001100205 -0.000311019 0.0 0.0 0.0 0.0
1005016500.0 -0.196633424 -0.559761344 -0.001151068 0.001899561 0.0 0.0 0.0 0.0
1020016000.0 -0.214046928 -0.567964544 0.001024686 -0.000304961 0.0 0.0 0.0 0.0
1035015500.0 -0.227968016 -0.573287744 -0.001872259 0.000751886 0.0 0.0 0.0 0.0
1050015000.0 -0.252595728 -0.564466432 0.004235985 -0.001560499 0.0 0.0 0.0 0.0
1065014500.0 -0.253002576 -0.57730368 0.000814765 -0.001387226 0.0 0.0 0.0 0.0
1080014000.0 -0.271667488 -0.587729536 0.002245995 -0.002983161 0.0 0.0 0.0 0.0
1095013500.0 -0.296679776 -0.58991776 0.000817776 -0.001944809 0.0 0.0 0.0 0.0
1110013000.0 -0.310304128 -0.59481952 0.000434523 0.000122481 0.0 0.0 0.0 0.0
1125012500.0 -0.317168288 -0.586084864 0.001069868 -0.000633732 0.0 0.0 0.0 0.0
1140012000.0 -0.35424288 -0.601241024 0.001138622 -0.00097592 0.0 0.0 0.0 0.0
1155011500.0 -0.361735072 -0.600879424 -0.00091859 -0.001834618 0.0 0.0 0.0 0.0
1170011000.0 -0.399397984 -0.604416896 -0.002942763 -0.002843092 0.0 0.0 0.0 0.0
1185010500.0 -0.418959872 -0.601117696 0.001568606 -0.000695201 0.0 0.0 0.0 0.0
1200010000.0 -0.444413344 -0.595918592 0.001976102 0.00108772 0.0 0.0 0.0 0.0
1215009500.0 -0.478947232 -0.59390112 0.00101632 0.004665535 0.0 0.0 0.0 0.0
1230009000.0 -0.511506304 -0.593629056 0.004816639 0.001633541 0.0 0.0 0.0 0.0
1245008500.0 -0.54067264 -0.592061568 -0.001359587 -0.002393991 0.0 0.0 0.0 0.0
1260008000.0 -0.582171072 -0.566574784 -0.002098668 0.002876839 0.0 0.0 0.0 0.0
1275007500.0 -0.609398336 -0.567281664 0.005113748 0.003574115 0.0 0.0 0.0 0.0
1290007000.0 -0.647857536 -0.548668736 0.00104007 0.001541446 0.0 0.0 0.0 0.0
1305006500.0 -0.681339904 -0.543704896 -0.001481964 -0.002394885 0.0 0.0 0.0 0.0
1320006000.0 -0.71324064 -0.516159296 0.003870815 -0.00116126 0.0 0.0 0.0 0.0
1335005500.0 -0.748415424 -0.499758976 0.000842321 0.011485916 0.0 0.0 0.0 0.0
1350005000.0 -0.777248256 -0.479460928 -0.000646968 0.012066788 0.0 0.0 0.0 0.0
1365004500.0 -0.817145152 -0.41380992 0.00136072 -0.006337897 0.0 0.0 0.0 0.0
1380004000.0 -0.839378624 -0.412521472 0.006326589 0.007196239 0.0 0.0 0.0 0.0
1395003500.0 -0.853003264 -0.37109056 0.001595481 0.000659839 0.0 0.0 0.0 0.0
1410003000.0 -0.87335584 -0.340648768 -0.000876311 0.008851288 0.0 0.0 0.0 0.0
1425002500.0 -0.889611264 -0.291798944 0.007462958 0.009102402 0.0 0.0 0.0 0.0
1440002000.0 -0.904072704 -0.263768144 -0.003279466 0.002933772 0.0 0.0 0.0 0.0
1455001500.0 -0.887165312 -0.20850768 0.004010445 0.015458924 0.0 0.0 0.0 0.0
1470001000.0 -0.929628608 -0.166450528 0.005982004 0.002425448 0.0 0.0 0.0 0.0
1485000500.0 -0.925884352 -0.129405304 -0.001582917 0.019760048 0.0 0.0 0.0 0.0
1500000000.0 -0.905869376 -0.100122752 -0.005822147 0.005969906 0.0 0.0 0.0 0.0
