! Created with skrf 1.8.0 (http://scikit-rf.org).
# Hz S RI R 50.0 
!freq ReS11 ImS11 ReS21 ImS21 ReS12 ImS12 ReS22 ImS22
300000.0 0.998888192 -0.001105174 7.668616643121644e-06 -5.244560589871924e-06 0.0 0.0 0.0 0.0
1797000.0 1.00195396 0.018527718 5.167381720494037e-05 8.706374473361929e-06 0.0 0.0 0.0 0.0
3294000.0 1.004299164 0.041137972 2.2208598558263204e-05 8.212177182569157e-06 0.0 0.0 0.0 0.0
4791000.0 1.005001664 0.06411004 5.6463407980421776e-05 2.687110254969906e-05 0.0 0.0 0.0 0.0
6288000.0 1.004998565 0.087312176 4.177255675854872e-05 4.7976053431413315e-05 0.0 0.0 0.0 0.0
7785000.0 1.003360391 0.110556176 2.9511782131796492e-05 4.150309248002342e-05 0.0 0.0 0.0 0.0
9282000.0 1.000348568 0.133891416 -7.352175045183472e-06 2.1416339801612734e-06 0.0 0.0 0.0 0.0
10779000.0 0.996172032 0.156794256 -1.4427662807066851e-05 1.2330936498319169e-05 0.0 0.0 0.0 0.0
12276000.0 0.990413184 0.179366032 4.3051039679786534e-05 -2.5792891704681844e-05 0.0 0.0 0.0 0.0
13773000.0 0.983721216 0.201663664 2.928869055590609e-05 4.008493246246496e-05 0.0 0.0 0.0 0.0
15270000.0 0.976783104 0.2234712 4.504844894588322e-05 1.616249645228584e-05 0.0 0.0 0.0 0.0
16767000.0 0.974687488 0.245131888 4.511877921282972e-05 2.9959915125779726e-05 0.0 0.0 0.0 0.0
18264000.0 0.971662848 0.267101072 1.632896601423116e-05 2.1527544168020736e-05 0.0 0.0 0.0 0.0
19761000.0 0.967176064 0.288691456 4.698934919953275e-05 4.6895286242909005e-05 0.0 0.0 0.0 0.0
21258000.0 0.96165952 0.31026192 2.9255362052869165e-05 4.092201081515353e-05 0.0 0.0 0.0 0.0
22755000.0 0.955063744 0.331873408 5.6060751878355083e-05 5.571002153862002e-05 0.0 0.0 0.0 0.0
24252000.0 0.9472992 0.352461888 1.3904410001728477e-05 2.5073271495834625e-05 0.0 0.0 0.0 0.0
25749000.0 0.938299584 0.373321536 4.1004106009281745e-06 2.3322732535099655e-05 0.0 0.0 0.0 0.0
27246000.0 0.928253504 0.393007392 2.2658861643019706e-05 5.457144390923615e-08 0.0 0.0 0.0 0.0
28743000.0 0.917265856 0.41202864 1.3807243656477124e-05 3.23980934409831e-05 0.0 0.0 0.0 0.0
30240000.0 0.90617184 0.431045824 2.3708114667399362e-05 2.3813955297628397e-05 0.0 0.0 0.0 0.0
31737000.0 0.899531776 0.452046528 1.0129141879904353e-05 -4.417462481648003e-06 0.0 0.0 0.0 0.0
33234000.0 0.891879168 0.472763456 2.9494317141566527e-05 4.388159592987355e-05 0.0 0.0 0.0 0.0
34731000.0 0.882843136 0.493121152 -3.409228974155954e-05 4.654917922130908e-05 0.0 0.0 0.0 0.0
36228000.0 0.872713792 0.512937536 -1.2649423335348485e-05 1.140706484219843e-06 0.0 0.0 0.0 0.0
37725000.0 0.861541952 0.53248256 3.435418370763155e-05 4.322392252249127e-06 0.0 0.0 0.0 0.0
39222000.0 0.849431168 0.551219712 5.638874200525232e-06 3.564073723635148e-05 0.0 0.0 0.0 0.0
40719000.0 0.83616064 0.569457152 1.36825442553486e-05 5.933537958117986e-06 0.0 0.0 0.0 0.0
42216000.0 0.822036608 0.5866624 2.8277534247069737e-05 2.7029554600581156e-05 0.0 0.0 0.0 0.0
43713000.0 0.807217792 0.603028544 4.9669976075301234e-05 6.376357221548212e-05 0.0 0.0 0.0 0.0
45210000.0 0.79212064 0.618817536 1.710798497406576e-05 4.483926007559825e-05 0.0 0.0 0.0 0.0
46707000.0 0.781262848 0.637599168 3.129563601200278e-05 5.031409242552463e-05 0.0 0.0 0.0 0.0
48204000.0 0.769152192 0.65572896 -5.309145404728877e-06 9.298999681226267e-06 0.0 0.0 0.0 0.0
49701000.0 0.756139392 0.673217984 4.3627945954468905e-05 2.5164503030935054e-05 0.0 0.0 0.0 0.0
51198000.0 0.74247232 0.690179008 3.589085006385762e-05 4.85820448488296e-05 0.0 0.0 0.0 0.0
52695000.0 0.727705344 0.706636096 1.2487485138726922e-05 4.053500628975003e-05 0.0 0.0 0.0 0.0
54192000.0 0.711906432 0.72187584 5.453314612795889e-05 5.463268551322262e-05 0.0 0.0 0.0 0.0
55689000.0 0.695501184 0.736645568 -1.8571207210421004e-05 6.872232215770657e-05 0.0 0.0 0.0 0.0
57186000.0 0.67826016 0.750376384 5.0935464542368785e-06 5.957081038158312e-05 0.0 0.0 0.0 0.0
58683000.0 0.660270144 0.7631888 9.028168078192835e-08 2.6245392171162454e-05 0.0 0.0 0.0 0.0
60180000.0 0.642189568 0.775306944 5.317764624043349e-05 -4.642260691442289e-06 0.0 0.0 0.0 0.0
61677000.0 0.62776448 0.791241472 1.3377600610368032e-05 6.907676125810678e-05 0.0 0.0 0.0 0.0
63174000.0 0.612107072 0.8064848 6.001756988549531e-05 3.4916298916690556e-05 0.0 0.0 0.0 0.0
64671000.0 0.595880896 0.821002752 -3.2721760086510334e-05 4.006358779291813e-05 0.0 0.0 0.0 0.0
66168000.0 0.57843744 0.834772288 4.428484117926369e-05 6.77378332966695e-05 0.0 0.0 0.0 0.0
67665000.0 0.560349376 0.847987072 3.3745573960601516e-05 4.136526048593885e-05 0.0 0.0 0.0 0.0
69162000.0 0.542007616 0.860092864 5.833778697872588e-07 4.149706167020796e-05 0.0 0.0 0.0 0.0
70659000.0 0.522666048 0.871053504 5.529411284231928e-05 7.5461533234398016e-06 0.0 0.0 0.0 0.0
72156000.0 0.5030504 0.881119808 3.2394000033103554e-05 3.298957651827751e-05 0.0 0.0 0.0 0.0
73653000.0 0.482640864 0.889978432 4.4952839102817665e-05 4.156954004579274e-06 0.0 0.0 0.0 0.0
75150000.0 0.462307744 0.898266496 1.3403393785696885e-05 8.203733050889418e-05 0.0 0.0 0.0 0.0
76647000.0 0.443457568 0.911696832 1.2112646098992404e-05 2.6748458375774934e-05 0.0 0.0 0.0 0.0
78144000.0 0.4239512 0.924241152 3.526782851565207e-05 6.147264628914683e-05 0.0 0.0 0.0 0.0
79641000.0 0.403322016 0.935546816 3.335868357816347e-05 3.903203605926761e-05 0.0 0.0 0.0 0.0
81138000.0 0.382123296 0.946102592 9.94948215466386e-06 3.417098344873945e-05 0.0 0.0 0.0 0.0
82635000.0 0.360165728 0.95513312 1.3791875111712584e-05 2.051647281827271e-05 0.0 0.0 0.0 0.0
84132000.0 0.338047136 0.962943488 4.341730197901748e-06 7.57519171235199e-05 0.0 0.0 0.0 0.0
85629000.0 0.315460672 0.96959264 1.8058659588006703e-05 3.114201314758719e-05 0.0 0.0 0.0 0.0
87126000.0 0.292685056 0.975032896 2.0145112249644297e-05 5.085581734127602e-05 0.0 0.0 0.0 0.0
88623000.0 0.269713536 0.979109376 3.0451253529065946e-05 1.7142469206871828e-05 0.0 0.0 0.0 0.0
90120000.0 0.246988576 0.982129856 1.3202750087437924e-05 6.601701728439917e-05 0.0 0.0 0.0 0.0
91617000.0 0.226109632 0.990004032 4.8949503254847146e-05 5.108407027737424e-05 0.0 0.0 0.0 0.0
93114000.0 0.205308624 0.997129088 7.726135222124542e-06 1.2656976121074361e-05 0.0 0.0 0.0 0.0
94611000.0 0.1837808 1.003011227 3.347791794417983e-05 -5.5952031350757945e-06 0.0 0.0 0.0 0.0
96108000.0 0.16182816 1.007851839 9.782048081092161e-06 3.0934423953569935e-05 0.0 0.0 0.0 0.0
97605000.0 0.139653776 1.01147747 4.149489106278058e-05 2.1326247693581085e-05 0.0 0.0 0.0 0.0
99102000.0 0.117124112 1.013733268 2.2599937445593515e-05 5.306778472345778e-05 0.0 0.0 0.0 0.0
100599000.0 0.09444688 1.015320302 1.8455602108443208e-05 3.2874886285213466e-07 0.0 0.0 0.0 0.0
102096000.0 0.071790552 1.015355946 4.0624252017389436e-05 5.454035505043609e-05 0.0 0.0 0.0 0.0
103593000.0 0.049627168 1.014279128 -2.0994679022308554e-05 2.389150580750902e-05 0.0 0.0 0.0 0.0
105090000.0 0.027147118 1.012219192 3.451447051048902e-05 1.7307961213862955e-05 0.0 0.0 0.0 0.0
106587000.0 0.005229343 1.015814066 -2.926448698528114e-05 9.295097712682235e-06 0.0 0.0 0.0 0.0
108084000.0 -0.016857118 1.01812911 1.576041236563376e-05 5.0162369940675436e-05 0.0 0.0 0.0 0.0
109581000.0 -0.039119048 1.019459606 3.638302258025701e-05 8.40155916834757e-05 0.0 0.0 0.0 0.0
111078000.0 -0.061694856 1.019445062 -1.1184784928150446e-06 3.569234179570051e-05 0.0 0.0 0.0 0.0
112575000.0 -0.083929016 1.018199802 8.726557751841222e-06 9.083182472461831e-05 0.0 0.0 0.0 0.0
114072000.0 -0.106587328 1.015802264 3.1387498201455137e-05 7.334401045520794e-05 0.0 0.0 0.0 0.0
115569000.0 -0.128940776 1.012544632 -4.489725425951714e-05 7.307512608922595e-05 0.0 0.0 0.0 0.0
117066000.0 -0.15093432 1.007777214 2.4639369432088354e-05 4.601297395288712e-05 0.0 0.0 0.0 0.0
118563000.0 -0.172998224 1.002004027 1.4504111596765046e-05 2.6970290910344033e-05 0.0 0.0 0.0 0.0
120060000.0 -0.1941664 0.995018304 3.495089065544736e-06 6.774575453431683e-05 0.0 0.0 0.0 0.0
121557000.0 -0.215242192 0.986944896 -1.0838946340302381e-05 6.073963776013193e-05 0.0 0.0 0.0 0.0
123054000.0 -0.235477472 0.977929344 -1.3439367502478793e-05 7.500662254183505e-05 0.0 0.0 0.0 0.0
124551000.0 -0.255101792 0.967743232 1.22930321904967e-05 5.2312066299883555e-05 0.0 0.0 0.0 0.0
126048000.0 -0.274172672 0.956841984 -1.353655693561147e-05 1.2954802172513056e-05 0.0 0.0 0.0 0.0
127545000.0 -0.292545856 0.945062464 3.58348999162944e-05 2.640823807051814e-05 0.0 0.0 0.0 0.0
129042000.0 -0.310011936 0.932536128 -5.361412422820939e-06 9.836414480511755e-06 0.0 0.0 0.0 0.0
130539000.0 -0.343238656 0.94234144 7.970013444420361e-06 5.1944807880054374e-05 0.0 0.0 0.0 0.0
132036000.0 -0.364651328 0.938166208 -1.4133616743990037e-05 4.2207481501909156e-05 0.0 0.0 0.0 0.0
133533000.0 -0.386763008 0.933625344 4.879588029655588e-05 8.93054916670754e-07 0.0 0.0 0.0 0.0
135030000.0 -0.40796096 0.92944256 2.3762178899776046e-05 1.685043049702405e-05 0.0 0.0 0.0 0.0
136527000.0 -0.428995296 0.923764096 4.0953712331412056e-05 5.7005381915008245e-05 0.0 0.0 0.0 0.0
138024000.0 -0.45062384 0.91554272 -1.2989213117933017e-05 6.346765966676978e-05 0.0 0.0 0.0 0.0
139521000.0 -0.472283968 0.907002176 7.26238336198184e-06 1.6245538246041875e-05 0.0 0.0 0.0 0.0
141018000.0 -0.492280352 0.897616256 3.27447210486488e-05 1.0781431651045993e-05 0.0 0.0 0.0 0.0
142515000.0 -0.512100448 0.886270208 -8.956838124321932e-06 4.7770774662074435e-05 0.0 0.0 0.0 0.0
144012000.0 -0.53161776 0.87511296 -1.3356036035722323e-05 8.118255732244757e-05 0.0 0.0 0.0 0.0
145509000.0 -0.551460608 0.8612336 -1.4600941229016418e-05 3.137629761821507e-05 0.0 0.0 0.0 0.0
147006000.0 -0.569138624 0.847726272 7.08185053090527e-05 5.65740823239023e-05 0.0 0.0 0.0 0.0
148503000.0 -0.586893888 0.83304576 -1.4777999224820849e-05 3.056263533976078e-05 0.0 0.0 0.0 0.0
150000000.0 -0.60260992 0.816863616 -4.107711008278056e-05 9.496846130820025e-05 0.0 0.0 0.0 0.0
