! Created with skrf 1.8.0 (http://scikit-rf.org).
# Hz S RI R 50.0 
!freq ReS11 ImS11 ReS21 ImS21 ReS12 ImS12 ReS22 ImS22
50000.0 0.999009856 0.000770052 1.6192721885643513e-05 5.925180272307504e-05 0.0 0.0 0.0 0.0
15049500.0 0.977486592 0.220516848 4.8487644634364455e-05 -3.3455031711412065e-05 0.0 0.0 0.0 0.0
30049000.0 0.90683008 0.428416352 2.5611760970706345e-07 1.5125144559320192e-08 0.0 0.0 0.0 0.0
45048500.0 0.793313536 0.616982144 8.672500454954685e-06 4.564055505642773e-05 0.0 0.0 0.0 0.0
60048000.0 0.643450112 0.773878208 5.663774848746024e-06 6.367813946929664e-06 0.0 0.0 0.0 0.0
75047500.0 0.463591328 0.897416448 3.8658679036103315e-05 -7.535155219605343e-06 0.0 0.0 0.0 0.0
90047000.0 0.247949696 0.981765696 4.459585425726752e-05 5.862069096372505e-05 0.0 0.0 0.0 0.0
105046500.0 0.027830106 1.012145162 6.243280827385616e-07 6.572455050774485e-05 0.0 0.0 0.0 0.0
120046000.0 -0.193834224 0.99528192 -2.891135637232539e-05 6.0348387697704085e-05 0.0 0.0 0.0 0.0
135045500.0 -0.408603488 0.930144064 -5.9867845117051145e-06 1.8007714685945236e-05 0.0 0.0 0.0 0.0
150045000.0 -0.603343104 0.816811712 -4.259801821881907e-05 8.947186970679199e-05 0.0 0.0 0.0 0.0
165044500.0 -0.770622208 0.664468032 -3.8911239164653076e-05 4.940237065841242e-05 0.0 0.0 0.0 0.0
180044000.0 -0.898605696 0.478658848 -3.1571782163637305e-05 3.394229067125307e-05 0.0 0.0 0.0 0.0
195043500.0 -0.98396448 0.267480464 -2.6644896975234205e-05 8.171064201140188e-06 0.0 0.0 0.0 0.0
210043000.0 -1.021761536 0.041642124 -6.74785987209398e-05 -1.2866768928459853e-05 0.0 0.0 0.0 0.0
225042500.0 -1.007366419 -0.190688512 -7.730179873737595e-05 -1.951558600109728e-05 0.0 0.0 0.0 0.0
240042000.0 -0.938071104 -0.414494592 -2.2663421260472316e-05 -3.667087654761434e-05 0.0 0.0 0.0 0.0
255041500.0 -0.819588544 -0.61696832 -3.6296722631618104e-05 -3.0378429883774136e-05 0.0 0.0 0.0 0.0
270041000.0 -0.657170816 -0.791289472 -8.697668493736043e-06 -2.6186775589466365e-05 0.0 0.0 0.0 0.0
285040500.0 -0.45809696 -0.922838464 -1.9284564988878443e-05 -8.80569768456181e-05 0.0 0.0 0.0 0.0
300040000.0 -0.236912416 -0.996066048 0.0007508845183357526 -7.513679895154393e-05 0.0 0.0 0.0 0.0
315039500.0 0.000528078 -1.020200134 9.533439194841823e-05 -0.0005000878604333697 0.0 0.0 0.0 0.0
330039000.0 0.23168928 -0.99670816 1.9193681562449196e-05 0.0007866103674431702 0.0 0.0 0.0 0.0
345038500.0 0.452545248 -0.916902272 -0.0001953984269657402 0.00029985880667626606 0.0 0.0 0.0 0.0
360038000.0 0.652247616 -0.793421824 0.00023824436687032056 -0.0003709547981500712 0.0 0.0 0.0 0.0
375037500.0 0.812460096 -0.629553408 -0.0005061995293206884 -0.001051441020940078 0.0 0.0 0.0 0.0
390037000.0 0.935751744 -0.42772048 -6.889590900615409e-05 -0.0006726204608746421 0.0 0.0 0.0 0.0
405036500.0 1.015120506 -0.225894464 -7.593320620018526e-05 -5.747972964585124e-05 0.0 0.0 0.0 0.0
420036000.0 1.05372894 0.000937443 -0.00018934497532547415 -0.0003812768372836142 0.0 0.0 0.0 0.0
435035500.0 1.040334584 0.237600224 -2.050280182322083e-06 -0.0004551076468783776 0.0 0.0 0.0 0.0
450035000.0 0.971196224 0.477112128 0.00028913745895142913 0.0001164646612501434 0.0 0.0 0.0 0.0
465034500.0 0.844705792 0.675936256 -0.00023197682045447717 -0.0008091824989066628 0.0 0.0 0.0 0.0
480034000.0 0.6757712 0.847385792 -3.9616558737993455e-05 -0.0012401516265355456 0.0 0.0 0.0 0.0
495033500.0 0.479473472 0.97580512 0.0004034815200183988 -0.00113395880138021 0.0 0.0 0.0 0.0
510033000.0 0.26336736 1.052419664 -0.00010607357379239382 -0.0012370239397129343 0.0 0.0 0.0 0.0
525032500.0 0.03693904 1.079717992 0.0004938739666424648 -0.0008484442341538055 0.0 0.0 0.0 0.0
540032000.0 -0.180418336 1.054262996 0.00051896772317202 -0.00047600506455672275 0.0 0.0 0.0 0.0
555031500.0 -0.38778976 0.990651968 0.0006809617305084195 -0.0004007792541649065 0.0 0.0 0.0 0.0
570031000.0 -0.574919424 0.883970944 0.0005647271373917608 0.00016884183263133368 0.0 0.0 0.0 0.0
585030500.0 -0.73510944 0.756572224 0.0008611111876319789 -0.0001613457578526403 0.0 0.0 0.0 0.0
600030000.0 -0.875773312 0.600953408 0.0008720376010720414 -0.0008628939486875077 0.0 0.0 0.0 0.0
615029500.0 -0.978325312 0.409747616 0.0012977465331105358 0.0007782418219863189 0.0 0.0 0.0 0.0
630029000.0 -1.05023682 0.197346576 0.0007791430742248185 0.0012066909491383862 0.0 0.0 0.0 0.0
645028500.0 -1.066530704 -0.036056872 0.0006314007589087107 -0.0005257346647373599 0.0 0.0 0.0 0.0
660028000.0 -1.032765388 -0.267292176 0.0007084821705374602 0.0011040248249652403 0.0 0.0 0.0 0.0
675027500.0 -0.943955072 -0.508248384 0.0011877214315487656 0.0012684429763567423 0.0 0.0 0.0 0.0
690027000.0 -0.799983616 -0.722487296 -0.00021586554841395298 0.0009321226266902565 0.0 0.0 0.0 0.0
705026500.0 -0.606634944 -0.88932256 0.0008908245731347914 0.0006926371309886704 0.0 0.0 0.0 0.0
720026000.0 -0.365911904 -1.00871122 0.00121968897285932 0.0002179702969910729 0.0 0.0 0.0 0.0
735025500.0 -0.087095736 -1.07307756 -0.0007855219166625231 0.0018083174570489098 0.0 0.0 0.0 0.0
750025000.0 0.178654464 -1.069908384 0.00012127569576327006 0.0002018925103963363 0.0 0.0 0.0 0.0
765024500.0 0.45012528 -0.983892608 -0.001302658783225845 0.0007585462296726288 0.0 0.0 0.0 0.0
780024000.0 0.635303872 -0.869357952 -0.00024045853805053442 0.001386252190495871 0.0 0.0 0.0 0.0
795023500.0 0.891726528 -0.638627136 -0.001164166526721879 0.0007021949950877722 0.0 0.0 0.0 0.0
810023000.0 1.025871396 -0.39230064 -0.0018169860837931133 0.0005255800756042463 0.0 0.0 0.0 0.0
825022500.0 1.088788392 -0.127535168 -0.0018610202908231261 0.00028972565822965536 0.0 0.0 0.0 0.0
840022000.0 1.092715264 0.137279392 -0.0006440728266898541 -0.001160158668226351 0.0 0.0 0.0 0.0
855021500.0 1.026690006 0.389415328 -0.0024037654317462225 -0.0007354722015323884 0.0 0.0 0.0 0.0
870021000.0 0.912337216 0.608603904 -0.0009548746156607067 -0.0006586635593281426 0.0 0.0 0.0 0.0
885020500.0 0.747941824 0.789834752 -0.0012375689080824173 -0.0017032229023189226 0.0 0.0 0.0 0.0
900020000.0 0.593955136 0.960547776 0.0029338934334250943 0.0013961472321374672 0.0 0.0 0.0 0.0
915019500.0 0.384787168 1.052634596 -0.0032399326383653454 0.0006039313624609787 0.0 0.0 0.0 0.0
930019000.0 0.162751568 1.095538024 0.0018212695515084393 -0.005258258820665281 0.0 0.0 0.0 0.0
945018500.0 -0.050796508 1.096956608 0.00429293807369505 -0.0028409376167493443 0.0 0.0 0.0 0.0
960018000.0 -0.23874416 1.061289192 0.0007804634025740341 -0.002310843518471244 0.0 0.0 0.0 0.0
975017500.0 -0.417572736 0.986263424 0.0005476691835079072 -0.005161753085949461 0.0 0.0 0.0 0.0
990017000.0 -0.57644704 0.907994816 0.010044259982069087 0.00019829604671180775 0.0 0.0 0.0 0.0
1005016500.0 -0.715492544 0.792206528 -0.0020826338482481796 -0.0029020408281890146 0.0 0.0 0.0 0.0
1020016000.0 -0.849105856 0.67216768 -0.002200456512170366 0.003573457050614716 0.0 0.0 0.0 0.0
1035015500.0 -0.967523136 0.514678176 0.003992182695382532 0.001344448746727915 0.0 0.0 0.0 0.0
1050015000.0 -1.030679464 0.345148992 0.0028069046089106973 -0.00232333217093572 0.0 0.0 0.0 0.0
1065014500.0 -1.131360296 0.124523328 0.002647819572512014 0.0031998002012179286 0.0 0.0 0.0 0.0
1080014000.0 -1.156721824 -0.123613024 0.0023153686562401043 0.005395670168912005 0.0 0.0 0.0 0.0
1095013500.0 -1.142676832 -0.326712 0.008168494826695684 0.007671368716159254 0.0 0.0 0.0 0.0
1110013000.0 -1.080803632 -0.567208256 0.003916123359605222 0.0006109421433158011 0.0 0.0 0.0 0.0
1125012500.0 -0.940647104 -0.810634368 -0.0036661907729361952 0.0036904939351683685 0.0 0.0 0.0 0.0
1140012000.0 -0.765413248 -1.021228432 0.003342200912915817 0.0072194869309324654 0.0 0.0 0.0 0.0
1155011500.0 -0.52469872 -1.143670912 0.005150919050936272 0.003780808314548858 0.0 0.0 0.0 0.0
1170011000.0 -0.175369728 -1.315539488 0.002695111018713545 -0.0014164076837866412 0.0 0.0 0.0 0.0
1185010500.0 0.176601328 -1.377172832 0.007729959200387967 0.002774649822011855 0.0 0.0 0.0 0.0
1200010000.0 0.551002368 -1.298293344 -0.003118581158714572 0.008089111321680243 0.0 0.0 0.0 0.0
1215009500.0 0.992709888 -1.14365328 0.0022690301733283846 -0.00283101301591963 0.0 0.0 0.0 0.0
1230009000.0 1.356258752 -0.777710464 0.004519856696860459 -0.00707669244438344 0.0 0.0 0.0 0.0
1245008500.0 1.49755216 -0.317653088 -0.004774136824529198 -0.0082804263178531 0.0 0.0 0.0 0.0
1260008000.0 1.435221184 0.175739776 -0.006164264672490969 -0.0028264275367213655 0.0 0.0 0.0 0.0
1275007500.0 1.240934608 0.549280768 0.007871372303376251 0.0022227845270530004 0.0 0.0 0.0 0.0
1290007000.0 0.975870144 0.802195904 0.006065832861659021 0.003947401829592034 0.0 0.0 0.0 0.0
1305006500.0 0.739474944 0.955309696 0.005163590037371733 -0.013086733938481952 0.0 0.0 0.0 0.0
1320006000.0 0.546908224 0.9990144 0.012809761283475024 0.004713774435503711 0.0 0.0 0.0 0.0
1335005500.0 0.32975664 1.03082788 0.0043165501783130195 0.00017064478390749197 0.0 0.0 0.0 0.0
1350005000.0 0.172800688 1.060266612 0.0052326618217000895 0.0022573558361437605 0.0 0.0 0.0 0.0
1365004500.0 0.009426798 1.062496068 0.014176441418700171 -0.012350156621860281 0.0 0.0 0.0 0.0
1380004000.0 -0.1027784 1.093081232 0.008961481758709814 0.01759160759772899 0.0 0.0 0.0 0.0
1395003500.0 -0.243543552 1.093344448 0.008843349975171172 0.0054013129662518235 0.0 0.0 0.0 0.0
1410003000.0 -0.373606528 1.136729008 0.03458786767684586 0.012775563938362846 0.0 0.0 0.0 0.0
1425002500.0 -0.64845664 1.166534304 -0.0014537133980104487 0.008971547644483583 0.0 0.0 0.0 0.0
1440002000.0 -0.962217984 1.136484384 -0.004577654223753028 -0.001441300675810937 0.0 0.0 0.0 0.0
1455001500.0 -1.299036512 0.877587136 0.0028926748174092536 0.03331262050657117 0.0 0.0 0.0 0.0
1470001000.0 -1.524579296 0.422930208 -0.018804628738348254 -0.004308849609262184 0.0 0.0 0.0 0.0
1485000500.0 -1.47710752 -0.04059536 0.027780718755228598 0.030363771142934575 0.0 0.0 0.0 0.0
1500000000.0 -1.306319488 -0.330131456 -0.027843661881566974 0.036963301087691 0.0 0.0 0.0 0.0
