! Created with skrf 1.8.0 (http://scikit-rf.org).
# Hz S RI R 50.0 
!freq ReS11 ImS11 ReS21 ImS21 ReS12 ImS12 ReS22 ImS22
50000.0 0.996483968 -0.000584996 -0.000185248 0.00024168 0.0 0.0 0.0 0.0
15049500.0 0.97824736 0.21981448 -3.791e-05 9.421e-06 0.0 0.0 0.0 0.0
30049000.0 0.90727072 0.427323328 1.3174e-05 -2.771e-05 0.0 0.0 0.0 0.0
45048500.0 0.79041504 0.6141216 -1.94e-06 -4.4768e-05 0.0 0.0 0.0 0.0
60048000.0 0.642850368 0.772191936 2.2984e-05 -3.6779e-05 0.0 0.0 0.0 0.0
75047500.0 0.463223904 0.895042496 2.094e-06 7.477e-06 0.0 0.0 0.0 0.0
90047000.0 0.248012032 0.976129664 -1.8542e-05 3.744e-06 0.0 0.0 0.0 0.0
105046500.0 0.030680024 1.00936091 -4.4028e-05 1.9595e-05 0.0 0.0 0.0 0.0
120046000.0 -0.189628912 0.993826368 -2.3996e-05 3.9837e-05 0.0 0.0 0.0 0.0
135045500.0 -0.402027104 0.928087232 -5.722e-06 -1.2478e-05 0.0 0.0 0.0 0.0
150045000.0 -0.599226752 0.82014464 -1.1603e-05 -3.834e-06 0.0 0.0 0.0 0.0
165044500.0 -0.765548288 0.668162688 -1.6497e-05 4.0438e-05 0.0 0.0 0.0 0.0
180044000.0 -0.892698176 0.482185056 4.1444e-05 1.817e-06 0.0 0.0 0.0 0.0
195043500.0 -0.981335744 0.273891936 4.0338e-05 9.524e-06 0.0 0.0 0.0 0.0
210043000.0 -1.020656348 0.047578276 5.702e-06 1.2586e-05 0.0 0.0 0.0 0.0
225042500.0 -1.00355351 -0.183446656 1.3341e-05 -8.78e-07 0.0 0.0 0.0 0.0
240042000.0 -0.938885376 -0.408187264 1.641e-06 1.8052e-05 0.0 0.0 0.0 0.0
255041500.0 -0.82103744 -0.610413952 -4.1882e-05 -4.561e-06 0.0 0.0 0.0 0.0
270041000.0 -0.656610944 -0.781257408 -2.0844e-05 -2.2971e-05 0.0 0.0 0.0 0.0
285040500.0 -0.458469408 -0.913867776 -4.53e-06 -4.2081e-05 0.0 0.0 0.0 0.0
300040000.0 -0.234189024 -0.966793088 -0.000149387 0.000132518 0.0 0.0 0.0 0.0
315039500.0 -0.009690012 -1.010566474 5.4e-07 0.000140177 0.0 0.0 0.0 0.0
330039000.0 0.224978256 -0.991880448 0.000363642 -0.000194931 0.0 0.0 0.0 0.0
345038500.0 0.44061264 -0.915595968 -0.00031774 8.1048e-05 0.0 0.0 0.0 0.0
360038000.0 0.63547328 -0.793659776 0.00034092 -8.7702e-05 0.0 0.0 0.0 0.0
375037500.0 0.804386432 -0.635911872 0.000271102 -0.000224642 0.0 0.0 0.0 0.0
390037000.0 0.922623168 -0.447739456 -0.000263541 -0.000215849 0.0 0.0 0.0 0.0
405036500.0 1.004223824 -0.237601632 -3.9074e-05 -5.392e-06 0.0 0.0 0.0 0.0
420036000.0 1.049270748 -0.01393608 0.000113263 0.000134666 0.0 0.0 0.0 0.0
435035500.0 1.037254216 0.222972416 -0.000187621 0.000497764 0.0 0.0 0.0 0.0
450035000.0 0.964757824 0.448830592 -0.000424024 0.000270281 0.0 0.0 0.0 0.0
465034500.0 0.847494976 0.665026048 -0.000323114 0.000615865 0.0 0.0 0.0 0.0
480034000.0 0.685001472 0.830274176 0.000179145 -0.000232555 0.0 0.0 0.0 0.0
495033500.0 0.48736896 0.957813696 -0.000463946 0.000109842 0.0 0.0 0.0 0.0
510033000.0 0.2774712 1.044668316 -0.000175774 7.0493e-05 0.0 0.0 0.0 0.0
525032500.0 0.0540602 1.072265744 0.000113321 -0.000615756 0.0 0.0 0.0 0.0
540032000.0 -0.168244368 1.0536952 0.000269101 -5.327e-05 0.0 0.0 0.0 0.0
555031500.0 -0.37770096 0.994916352 -0.000298566 -0.00052372 0.0 0.0 0.0 0.0
570031000.0 -0.568410368 0.891130176 0.001047112 -0.000396317 0.0 0.0 0.0 0.0
585030500.0 -0.736957312 0.75014016 -0.000212193 0.000255785 0.0 0.0 0.0 0.0
600030000.0 -0.882964672 0.602567168 0.000542511 0.000293558 0.0 0.0 0.0 0.0
615029500.0 -0.98217856 0.39612656 0.000288954 -0.000462854 0.0 0.0 0.0 0.0
630029000.0 -1.041127564 0.176303088 0.000199607 0.000530086 0.0 0.0 0.0 0.0
645028500.0 -1.058126092 -0.059420804 0.000561667 -5.8157e-05 0.0 0.0 0.0 0.0
660028000.0 -1.009152294 -0.299091808 3.971e-05 -0.00010468 0.0 0.0 0.0 0.0
675027500.0 -0.903623424 -0.5194456 -0.000346561 0.000208019 0.0 0.0 0.0 0.0
690027000.0 -0.754073088 -0.709296128 0.000532189 -0.000710369 0.0 0.0 0.0 0.0
705026500.0 -0.565246784 -0.868941184 -2.1632e-05 0.000697068 0.0 0.0 0.0 0.0
720026000.0 -0.332707648 -0.981699584 -0.001129641 -0.000107575 0.0 0.0 0.0 0.0
735025500.0 -0.08318856 -1.034228088 8.281e-05 0.000105394 0.0 0.0 0.0 0.0
750025000.0 0.184840992 -1.02406919 0.000718997 0.000300917 0.0 0.0 0.0 0.0
765024500.0 0.44293424 -0.94698848 -0.000296408 -0.000815923 0.0 0.0 0.0 0.0
780024000.0 0.709004672 -0.766868544 -9.0293e-05 -0.000719332 0.0 0.0 0.0 0.0
795023500.0 0.879370304 -0.61612992 8.5207e-05 -0.000745284 0.0 0.0 0.0 0.0
810023000.0 1.001229525 -0.384318336 -0.00042862 -0.000412959 0.0 0.0 0.0 0.0
825022500.0 1.08587992 -0.116547792 -0.000715311 2.1222e-05 0.0 0.0 0.0 0.0
840022000.0 1.076186776 0.143177616 -8.2374e-05 -0.000769566 0.0 0.0 0.0 0.0
855021500.0 1.00872779 0.38543856 -0.000365237 -0.000248211 0.0 0.0 0.0 0.0
870021000.0 0.89183712 0.597943104 -0.000299109 -0.000655481 0.0 0.0 0.0 0.0
885020500.0 0.748806912 0.77382784 -3.8139e-05 -0.000429634 0.0 0.0 0.0 0.0
900020000.0 0.545193472 0.90417696 0.000159268 0.000516877 0.0 0.0 0.0 0.0
915019500.0 0.560515328 0.889416768 0.001667874 0.000636214 0.0 0.0 0.0 0.0
930019000.0 0.58518208 0.890909888 -0.0010115 0.001755351 0.0 0.0 0.0 0.0
945018500.0 0.590005952 0.882295552 0.001549316 0.000820327 0.0 0.0 0.0 0.0
960018000.0 0.615640256 0.866773696 -0.002773502 -0.001793183 0.0 0.0 0.0 0.0
975017500.0 0.657773696 0.852346176 -0.001351907 -0.002081363 0.0 0.0 0.0 0.0
990017000.0 0.6529136 0.842545344 0.000894399 -0.000793206 0.0 0.0 0.0 0.0
1005016500.0 0.67967808 0.833287616 0.001210884 -0.001285128 0.0 0.0 0.0 0.0
1020016000.0 0.699800448 0.822919104 0.000427089 -0.000905165 0.0 0.0 0.0 0.0
1035015500.0 0.730333632 0.817993344 0.000540959 -0.005865668 0.0 0.0 0.0 0.0
1050015000.0 0.776365568 0.816193024 0.003087489 0.005885047 0.0 0.0 0.0 0.0
1065014500.0 0.78623968 0.7864624 0.00041147 0.000541888 0.0 0.0 0.0 0.0
1080014000.0 0.817103936 0.774525568 0.00179269 -0.002329756 0.0 0.0 0.0 0.0
1095013500.0 0.850424576 0.772901376 0.000563045 -0.000115471 0.0 0.0 0.0 0.0
1110013000.0 0.876505344 0.733561664 0.003455534 -0.003171436 0.0 0.0 0.0 0.0
1125012500.0 0.89893728 0.722651584 -0.006548024 -0.002777503 0.0 0.0 0.0 0.0
1140012000.0 0.936143936 0.691207936 -0.000267343 0.004143164 0.0 0.0 0.0 0.0
1155011500.0 0.983624704 0.653184896 -0.000464074 -0.003232717 0.0 0.0 0.0 0.0
1170011000.0 0.956050496 0.691597888 0.005758683 0.00309354 0.0 0.0 0.0 0.0
1185010500.0 0.996392192 0.631936896 0.001579679 0.006530118 0.0 0.0 0.0 0.0
1200010000.0 1.033666968 0.611454848 -0.002918076 -0.004266768 0.0 0.0 0.0 0.0
1215009500.0 1.061473252 0.578437888 -0.002612903 -0.002976844 0.0 0.0 0.0 0.0
1230009000.0 1.08861232 0.54771168 -0.001233077 -0.00166823 0.0 0.0 0.0 0.0
1245008500.0 1.104000568 0.51655888 0.006748897 -0.000643927 0.0 0.0 0.0 0.0
1260008000.0 1.154617664 0.478885408 -0.000752334 0.003671991 0.0 0.0 0.0 0.0
1275007500.0 1.189907904 0.408263712 0.003246217 -0.004639396 0.0 0.0 0.0 0.0
1290007000.0 1.227580064 0.392150272 -0.001717496 0.000364852 0.0 0.0 0.0 0.0
1305006500.0 1.230615024 0.334053856 0.006192643 0.004277127 0.0 0.0 0.0 0.0
1320006000.0 1.258230096 0.293872672 -0.002532593 -0.007854061 0.0 0.0 0.0 0.0
1335005500.0 1.27465712 0.211185104 0.008556718 0.000131924 0.0 0.0 0.0 0.0
1350005000.0 1.275913344 0.136601536 0.000832312 -0.007043894 0.0 0.0 0.0 0.0
1365004500.0 1.314896928 0.167952208 -0.008721376 0.004167586 0.0 0.0 0.0 0.0
1380004000.0 1.287040832 0.072698976 0.001027017 0.014312566 0.0 0.0 0.0 0.0
1395003500.0 1.275506272 0.040244068 0.018786322 -0.004814408 0.0 0.0 0.0 0.0
1410003000.0 1.312989472 -0.045464704 -0.001907812 -0.004154842 0.0 0.0 0.0 0.0
1425002500.0 1.324076416 -0.09009388 0.008830564 -0.016467474 0.0 0.0 0.0 0.0
1440002000.0 1.288771168 -0.161998384 -0.002067162 0.001670893 0.0 0.0 0.0 0.0
1455001500.0 1.266569968 -0.197523104 0.0143642 0.003666173 0.0 0.0 0.0 0.0
1470001000.0 1.227959152 -0.278325216 0.006730597 0.01983723 0.0 0.0 0.0 0.0
1485000500.0 1.226606128 -0.351785152 0.010185324 -0.006562145 0.0 0.0 0.0 0.0
1500000000.0 1.229912512 -0.360032768 -0.001009936 -0.018711844 0.0 0.0 0.0 0.0
