! Created with skrf 1.8.0 (http://scikit-rf.org).
# Hz S RI R 50.0 
!freq ReS11 ImS11 ReS21 ImS21 ReS12 ImS12 ReS22 ImS22
50000.0 0.666923904 -0.010445194 -8.5113e-05 1.3689e-05 0.0 0.0 0.0 0.0
15049500.0 0.664354624 -0.041434264 -4.4467e-05 1.0592e-05 0.0 0.0 0.0 0.0
30049000.0 0.66195136 -0.06671734 -9.246e-06 -1.215e-05 0.0 0.0 0.0 0.0
45048500.0 0.658153088 -0.09090812 -3.1687e-05 -1.0824e-05 0.0 0.0 0.0 0.0
60048000.0 0.65355616 -0.115448568 -5.2575e-05 -3.728e-05 0.0 0.0 0.0 0.0
75047500.0 0.648042624 -0.138567792 -2.1294e-05 -1.1662e-05 0.0 0.0 0.0 0.0
90047000.0 0.64142272 -0.160379536 -2.8933e-05 2.4693e-05 0.0 0.0 0.0 0.0
105046500.0 0.63417984 -0.183551376 -2.3029e-05 -2.836e-06 0.0 0.0 0.0 0.0
120046000.0 0.62634176 -0.20560088 -6.7813e-05 -1.5694e-05 0.0 0.0 0.0 0.0
135045500.0 0.618172224 -0.227376528 -4.0763e-05 4.0291e-05 0.0 0.0 0.0 0.0
150045000.0 0.607839936 -0.248543968 -2.8558e-05 4.5053e-05 0.0 0.0 0.0 0.0
165044500.0 0.5973344 -0.26895344 -2.066e-06 8.6313e-05 0.0 0.0 0.0 0.0
180044000.0 0.586301632 -0.289703744 -1.3503e-05 5.5229e-05 0.0 0.0 0.0 0.0
195043500.0 0.573495232 -0.309812704 1.1302e-05 4.7843e-05 0.0 0.0 0.0 0.0
210043000.0 0.560663552 -0.329609248 -3.0257e-05 4.2762e-05 0.0 0.0 0.0 0.0
225042500.0 0.547005312 -0.349092128 8.504e-06 4.8117e-05 0.0 0.0 0.0 0.0
240042000.0 0.532035936 -0.367415488 -7.34e-07 6.8392e-05 0.0 0.0 0.0 0.0
255041500.0 0.516888864 -0.386413696 2.8994e-05 3.2989e-05 0.0 0.0 0.0 0.0
270041000.0 0.5004912 -0.403670112 2.9979e-05 5.8435e-05 0.0 0.0 0.0 0.0
285040500.0 0.483531936 -0.4212824 2.5066e-05 4.2439e-05 0.0 0.0 0.0 0.0
300040000.0 0.469802048 -0.428855648 -0.000147754 -0.000349142 0.0 0.0 0.0 0.0
315039500.0 0.454133216 -0.442544064 6.3983e-05 -5.9609e-05 0.0 0.0 0.0 0.0
330039000.0 0.437973792 -0.456184832 0.000102886 -4.8048e-05 0.0 0.0 0.0 0.0
345038500.0 0.42015536 -0.468218272 9.5577e-05 0.000170115 0.0 0.0 0.0 0.0
360038000.0 0.403375104 -0.480618016 4.4553e-05 1.5325e-05 0.0 0.0 0.0 0.0
375037500.0 0.385582048 -0.490709856 6.246e-06 0.000256924 0.0 0.0 0.0 0.0
390037000.0 0.365938784 -0.501330976 0.000115233 0.000393978 0.0 0.0 0.0 0.0
405036500.0 0.351695232 -0.512074784 0.000480591 4.5641e-05 0.0 0.0 0.0 0.0
420036000.0 0.334464224 -0.520028832 9.9657e-05 -3.0367e-05 0.0 0.0 0.0 0.0
435035500.0 0.318365696 -0.527591872 0.000195886 0.000259646 0.0 0.0 0.0 0.0
450035000.0 0.302995904 -0.534906272 0.000639117 0.000102866 0.0 0.0 0.0 0.0
465034500.0 0.28124032 -0.539093568 0.000554145 -5.0762e-05 0.0 0.0 0.0 0.0
480034000.0 0.262011344 -0.545773376 0.000576888 -0.000157169 0.0 0.0 0.0 0.0
495033500.0 0.244727296 -0.550692864 0.000443119 0.000368715 0.0 0.0 0.0 0.0
510033000.0 0.227020768 -0.554638144 0.000233552 -0.000223535 0.0 0.0 0.0 0.0
525032500.0 0.208372576 -0.557654464 9.5503e-05 -0.000169731 0.0 0.0 0.0 0.0
540032000.0 0.191849712 -0.561364736 0.000428082 -0.000598745 0.0 0.0 0.0 0.0
555031500.0 0.174819872 -0.562909952 0.000179567 -0.000597293 0.0 0.0 0.0 0.0
570031000.0 0.15734976 -0.563708672 4.474e-06 -0.000212796 0.0 0.0 0.0 0.0
585030500.0 0.140552544 -0.566060672 0.000116464 -6.7072e-05 0.0 0.0 0.0 0.0
600030000.0 0.125263896 -0.572621376 -0.000168992 -0.00058211 0.0 0.0 0.0 0.0
615029500.0 0.109623016 -0.574731008 0.000296054 -0.000846399 0.0 0.0 0.0 0.0
630029000.0 0.092824856 -0.57396832 -4.1925e-05 -0.000214922 0.0 0.0 0.0 0.0
645028500.0 0.075947168 -0.57333248 -2.4328e-05 -0.000454407 0.0 0.0 0.0 0.0
660028000.0 0.062544004 -0.573861056 0.000111014 -0.000528756 0.0 0.0 0.0 0.0
675027500.0 0.046850828 -0.572128576 0.000134325 -0.00076437 0.0 0.0 0.0 0.0
690027000.0 0.030012256 -0.569814976 7.0386e-05 -0.000452685 0.0 0.0 0.0 0.0
705026500.0 0.017860922 -0.568486784 0.00033074 -0.000352609 0.0 0.0 0.0 0.0
720026000.0 0.003953161 -0.566682688 -8.461e-06 -0.000599782 0.0 0.0 0.0 0.0
735025500.0 -0.009572706 -0.563923008 -0.000308913 -0.000336607 0.0 0.0 0.0 0.0
750025000.0 -0.021810742 -0.561030144 -0.00027728 -0.000458288 0.0 0.0 0.0 0.0
765024500.0 -0.035358732 -0.558590528 -0.000127635 -0.000137143 0.0 0.0 0.0 0.0
780024000.0 -0.061761448 -0.562171072 -7.2438e-05 -0.0002421 0.0 0.0 0.0 0.0
795023500.0 -0.0597152 -0.55611072 -0.000241034 -0.000462294 0.0 0.0 0.0 0.0
810023000.0 -0.070623872 -0.554881536 2.026e-05 -0.000366413 0.0 0.0 0.0 0.0
825022500.0 -0.083671256 -0.551465728 -0.000104862 -0.000474366 0.0 0.0 0.0 0.0
840022000.0 -0.08950812 -0.550644992 0.000111816 9.2824e-05 0.0 0.0 0.0 0.0
855021500.0 -0.104311944 -0.546392896 -0.000229001 2.6759e-05 0.0 0.0 0.0 0.0
870021000.0 -0.1192452 -0.54543552 -0.000441082 -0.000934419 0.0 0.0 0.0 0.0
885020500.0 -0.126874136 -0.546766976 0.000696566 -0.000212345 0.0 0.0 0.0 0.0
900020000.0 -0.123840416 -0.542036608 0.000259013 0.001078838 0.0 0.0 0.0 0.0
915019500.0 -0.13848904 -0.543681216 0.000715159 -0.001644278 0.0 0.0 0.0 0.0
930019000.0 -0.1430564 -0.546597248 0.001531548 0.00120484 0.0 0.0 0.0 0.0
945018500.0 -0.15412832 -0.54410176 -0.000458159 -0.000546911 0.0 0.0 0.0 0.0
960018000.0 -0.166482992 -0.550416832 -0.000194212 -0.000437522 0.0 0.0 0.0 0.0
975017500.0 -0.176540288 -0.559642752 -0.000275384 -0.002243919 0.0 0.0 0.0 0.0
990017000.0 -0.1871356 -0.555777408 0.000130483 -0.001860029 0.0 0.0 0.0 0.0
1005016500.0 -0.200778192 -0.560429504 -0.001093366 -0.000572527 0.0 0.0 0.0 0.0
1020016000.0 -0.21391576 -0.556171968 0.001931064 -0.000202438 0.0 0.0 0.0 0.0
1035015500.0 -0.225553872 -0.56666144 0.001848048 -0.000991139 0.0 0.0 0.0 0.0
1050015000.0 -0.2365156 -0.572000128 0.00329764 0.002071677 0.0 0.0 0.0 0.0
1065014500.0 -0.250233504 -0.576081152 0.000928154 -0.000316485 0.0 0.0 0.0 0.0
1080014000.0 -0.273876544 -0.580731968 0.001508251 -0.003147254 0.0 0.0 0.0 0.0
1095013500.0 -0.289444384 -0.583398912 -0.001989495 0.000325539 0.0 0.0 0.0 0.0
1110013000.0 -0.306084128 -0.586970624 -0.001141037 -0.001383255 0.0 0.0 0.0 0.0
1125012500.0 -0.31959712 -0.57675072 0.000651496 -0.000855603 0.0 0.0 0.0 0.0
1140012000.0 -0.350293472 -0.58820224 -0.002370006 -0.003364941 0.0 0.0 0.0 0.0
1155011500.0 -0.38781936 -0.58348608 0.001687131 -0.000562161 0.0 0.0 0.0 0.0
1170011000.0 -0.396226432 -0.569685056 -0.001024434 0.002863791 0.0 0.0 0.0 0.0
1185010500.0 -0.416801408 -0.577481088 -0.000409288 -0.004053864 0.0 0.0 0.0 0.0
1200010000.0 -0.437895168 -0.576828352 0.000414747 0.003289477 0.0 0.0 0.0 0.0
1215009500.0 -0.471178368 -0.572471808 0.000621237 0.003579641 0.0 0.0 0.0 0.0
1230009000.0 -0.500666976 -0.578172992 0.003285641 0.004911332 0.0 0.0 0.0 0.0
1245008500.0 -0.534667136 -0.566362112 0.004305541 0.003453544 0.0 0.0 0.0 0.0
1260008000.0 -0.559758848 -0.568235072 -0.003570041 -0.000247562 0.0 0.0 0.0 0.0
1275007500.0 -0.601294208 -0.553783488 -0.001712113 0.000279361 0.0 0.0 0.0 0.0
1290007000.0 -0.622918016 -0.552073664 2.772e-05 0.007191817 0.0 0.0 0.0 0.0
1305006500.0 -0.668838528 -0.52301824 0.003257927 -0.000750312 0.0 0.0 0.0 0.0
1320006000.0 -0.695422016 -0.502443424 0.004469107 0.002597914 0.0 0.0 0.0 0.0
1335005500.0 -0.73609312 -0.468109024 0.001971431 -0.000152428 0.0 0.0 0.0 0.0
1350005000.0 -0.756831808 -0.442817984 0.003200961 0.003931473 0.0 0.0 0.0 0.0
1365004500.0 -0.764777792 -0.494214336 -0.005061673 -0.007649539 0.0 0.0 0.0 0.0
1380004000.0 -0.829699968 -0.396733376 -0.00175557 0.001857932 0.0 0.0 0.0 0.0
1395003500.0 -0.831234432 -0.360081952 0.002511677 0.018079476 0.0 0.0 0.0 0.0
1410003000.0 -0.84233248 -0.310177248 0.000533305 -0.000921248 0.0 0.0 0.0 0.0
1425002500.0 -0.855249792 -0.251074256 0.003810312 0.004994876 0.0 0.0 0.0 0.0
1440002000.0 -0.883262464 -0.22913096 0.009633944 0.003041606 0.0 0.0 0.0 0.0
1455001500.0 -0.901557888 -0.170525872 0.001372567 0.014276198 0.0 0.0 0.0 0.0
1470001000.0 -0.905692608 -0.179033824 0.000526126 0.010173468 0.0 0.0 0.0 0.0
1485000500.0 -0.908729024 -0.10357892 -0.015220114 0.00502964 0.0 0.0 0.0 0.0
1500000000.0 -0.907753408 -0.061433516 -0.005187669 -0.002721025 0.0 0.0 0.0 0.0
