! Created with skrf 1.8.0 (http://scikit-rf.org).
# Hz S RI R 50.0 
!freq ReS11 ImS11 ReS21 ImS21 ReS12 ImS12 ReS22 ImS22
50000.0 0.997606784 -1.396e-05 -0.000250579 -0.000106415 0.0 0.0 0.0 0.0
15049500.0 0.977992384 0.219451072 -1.485e-06 2.255e-05 0.0 0.0 0.0 0.0
30049000.0 0.907558848 0.42699184 -3.9317e-05 -2.7895e-05 0.0 0.0 0.0 0.0
45048500.0 0.790480256 0.6138288 -4.0253e-05 4.042e-06 0.0 0.0 0.0 0.0
60048000.0 0.642831552 0.771929856 2.6236e-05 -3.05e-07 0.0 0.0 0.0 0.0
75047500.0 0.463548768 0.894799808 -2.2669e-05 -3.546e-06 0.0 0.0 0.0 0.0
90047000.0 0.248460288 0.976043008 -1.6479e-05 3.5675e-05 0.0 0.0 0.0 0.0
105046500.0 0.03083257 1.00922978 -1.527e-05 -4.752e-06 0.0 0.0 0.0 0.0
120046000.0 -0.1891836 0.993808896 -2.5246e-05 2.5754e-05 0.0 0.0 0.0 0.0
135045500.0 -0.402051648 0.927817408 4.75e-06 1.14e-06 0.0 0.0 0.0 0.0
150045000.0 -0.59847808 0.819663552 2.5986e-05 2.6341e-05 0.0 0.0 0.0 0.0
165044500.0 -0.765353216 0.668678144 6.154e-06 -1.0852e-05 0.0 0.0 0.0 0.0
180044000.0 -0.89244544 0.48231952 1.9107e-05 -4.76e-07 0.0 0.0 0.0 0.0
195043500.0 -0.981142848 0.274135136 2.2229e-05 1.158e-05 0.0 0.0 0.0 0.0
210043000.0 -1.019881606 0.048179196 1.1934e-05 1.3627e-05 0.0 0.0 0.0 0.0
225042500.0 -1.003815055 -0.182923424 9.397e-06 -9.507e-06 0.0 0.0 0.0 0.0
240042000.0 -0.939259584 -0.408332992 -1.4393e-05 1.5941e-05 0.0 0.0 0.0 0.0
255041500.0 -0.821104896 -0.610375552 1.64e-05 -2.2092e-05 0.0 0.0 0.0 0.0
270041000.0 -0.656106688 -0.78063488 4.576e-05 -5.448e-06 0.0 0.0 0.0 0.0
285040500.0 -0.461077952 -0.914135936 -1.2426e-05 -2.1054e-05 0.0 0.0 0.0 0.0
300040000.0 -0.236604176 -0.969480512 0.000680266 0.000192564 0.0 0.0 0.0 0.0
315039500.0 -0.010872472 -1.010839582 0.000297179 0.00015163 0.0 0.0 0.0 0.0
330039000.0 0.219266464 -0.990089408 0.000710845 -0.000207687 0.0 0.0 0.0 0.0
345038500.0 0.440652416 -0.91593056 -0.000262017 -0.00056648 0.0 0.0 0.0 0.0
360038000.0 0.634981248 -0.795080896 0.00022553 0.000113639 0.0 0.0 0.0 0.0
375037500.0 0.80123232 -0.63787552 0.000341438 6.6658e-05 0.0 0.0 0.0 0.0
390037000.0 0.938376384 -0.444077824 -4.7678e-05 -6.4486e-05 0.0 0.0 0.0 0.0
405036500.0 1.006751061 -0.237612288 0.000442093 -9.315e-05 0.0 0.0 0.0 0.0
420036000.0 1.04781592 -0.011756944 -0.000113419 -0.000348487 0.0 0.0 0.0 0.0
435035500.0 1.037467004 0.223666336 0.000300005 0.000116675 0.0 0.0 0.0 0.0
450035000.0 0.9729056 0.454447808 -0.0001921 -0.000452357 0.0 0.0 0.0 0.0
465034500.0 0.850626176 0.665272256 -0.00040516 -0.000361743 0.0 0.0 0.0 0.0
480034000.0 0.68241568 0.830858432 -0.000392539 -3.9554e-05 0.0 0.0 0.0 0.0
495033500.0 0.489078592 0.959297792 -0.000132141 -0.00041066 0.0 0.0 0.0 0.0
510033000.0 0.27641904 1.040152548 -0.000193088 0.000316619 0.0 0.0 0.0 0.0
525032500.0 0.052488884 1.076142072 -0.000142056 -0.000511603 0.0 0.0 0.0 0.0
540032000.0 -0.165472048 1.055039288 -0.000229628 0.000184164 0.0 0.0 0.0 0.0
555031500.0 -0.378650464 0.995568 0.000170546 -0.000570692 0.0 0.0 0.0 0.0
570031000.0 -0.567249344 0.894674624 -0.0002012 -0.000208437 0.0 0.0 0.0 0.0
585030500.0 -0.731010176 0.745530816 -0.000542622 0.000198338 0.0 0.0 0.0 0.0
600030000.0 -0.87706048 0.597966208 0.000332865 0.000490928 0.0 0.0 0.0 0.0
615029500.0 -0.984468224 0.398790272 -0.000799165 0.0003134 0.0 0.0 0.0 0.0
630029000.0 -1.041500928 0.177959392 -0.000226908 -0.000249262 0.0 0.0 0.0 0.0
645028500.0 -1.055865764 -0.059067708 0.000370344 -2.2338e-05 0.0 0.0 0.0 0.0
660028000.0 -1.004430771 -0.289436832 0.000493977 8.9702e-05 0.0 0.0 0.0 0.0
675027500.0 -0.903216576 -0.516807264 0.000288462 -0.000197887 0.0 0.0 0.0 0.0
690027000.0 -0.757364608 -0.710905536 9.2053e-05 -0.0004023 0.0 0.0 0.0 0.0
705026500.0 -0.565138944 -0.870085376 -0.000701637 -7.0666e-05 0.0 0.0 0.0 0.0
720026000.0 -0.338422304 -0.971906752 -0.000261703 -0.000686276 0.0 0.0 0.0 0.0
735025500.0 -0.077971544 -1.028624654 0.000230709 -3.0225e-05 0.0 0.0 0.0 0.0
750025000.0 0.179249792 -1.028452634 -0.000188784 0.000563292 0.0 0.0 0.0 0.0
765024500.0 0.444649248 -0.949180928 0.000582456 0.000289868 0.0 0.0 0.0 0.0
780024000.0 0.62997952 -0.787473664 -0.000160861 0.000281822 0.0 0.0 0.0 0.0
795023500.0 0.873847296 -0.621036288 -1.7459e-05 4.8592e-05 0.0 0.0 0.0 0.0
810023000.0 1.003289342 -0.383135712 -0.00055929 -0.000463463 0.0 0.0 0.0 0.0
825022500.0 1.093091968 -0.112760784 -0.000162001 -0.001214644 0.0 0.0 0.0 0.0
840022000.0 1.087685704 0.141311664 0.00028483 -0.000288241 0.0 0.0 0.0 0.0
855021500.0 1.01164031 0.391471616 -0.000283481 -0.000395345 0.0 0.0 0.0 0.0
870021000.0 0.905109376 0.603121728 0.000108265 -9.1024e-05 0.0 0.0 0.0 0.0
885020500.0 0.749471936 0.767450816 -0.000317689 0.000172351 0.0 0.0 0.0 0.0
900020000.0 0.544319488 0.903335744 0.001641566 -0.000871151 0.0 0.0 0.0 0.0
915019500.0 0.5516592 0.895262528 -0.000874855 0.000212624 0.0 0.0 0.0 0.0
930019000.0 0.582106816 0.889751616 0.000179344 -0.000939711 0.0 0.0 0.0 0.0
945018500.0 0.599721728 0.879636736 0.00094064 -0.00031423 0.0 0.0 0.0 0.0
960018000.0 0.60863616 0.873177472 -8.4095e-05 -0.000157712 0.0 0.0 0.0 0.0
975017500.0 0.645999808 0.849847744 -0.00162078 -0.001426477 0.0 0.0 0.0 0.0
990017000.0 0.662219136 0.853827136 -0.003372238 -0.000652925 0.0 0.0 0.0 0.0
1005016500.0 0.687641472 0.836633472 -0.001520304 -2.4154e-05 0.0 0.0 0.0 0.0
1020016000.0 0.693885248 0.8114336 -0.001876789 -2.8207e-05 0.0 0.0 0.0 0.0
1035015500.0 0.729534528 0.824225536 0.001882259 0.000446671 0.0 0.0 0.0 0.0
1050015000.0 0.719287168 0.841369024 -0.001003748 0.000382517 0.0 0.0 0.0 0.0
1065014500.0 0.780758784 0.808600576 -0.001302152 -0.001861603 0.0 0.0 0.0 0.0
1080014000.0 0.814427456 0.783932736 3.6862e-05 0.000583935 0.0 0.0 0.0 0.0
1095013500.0 0.847990336 0.767928768 0.000231878 -0.00111069 0.0 0.0 0.0 0.0
1110013000.0 0.866430208 0.752311616 0.000411116 -0.006844526 0.0 0.0 0.0 0.0
1125012500.0 0.906862784 0.731869312 -0.005575021 -0.000661897 0.0 0.0 0.0 0.0
1140012000.0 0.932321792 0.702106624 -0.00513155 -0.002170362 0.0 0.0 0.0 0.0
1155011500.0 1.005912662 0.646234752 -0.002920987 -0.002974262 0.0 0.0 0.0 0.0
1170011000.0 0.999129216 0.692771648 0.000307369 -0.000222807 0.0 0.0 0.0 0.0
1185010500.0 1.019643664 0.635620864 -0.004992031 -0.004309394 0.0 0.0 0.0 0.0
1200010000.0 1.039830684 0.604687744 -0.001037987 0.003787585 0.0 0.0 0.0 0.0
1215009500.0 1.074098824 0.573457984 0.003940495 0.002075064 0.0 0.0 0.0 0.0
1230009000.0 1.100584152 0.544176064 0.000919654 -0.002235613 0.0 0.0 0.0 0.0
1245008500.0 1.139637952 0.52002544 0.010783804 -0.005558751 0.0 0.0 0.0 0.0
1260008000.0 1.18584216 0.465784384 0.011174018 0.003981229 0.0 0.0 0.0 0.0
1275007500.0 1.19510376 0.424516768 0.010719782 0.001963331 0.0 0.0 0.0 0.0
1290007000.0 1.227070576 0.390549632 0.005350743 0.005163512 0.0 0.0 0.0 0.0
1305006500.0 1.261162048 0.32299584 0.005394321 0.01333608 0.0 0.0 0.0 0.0
1320006000.0 1.25212872 0.276894144 0.000208974 0.007390496 0.0 0.0 0.0 0.0
1335005500.0 1.283474432 0.237492736 -0.000268125 0.002756241 0.0 0.0 0.0 0.0
1350005000.0 1.301658496 0.18466616 -0.013359552 0.008131941 0.0 0.0 0.0 0.0
1365004500.0 1.20607376 0.059144896 -0.005547899 -0.006198706 0.0 0.0 0.0 0.0
1380004000.0 1.261212944 0.068433896 0.025600614 -0.027347788 0.0 0.0 0.0 0.0
1395003500.0 1.295758496 -0.0308874 0.013229792 -0.000822951 0.0 0.0 0.0 0.0
1410003000.0 1.292882688 -0.054934912 8.4017e-05 -0.00108974 0.0 0.0 0.0 0.0
1425002500.0 1.283743488 -0.111739312 0.003641859 -0.012435112 0.0 0.0 0.0 0.0
1440002000.0 1.268962752 -0.203882176 0.017035254 -0.01565857 0.0 0.0 0.0 0.0
1455001500.0 1.259648688 -0.267369568 0.014812076 0.014537114 0.0 0.0 0.0 0.0
1470001000.0 1.27001904 -0.310269408 0.031709832 -0.010295584 0.0 0.0 0.0 0.0
1485000500.0 1.222583296 -0.340738848 0.018808122 0.004133587 0.0 0.0 0.0 0.0
1500000000.0 1.18464088 -0.42531616 0.007387629 0.016115828 0.0 0.0 0.0 0.0
