! Created with skrf 1.8.0 (http://scikit-rf.org).
# Hz S RI R 50.0 
!freq ReS11 ImS11 ReS21 ImS21 ReS12 ImS12 ReS22 ImS22
50000.0 0.99774048 0.001128538 3.2154936128369156e-05 7.683660825140902e-05 0.0 0.0 0.0 0.0
15049500.0 0.977101632 0.220340736 3.2697710287688294e-05 -2.0864044525029262e-05 0.0 0.0 0.0 0.0
30049000.0 0.907017728 0.428238912 5.3697283359006666e-05 1.9782365527472837e-05 0.0 0.0 0.0 0.0
45048500.0 0.793212864 0.616675584 4.179848955406135e-05 7.087546468982777e-05 0.0 0.0 0.0 0.0
60048000.0 0.643269824 0.77388 2.7883548684578065e-05 3.6330919872124963e-05 0.0 0.0 0.0 0.0
75047500.0 0.463512704 0.89733632 -8.819871692874574e-06 3.437702390145531e-05 0.0 0.0 0.0 0.0
90047000.0 0.247810192 0.9818016 -6.310951793763375e-06 6.661749543068093e-05 0.0 0.0 0.0 0.0
105046500.0 0.027627064 1.01211822 -1.6052248299175144e-05 5.735862263462774e-05 0.0 0.0 0.0 0.0
120046000.0 -0.194234048 0.995145344 -7.929444466420692e-06 6.48936733623082e-05 0.0 0.0 0.0 0.0
135045500.0 -0.408720032 0.929943744 -3.199029956127646e-05 3.468126050159935e-05 0.0 0.0 0.0 0.0
150045000.0 -0.60321024 0.815549376 3.665168149596913e-06 5.744341591892999e-05 0.0 0.0 0.0 0.0
165044500.0 -0.770615232 0.663790848 -5.849301656412017e-05 -1.9828913811813803e-06 0.0 0.0 0.0 0.0
180044000.0 -0.898374336 0.47825008 5.265167137539708e-05 2.0068050172330767e-06 0.0 0.0 0.0 0.0
195043500.0 -0.984499136 0.267739232 -2.108644518940959e-05 -1.2306126493500106e-05 0.0 0.0 0.0 0.0
210043000.0 -1.022401094 0.041190012 -1.3316501406480976e-05 2.0327865389439938e-05 0.0 0.0 0.0 0.0
225042500.0 -1.006414771 -0.191291968 -8.24838282863801e-05 -3.119712826884805e-05 0.0 0.0 0.0 0.0
240042000.0 -0.9387456 -0.41574128 -3.529237662273525e-05 -4.565799568880582e-05 0.0 0.0 0.0 0.0
255041500.0 -0.819665216 -0.619073728 -3.623511525672526e-05 -5.924097186349864e-05 0.0 0.0 0.0 0.0
270041000.0 -0.657078208 -0.790822592 -2.358647308401787e-05 -8.102246574535301e-05 0.0 0.0 0.0 0.0
285040500.0 -0.4571528 -0.923165184 5.260204828711991e-06 -5.350906457003331e-05 0.0 0.0 0.0 0.0
300040000.0 -0.236117952 -0.992043712 -0.0002180682906378113 -0.00030776742926973783 0.0 0.0 0.0 0.0
315039500.0 0.001391276 -1.021828174 -0.00017551984672642404 -0.00018134155741344183 0.0 0.0 0.0 0.0
330039000.0 0.23414808 -0.995416256 0.0002011843931083479 0.00011173740992893003 0.0 0.0 0.0 0.0
345038500.0 0.453394464 -0.914843968 0.00032066282834099794 0.00012549147843719005 0.0 0.0 0.0 0.0
360038000.0 0.650312832 -0.791136512 -0.00015202763000418912 -0.00010244581098468289 0.0 0.0 0.0 0.0
375037500.0 0.812069952 -0.629774656 -0.00035336896110888433 -0.0007476301907446139 0.0 0.0 0.0 0.0
390037000.0 0.930509312 -0.426943776 0.0001216267998764149 -0.000780708083663044 0.0 0.0 0.0 0.0
405036500.0 1.018198014 -0.228215744 0.00019792693373423768 0.00013820405845908678 0.0 0.0 0.0 0.0
420036000.0 1.05404198 -0.000207121 0.00023828996567230946 -0.0007639217793680774 0.0 0.0 0.0 0.0
435035500.0 1.039160132 0.239168432 -4.414515153924989e-05 -0.0006458504527989252 0.0 0.0 0.0 0.0
450035000.0 0.963973312 0.466822656 5.0023363545816733e-05 -0.0008765997743260963 0.0 0.0 0.0 0.0
465034500.0 0.846024704 0.679536832 0.0005334268528129426 -0.00036845910883445313 0.0 0.0 0.0 0.0
480034000.0 0.677392192 0.847097344 0.0004192060664125394 0.0005070244150412539 0.0 0.0 0.0 0.0
495033500.0 0.473099904 0.973405632 0.0005104333778067822 -0.0006902926629341783 0.0 0.0 0.0 0.0
510033000.0 0.261336272 1.049488664 -0.0002629052362737808 -0.0010351020030063835 0.0 0.0 0.0 0.0
525032500.0 0.034058872 1.077537056 0.00030591261579945926 -0.0005751367914024736 0.0 0.0 0.0 0.0
540032000.0 -0.182069264 1.051635624 0.0007521243343062571 -0.0002675661708986578 0.0 0.0 0.0 0.0
555031500.0 -0.389159392 0.986932288 -0.0003165320932579977 -0.00026864583558788 0.0 0.0 0.0 0.0
570031000.0 -0.57614368 0.885597696 0.0002942736392115887 -0.0009706183860705336 0.0 0.0 0.0 0.0
585030500.0 -0.738862272 0.74811904 -0.0005074982312961434 -0.00043171270525233104 0.0 0.0 0.0 0.0
600030000.0 -0.875028864 0.601735616 9.306339110299005e-05 0.0006665282417252941 0.0 0.0 0.0 0.0
615029500.0 -0.981614272 0.407032704 0.00028475184871782505 0.0003561660475842424 0.0 0.0 0.0 0.0
630029000.0 -1.045482872 0.191085104 0.00035978003223197835 0.0003400181431293874 0.0 0.0 0.0 0.0
645028500.0 -1.067851064 -0.042716324 0.001168803558205806 0.0008468182502836404 0.0 0.0 0.0 0.0
660028000.0 -1.031928896 -0.276242016 0.0006109406005820281 0.0009396453049068411 0.0 0.0 0.0 0.0
675027500.0 -0.94544224 -0.50957328 0.0005790451766653356 0.0007580506785866037 0.0 0.0 0.0 0.0
690027000.0 -0.79546688 -0.714631168 0.0012281542156039008 0.0015147535061386613 0.0 0.0 0.0 0.0
705026500.0 -0.602714304 -0.88811168 -5.679746309557747e-05 0.0008505676639315101 0.0 0.0 0.0 0.0
720026000.0 -0.365321664 -1.015657306 -0.0006394681199993528 0.0015639543304024235 0.0 0.0 0.0 0.0
735025500.0 -0.093290848 -1.070771936 0.00018407343465515406 0.0009385490328156833 0.0 0.0 0.0 0.0
750025000.0 0.187888608 -1.057415964 0.0003950222701799098 0.0008760558401534176 0.0 0.0 0.0 0.0
765024500.0 0.454313472 -0.981864576 -0.000309280864229851 0.0009858145409793043 0.0 0.0 0.0 0.0
780024000.0 0.65192672 -0.86276576 -0.0010701539905586307 0.0010748504164717239 0.0 0.0 0.0 0.0
795023500.0 0.890617152 -0.631950464 -0.0007342696635628054 0.00033685825718151035 0.0 0.0 0.0 0.0
810023000.0 1.0232234 -0.39061792 -0.0006002080193295704 0.000740809855591483 0.0 0.0 0.0 0.0
825022500.0 1.09088552 -0.129478352 -0.0009419088307042613 -0.0006444089726154747 0.0 0.0 0.0 0.0
840022000.0 1.090196848 0.143814112 -0.0003763325892169648 -0.0007569779024847789 0.0 0.0 0.0 0.0
855021500.0 1.028744102 0.393132544 -0.0022365888610697744 -0.0004630902806090971 0.0 0.0 0.0 0.0
870021000.0 0.909263808 0.605576064 -0.0018207217735316758 9.79778829209359e-05 0.0 0.0 0.0 0.0
885020500.0 0.74526688 0.782013056 -0.0020193941057594614 -0.0016160857517730745 0.0 0.0 0.0 0.0
900020000.0 0.593245632 0.961498816 0.00020979753118850454 -0.002075035049618249 0.0 0.0 0.0 0.0
915019500.0 0.380131008 1.053699256 0.0013745260800393268 -0.0010525609348782244 0.0 0.0 0.0 0.0
930019000.0 0.162357184 1.095345736 0.0011621828301791287 -0.0034512158353172916 0.0 0.0 0.0 0.0
945018500.0 -0.03690254 1.087540984 -0.002447709976828391 -0.0008638430800236576 0.0 0.0 0.0 0.0
960018000.0 -0.234167504 1.054758548 0.0004573578184680389 -0.003033025872741635 0.0 0.0 0.0 0.0
975017500.0 -0.41901856 1.000662565 -3.25540843659844e-05 -0.0014867040847677429 0.0 0.0 0.0 0.0
990017000.0 -0.571433152 0.901177792 0.005278302101578077 -0.004347127705458682 0.0 0.0 0.0 0.0
1005016500.0 -0.71622784 0.791344256 0.005540912659749914 -0.004271950696748282 0.0 0.0 0.0 0.0
1020016000.0 -0.838842432 0.660551616 0.005731173639012956 -0.0027323473177412842 0.0 0.0 0.0 0.0
1035015500.0 -0.968549248 0.510652 0.0026360407205102713 0.0037699965183082993 0.0 0.0 0.0 0.0
1050015000.0 -1.085513592 0.36047232 -5.880610173049736e-05 -0.005692034149785932 0.0 0.0 0.0 0.0
1065014500.0 -1.127890944 0.125942184 0.004815190542364381 0.002690922598564592 0.0 0.0 0.0 0.0
1080014000.0 -1.158292528 -0.092859976 0.013573642278071606 0.0035679501136259024 0.0 0.0 0.0 0.0
1095013500.0 -1.1497624 -0.332215488 0.009641816408721061 0.0037607561039790034 0.0 0.0 0.0 0.0
1110013000.0 -1.078204272 -0.5609024 0.005189817280750853 -0.0005141697687630233 0.0 0.0 0.0 0.0
1125012500.0 -0.955809792 -0.820769792 0.00026239533548841023 -0.0021387467813399337 0.0 0.0 0.0 0.0
1140012000.0 -0.761225152 -1.029536486 0.002708590024254601 0.00697420988478476 0.0 0.0 0.0 0.0
1155011500.0 -0.493778496 -1.117357848 0.001851087844943275 0.002465365746870282 0.0 0.0 0.0 0.0
1170011000.0 -0.19569536 -1.347318304 0.0034027881342995852 0.000633119641412226 0.0 0.0 0.0 0.0
1185010500.0 0.15026776 -1.37424112 -0.006651703371831504 0.0023079875986268647 0.0 0.0 0.0 0.0
1200010000.0 0.576264896 -1.302173376 0.0016238800823095989 0.007570086777146492 0.0 0.0 0.0 0.0
1215009500.0 0.979254528 -1.12746 -0.0020882258432318745 0.004083707585083379 0.0 0.0 0.0 0.0
1230009000.0 1.343822944 -0.703639488 0.0023230707803253555 -0.00222030754354516 0.0 0.0 0.0 0.0
1245008500.0 1.462463968 -0.284020704 -0.007585052176924331 0.006420218705516773 0.0 0.0 0.0 0.0
1260008000.0 1.4543376 0.146696544 0.006014379294769316 0.009855344493920554 0.0 0.0 0.0 0.0
1275007500.0 1.287626624 0.52587664 0.0034848678677502866 -0.003497653571803041 0.0 0.0 0.0 0.0
1290007000.0 1.042203428 0.828417664 0.011548425651764772 0.0009026556453163312 0.0 0.0 0.0 0.0
1305006500.0 0.736278976 0.934707776 0.008014968726222768 0.0001455122704790613 0.0 0.0 0.0 0.0
1320006000.0 0.529584992 1.015218258 -0.0053476395572607804 0.0030549955137447776 0.0 0.0 0.0 0.0
1335005500.0 0.324319104 1.062761904 0.0028316930004992106 -0.016841500162926574 0.0 0.0 0.0 0.0
1350005000.0 0.162265392 1.041112424 -0.0031793078925266213 -0.0054900392188309485 0.0 0.0 0.0 0.0
1365004500.0 0.062134468 1.057811856 0.021913791157877296 -0.0016156077868640167 0.0 0.0 0.0 0.0
1380004000.0 -0.082949552 1.06892872 0.012376846466872782 0.002782142415864928 0.0 0.0 0.0 0.0
1395003500.0 -0.245081328 1.071746112 -0.00739912956358532 -0.0013877798269562485 0.0 0.0 0.0 0.0
1410003000.0 -0.370852672 1.136837008 -0.0035276590578673266 0.013841191154317848 0.0 0.0 0.0 0.0
1425002500.0 -0.6256592 1.140511392 0.007762481948977208 -0.004184167579582347 0.0 0.0 0.0 0.0
1440002000.0 -0.950208512 1.135144 -0.0016762057529833376 0.030908045180526148 0.0 0.0 0.0 0.0
1455001500.0 -1.32044912 0.870884864 -0.01980144221571043 0.028735709115166805 0.0 0.0 0.0 0.0
1470001000.0 -1.531850688 0.379234432 -0.01412464258087187 0.01063320104614698 0.0 0.0 0.0 0.0
1485000500.0 -1.519366976 0.003329129 -0.01805355934506546 0.013389463866765523 0.0 0.0 0.0 0.0
1500000000.0 -1.345166336 -0.313307296 0.03682212876808259 -0.009776002209507164 0.0 0.0 0.0 0.0
