! Created with skrf 1.8.0 (http://scikit-rf.org).
# Hz S RI R 50.0 
!freq ReS11 ImS11 ReS21 ImS21 ReS12 ImS12 ReS22 ImS22
50000.0 0.665937088 -0.01064798 2.1303e-05 1.4318e-05 0.0 0.0 0.0 0.0
15049500.0 0.664448256 -0.041278832 -4.8218e-05 1.1362e-05 0.0 0.0 0.0 0.0
30049000.0 0.661809216 -0.066665204 -4.2235e-05 1.1697e-05 0.0 0.0 0.0 0.0
45048500.0 0.658276224 -0.091159392 -2.068e-05 -1.2112e-05 0.0 0.0 0.0 0.0
60048000.0 0.653679168 -0.115600872 -1.8102e-05 1.776e-06 0.0 0.0 0.0 0.0
75047500.0 0.648057792 -0.138737728 -3.4684e-05 -9.424e-06 0.0 0.0 0.0 0.0
90047000.0 0.641378624 -0.16065984 -5.1626e-05 2.3028e-05 0.0 0.0 0.0 0.0
105046500.0 0.634154752 -0.183745008 -5.6034e-05 8.719e-06 0.0 0.0 0.0 0.0
120046000.0 0.626287424 -0.20593528 -2.2622e-05 6.299e-06 0.0 0.0 0.0 0.0
135045500.0 0.617952832 -0.227431744 -5.8052e-05 5.2125e-05 0.0 0.0 0.0 0.0
150045000.0 0.607621184 -0.248987232 -9.819e-06 5.7852e-05 0.0 0.0 0.0 0.0
165044500.0 0.597207104 -0.269312064 1.7551e-05 3.7225e-05 0.0 0.0 0.0 0.0
180044000.0 0.585938688 -0.289939744 -4.158e-06 5.8445e-05 0.0 0.0 0.0 0.0
195043500.0 0.57359136 -0.310423424 1.281e-06 3.1797e-05 0.0 0.0 0.0 0.0
210043000.0 0.56056384 -0.330046432 -1.6237e-05 3.3751e-05 0.0 0.0 0.0 0.0
225042500.0 0.546849664 -0.349324448 -2.5096e-05 6.0661e-05 0.0 0.0 0.0 0.0
240042000.0 0.532068896 -0.36792192 1.1358e-05 8.4425e-05 0.0 0.0 0.0 0.0
255041500.0 0.51622288 -0.386651712 3.93e-06 3.3876e-05 0.0 0.0 0.0 0.0
270041000.0 0.500312448 -0.404587936 1.6601e-05 5.6506e-05 0.0 0.0 0.0 0.0
285040500.0 0.483899552 -0.420997504 5.0275e-05 4.0504e-05 0.0 0.0 0.0 0.0
300040000.0 0.469524 -0.429079264 -9.7104e-05 9.759e-06 0.0 0.0 0.0 0.0
315039500.0 0.4539 -0.443605824 -8.261e-05 -0.000214047 0.0 0.0 0.0 0.0
330039000.0 0.436087136 -0.456283872 0.000217789 -4.7175e-05 0.0 0.0 0.0 0.0
345038500.0 0.41943888 -0.46919296 0.000130005 -0.000249639 0.0 0.0 0.0 0.0
360038000.0 0.401971744 -0.48100624 0.000251688 -4.771e-06 0.0 0.0 0.0 0.0
375037500.0 0.386001632 -0.490885536 0.000495051 -0.000130349 0.0 0.0 0.0 0.0
390037000.0 0.367173632 -0.504858624 0.000365147 0.00028511 0.0 0.0 0.0 0.0
405036500.0 0.35116816 -0.511461312 0.000344624 0.000162352 0.0 0.0 0.0 0.0
420036000.0 0.334512608 -0.520143744 6.5322e-05 -0.000118972 0.0 0.0 0.0 0.0
435035500.0 0.316401344 -0.527775936 0.000393283 -0.000320332 0.0 0.0 0.0 0.0
450035000.0 0.302884224 -0.533892512 0.000459572 7.6537e-05 0.0 0.0 0.0 0.0
465034500.0 0.280059392 -0.54103872 0.00031198 -0.000113567 0.0 0.0 0.0 0.0
480034000.0 0.26244608 -0.544579392 0.000320509 -0.00023813 0.0 0.0 0.0 0.0
495033500.0 0.24400888 -0.549568384 0.000139355 -0.0002858 0.0 0.0 0.0 0.0
510033000.0 0.2254432 -0.55475264 0.000659426 0.000293394 0.0 0.0 0.0 0.0
525032500.0 0.20770848 -0.558173568 0.000222959 -6.8052e-05 0.0 0.0 0.0 0.0
540032000.0 0.190354832 -0.560760384 1.1244e-05 -0.000454368 0.0 0.0 0.0 0.0
555031500.0 0.17374048 -0.562928512 -1.4006e-05 -0.000309283 0.0 0.0 0.0 0.0
570031000.0 0.15673672 -0.564992896 0.000583168 -0.000499828 0.0 0.0 0.0 0.0
585030500.0 0.140588032 -0.565632448 4.87e-05 -0.000647887 0.0 0.0 0.0 0.0
600030000.0 0.124532776 -0.575053952 4.1978e-05 -0.000913966 0.0 0.0 0.0 0.0
615029500.0 0.1075416 -0.572874944 1.366e-05 -0.000395732 0.0 0.0 0.0 0.0
630029000.0 0.091206536 -0.574629824 1.8043e-05 -0.000296401 0.0 0.0 0.0 0.0
645028500.0 0.075684376 -0.572653504 -0.00025815 -0.000345568 0.0 0.0 0.0 0.0
660028000.0 0.059077072 -0.573452416 -3.777e-06 -0.000457562 0.0 0.0 0.0 0.0
675027500.0 0.046220248 -0.57184224 6.3648e-05 -0.000244275 0.0 0.0 0.0 0.0
690027000.0 0.03158383 -0.569964736 2.1025e-05 -0.000181422 0.0 0.0 0.0 0.0
705026500.0 0.015301922 -0.568983872 -1.3684e-05 2.9006e-05 0.0 0.0 0.0 0.0
720026000.0 0.003284959 -0.56742784 0.000128817 -0.000209346 0.0 0.0 0.0 0.0
735025500.0 -0.011020656 -0.565211648 -0.000284485 -0.000513067 0.0 0.0 0.0 0.0
750025000.0 -0.022183094 -0.562240448 7.537e-06 -0.000431087 0.0 0.0 0.0 0.0
765024500.0 -0.036348308 -0.561792064 -0.000144488 -0.000629781 0.0 0.0 0.0 0.0
780024000.0 -0.055978476 -0.552168384 -0.000300291 -0.000396862 0.0 0.0 0.0 0.0
795023500.0 -0.057712536 -0.556186368 -0.000146852 -0.000538311 0.0 0.0 0.0 0.0
810023000.0 -0.071221624 -0.554543488 0.000148559 -0.000403539 0.0 0.0 0.0 0.0
825022500.0 -0.083641088 -0.552389952 -3.349e-05 -0.000663159 0.0 0.0 0.0 0.0
840022000.0 -0.092769544 -0.551008192 -0.000917811 -0.00018779 0.0 0.0 0.0 0.0
855021500.0 -0.105301984 -0.549275136 0.000112168 -0.000338778 0.0 0.0 0.0 0.0
870021000.0 -0.117526096 -0.54615328 -0.000358574 -0.000575302 0.0 0.0 0.0 0.0
885020500.0 -0.124244944 -0.544549312 -0.000411693 -0.000265265 0.0 0.0 0.0 0.0
900020000.0 -0.123382848 -0.543368768 0.001277957 0.002140014 0.0 0.0 0.0 0.0
915019500.0 -0.137016096 -0.54321056 0.001400441 -0.000248739 0.0 0.0 0.0 0.0
930019000.0 -0.14651592 -0.545024192 0.000147136 -0.000780922 0.0 0.0 0.0 0.0
945018500.0 -0.154024288 -0.548862784 0.001942331 -0.000207991 0.0 0.0 0.0 0.0
960018000.0 -0.165846 -0.550522304 0.001144332 -0.000733078 0.0 0.0 0.0 0.0
975017500.0 -0.176263136 -0.553636032 0.001058795 -0.000700285 0.0 0.0 0.0 0.0
990017000.0 -0.19095032 -0.556696896 0.00078898 0.000583376 0.0 0.0 0.0 0.0
1005016500.0 -0.199149728 -0.557058816 0.00172465 -0.002107393 0.0 0.0 0.0 0.0
1020016000.0 -0.207881888 -0.558855232 0.001122174 -0.002602043 0.0 0.0 0.0 0.0
1035015500.0 -0.225976656 -0.566013248 0.002269281 -0.001328982 0.0 0.0 0.0 0.0
1050015000.0 -0.251101648 -0.565611456 0.00257456 0.000931074 0.0 0.0 0.0 0.0
1065014500.0 -0.256359488 -0.574433408 0.000723097 0.001606192 0.0 0.0 0.0 0.0
1080014000.0 -0.269958368 -0.579365568 0.000735774 0.001813959 0.0 0.0 0.0 0.0
1095013500.0 -0.286242208 -0.584654144 0.003271951 -0.001503529 0.0 0.0 0.0 0.0
1110013000.0 -0.310902144 -0.582906752 -0.000944967 -0.002825796 0.0 0.0 0.0 0.0
1125012500.0 -0.322379424 -0.582004032 -0.006128571 -0.001290546 0.0 0.0 0.0 0.0
1140012000.0 -0.351416864 -0.579905024 -0.002678809 -0.001008527 0.0 0.0 0.0 0.0
1155011500.0 -0.391581536 -0.57679296 -0.003572546 -0.000248043 0.0 0.0 0.0 0.0
1170011000.0 -0.3942616 -0.587061056 -0.003536218 0.002855522 0.0 0.0 0.0 0.0
1185010500.0 -0.415258944 -0.587867392 -0.000978481 0.000967838 0.0 0.0 0.0 0.0
1200010000.0 -0.44182816 -0.580078656 0.001979087 -4.863e-05 0.0 0.0 0.0 0.0
1215009500.0 -0.469449248 -0.584226752 0.004918302 0.000671222 0.0 0.0 0.0 0.0
1230009000.0 -0.500500608 -0.578413632 -0.00453121 0.001516374 0.0 0.0 0.0 0.0
1245008500.0 -0.540096064 -0.577968448 -0.000704464 0.004213111 0.0 0.0 0.0 0.0
1260008000.0 -0.577559936 -0.575636224 0.000167555 -0.001039842 0.0 0.0 0.0 0.0
1275007500.0 -0.602238208 -0.551848064 -0.000949957 0.001694515 0.0 0.0 0.0 0.0
1290007000.0 -0.63840704 -0.53563584 0.005085665 0.000564413 0.0 0.0 0.0 0.0
1305006500.0 -0.6707408 -0.522343456 -0.001587152 -0.000480603 0.0 0.0 0.0 0.0
1320006000.0 -0.708011328 -0.487208544 -0.008158452 -0.002114005 0.0 0.0 0.0 0.0
1335005500.0 -0.731515456 -0.478076768 -9.7733e-05 0.00236021 0.0 0.0 0.0 0.0
1350005000.0 -0.759032768 -0.453517792 -0.002966129 -0.001385843 0.0 0.0 0.0 0.0
1365004500.0 -0.814612224 -0.364112768 0.005564373 0.002825701 0.0 0.0 0.0 0.0
1380004000.0 -0.83956416 -0.405007296 0.003799041 -0.005721118 0.0 0.0 0.0 0.0
1395003500.0 -0.857429056 -0.34772608 -0.000305332 -0.003902072 0.0 0.0 0.0 0.0
1410003000.0 -0.880756288 -0.3053024 0.004604735 0.007989582 0.0 0.0 0.0 0.0
1425002500.0 -0.874909952 -0.280031168 -0.005402594 0.009781054 0.0 0.0 0.0 0.0
1440002000.0 -0.904990528 -0.229394864 -0.003017971 0.00978085 0.0 0.0 0.0 0.0
1455001500.0 -0.886290624 -0.195405984 0.000881565 0.001155229 0.0 0.0 0.0 0.0
1470001000.0 -0.885431168 -0.137799856 0.005819275 0.002502313 0.0 0.0 0.0 0.0
1485000500.0 -0.909608448 -0.090404712 0.00763225 0.003887202 0.0 0.0 0.0 0.0
1500000000.0 -0.8961232 -0.047798596 -0.002751988 -0.004756329 0.0 0.0 0.0 0.0
