! Created with skrf 1.8.0 (http://scikit-rf.org).
# Hz S RI R 50.0 
!freq ReS11 ImS11 ReS21 ImS21 ReS12 ImS12 ReS22 ImS22
300000000.0 -0.230776768 -0.936712576 -1.0970919937155805e-05 -9.300512072317586e-05 0.0 0.0 0.0 0.0
312000000.0 -0.03642688 -1.012566566 3.1706558725377695e-05 0.000280286450417772 0.0 0.0 0.0 0.0
324000000.0 0.14145032 -1.019471406 0.00044174169196697927 -0.0005187562144843668 0.0 0.0 0.0 0.0
336000000.0 0.324384 -0.979295936 0.00022392322723277757 -0.0002111117159554577 0.0 0.0 0.0 0.0
348000000.0 0.498505664 -0.900313408 -4.044946636767973e-05 -4.4585352477803144e-05 0.0 0.0 0.0 0.0
360000000.0 0.648633856 -0.791420736 -0.00011259004708117132 -0.0009003008586929481 0.0 0.0 0.0 0.0
372000000.0 0.786525696 -0.669849152 0.0002537051401309847 0.000707287296133698 0.0 0.0 0.0 0.0
384000000.0 0.896717504 -0.526491392 0.0005904459920136256 -0.0005728772024474753 0.0 0.0 0.0 0.0
396000000.0 0.978355328 -0.363193696 -0.00010251942285720587 -0.0002859441782132055 0.0 0.0 0.0 0.0
408000000.0 1.032066942 -0.187052224 -1.7319662149336427e-05 -0.00014869318600068006 0.0 0.0 0.0 0.0
420000000.0 1.052091004 0.000915981 0.0004394895857395767 -0.0006295417610075245 0.0 0.0 0.0 0.0
432000000.0 1.054086684 0.1902708 0.000195598045363863 -0.0002646301948868197 0.0 0.0 0.0 0.0
444000000.0 1.01412499 0.381052512 0.00019796390774101056 -0.0007850695624108151 0.0 0.0 0.0 0.0
456000000.0 0.933906176 0.561605696 -0.00021160972022056935 -0.0006962605247105226 0.0 0.0 0.0 0.0
468000000.0 0.823834944 0.734245568 -0.00014347348055191895 -3.108922262325218e-05 0.0 0.0 0.0 0.0
480000000.0 0.678928704 0.845497408 0.00024915950350861375 -0.0002390515050555865 0.0 0.0 0.0 0.0
492000000.0 0.527236096 0.955526784 -7.115401252545812e-05 0.0003150470542022682 0.0 0.0 0.0 0.0
504000000.0 0.352680192 1.02921617 0.0006479296383978393 -0.00038489287264853976 0.0 0.0 0.0 0.0
516000000.0 0.17772872 1.073009728 0.0004887444578202793 -0.0008535548791161358 0.0 0.0 0.0 0.0
528000000.0 -0.003937335 1.077755928 1.9850054831260485e-05 -0.0008689151758676999 0.0 0.0 0.0 0.0
540000000.0 -0.180212976 1.051667572 9.096683893735495e-05 -0.00010491178264973541 0.0 0.0 0.0 0.0
552000000.0 -0.350817792 1.009737134 -0.000535681617212149 0.00013831351619410392 0.0 0.0 0.0 0.0
564000000.0 -0.507046208 0.934211584 0.0006309311045803251 -0.0009607340819160371 0.0 0.0 0.0 0.0
576000000.0 -0.645285696 0.838682688 0.0004602000145470322 -0.00045359543020285305 0.0 0.0 0.0 0.0
588000000.0 -0.760216064 0.712200768 0.0006215719658063207 -0.00011718873288702414 0.0 0.0 0.0 0.0
600000000.0 -0.873463808 0.59896032 0.0006971031694207315 -0.000607988945975641 0.0 0.0 0.0 0.0
612000000.0 -0.965311936 0.453514432 0.0011589500671518992 -0.00016078689825233908 0.0 0.0 0.0 0.0
624000000.0 -1.02595663 0.296894944 0.0006201595703897016 1.4648889755228033e-05 0.0 0.0 0.0 0.0
636000000.0 -1.071715232 0.102856912 0.00024770635507481405 0.0001332781468829386 0.0 0.0 0.0 0.0
648000000.0 -1.073164584 -0.08234724 0.0010330993026389467 -9.0499063834504e-05 0.0 0.0 0.0 0.0
660000000.0 -1.033420086 -0.283158496 0.0009121962642684866 4.9020681009315476e-05 0.0 0.0 0.0 0.0
672000000.0 -0.970124608 -0.459776448 0.00030707669055974273 0.0005223636280981631 0.0 0.0 0.0 0.0
684000000.0 -0.878024128 -0.640593664 0.0015048267902118455 0.0008020703638950353 0.0 0.0 0.0 0.0
696000000.0 -0.73481472 -0.796056064 -0.00025980033783610694 0.0013425497613203186 0.0 0.0 0.0 0.0
708000000.0 -0.558277696 -0.919998784 0.0002387997801261404 0.0008314269763825966 0.0 0.0 0.0 0.0
720000000.0 -0.362674848 -1.0136472 0.0005029675904955391 0.0012195557140791526 0.0 0.0 0.0 0.0
732000000.0 -0.149131824 -1.072675584 -0.0004536279619045742 0.0018133590169878944 0.0 0.0 0.0 0.0
744000000.0 0.074911544 -1.081340792 0.0004356383928463518 0.0006701084186012346 0.0 0.0 0.0 0.0
756000000.0 0.296002976 -1.044274928 -2.6874819722155738e-05 0.001023906288927801 0.0 0.0 0.0 0.0
768000000.0 0.509880352 -0.956208384 -0.0012185671545771476 0.0016057385580784168 0.0 0.0 0.0 0.0
780000000.0 0.836631808 -0.866253312 -0.0013693640182375396 0.0011157669748098566 0.0 0.0 0.0 0.0
792000000.0 0.863397824 -0.677722688 -0.0006491284388536724 0.0010997476430751711 0.0 0.0 0.0 0.0
804000000.0 0.9851488 -0.49371424 -0.0013779410494109193 0.0007134393508808817 0.0 0.0 0.0 0.0
816000000.0 1.066206096 -0.293780832 -0.0016220204440827106 0.0005866193315359857 0.0 0.0 0.0 0.0
828000000.0 1.112561584 -0.084072064 -0.002672429153503091 -0.0002574836279314718 0.0 0.0 0.0 0.0
840000000.0 1.09059656 0.14394872 -0.0019450950092859379 -0.0002455168624187277 0.0 0.0 0.0 0.0
852000000.0 1.05025494 0.345718016 0.00047959820791693565 0.0004151647595303145 0.0 0.0 0.0 0.0
864000000.0 0.961928768 0.524992352 -0.002436777400244763 -0.00043978244314476063 0.0 0.0 0.0 0.0
876000000.0 0.850990016 0.685857024 -0.003387602566070005 -0.0007522303640992697 0.0 0.0 0.0 0.0
888000000.0 0.714625152 0.810637312 -0.0020347453840762154 -0.001146160665305495 0.0 0.0 0.0 0.0
900000000.0 0.547270848 0.852023936 -0.0010685957874831948 -0.0009098374273847886 0.0 0.0 0.0 0.0
912000000.0 0.420212672 1.054115532 0.0017656308713825193 -0.001312446571650826 0.0 0.0 0.0 0.0
924000000.0 0.253792976 1.084280256 -0.003240115608163781 -0.003791391814581877 0.0 0.0 0.0 0.0
936000000.0 0.078193624 1.108839632 0.0015434190064647975 -0.0020843673412657415 0.0 0.0 0.0 0.0
948000000.0 -0.08335172 1.089434504 0.006140463407564267 -0.006451904775625119 0.0 0.0 0.0 0.0
960000000.0 -0.239022592 1.060264112 -0.0009556997471884887 -0.00011889296040497464 0.0 0.0 0.0 0.0
972000000.0 -0.373084288 1.009484172 0.002583715112209847 -0.0004943941559721935 0.0 0.0 0.0 0.0
984000000.0 -0.520695744 0.948771072 -0.0024521138838157447 -0.002643901540851903 0.0 0.0 0.0 0.0
996000000.0 -0.635210496 0.868456128 -0.00037096955529882295 0.0037941235936099125 0.0 0.0 0.0 0.0
1008000000.0 -0.751775232 0.76659776 0.0035792034901390487 -0.003384591482734874 0.0 0.0 0.0 0.0
1020000000.0 -0.847124608 0.663292928 0.005531677207117519 0.0010448844114472767 0.0 0.0 0.0 0.0
1032000000.0 -0.94760576 0.554256064 -0.0015465103312059369 0.003616919113405538 0.0 0.0 0.0 0.0
1044000000.0 -1.029760956 0.41539232 0.0031518291304691226 0.003114315786589288 0.0 0.0 0.0 0.0
1056000000.0 -1.108356832 0.264624928 -0.004097017250622279 0.0003619223727534123 0.0 0.0 0.0 0.0
1068000000.0 -1.1486448 0.098092048 0.006041894646200236 0.004084759292613081 0.0 0.0 0.0 0.0
1080000000.0 -1.16401624 -0.089269424 -0.001665562934555232 0.002782413726867513 0.0 0.0 0.0 0.0
1092000000.0 -1.133071064 -0.281296992 0.014742471439979893 0.005809561422918363 0.0 0.0 0.0 0.0
1104000000.0 -1.121686936 -0.476373952 0.0008830423405921887 0.00558972971987926 0.0 0.0 0.0 0.0
1116000000.0 -1.03904462 -0.664672128 -0.002474229167903924 0.01541445760184232 0.0 0.0 0.0 0.0
1128000000.0 -0.9092672 -0.862903296 -0.005792730947839227 1.6625524432706904e-05 0.0 0.0 0.0 0.0
1140000000.0 -0.757243584 -1.01647234 -0.0008066184368535299 0.0012568785015604998 0.0 0.0 0.0 0.0
1152000000.0 -0.571616896 -1.177353376 0.004025936470767987 0.009005947075169008 0.0 0.0 0.0 0.0
1164000000.0 -0.304479904 -1.263865712 -0.0015789085809350808 0.004720264700588259 0.0 0.0 0.0 0.0
1176000000.0 -0.050260428 -1.384853376 -0.0058973188442131615 0.005365523335424638 0.0 0.0 0.0 0.0
1188000000.0 0.24861888 -1.35768496 -0.0001828509138370983 -0.0020869820359864 0.0 0.0 0.0 0.0
1200000000.0 0.558551936 -1.321929696 0.001046560729961177 -0.003112038347043964 0.0 0.0 0.0 0.0
1212000000.0 0.911969216 -1.171673776 0.0011705674495509043 -0.004389550331752546 0.0 0.0 0.0 0.0
1224000000.0 1.19758784 -0.895845568 -0.002629608496885751 -0.00426253411789645 0.0 0.0 0.0 0.0
1236000000.0 1.427022208 -0.589497728 -0.0005331732868426728 -0.0013762451653950981 0.0 0.0 0.0 0.0
1248000000.0 1.505645024 -0.17509552 -0.005010244120711733 -0.007718125564892653 0.0 0.0 0.0 0.0
1260000000.0 1.448542848 0.18674472 -0.004626231505847296 0.0034961311823794397 0.0 0.0 0.0 0.0
1272000000.0 1.317906144 0.486369088 -0.00769410675345518 0.0006964318328884615 0.0 0.0 0.0 0.0
1284000000.0 1.145551808 0.71895168 0.011775973369792248 -0.007974628424055184 0.0 0.0 0.0 0.0
1296000000.0 0.91064032 0.881663552 -0.0005218080751196553 -0.007221287950617944 0.0 0.0 0.0 0.0
1308000000.0 0.698831808 0.953340096 -0.003251117914038902 -0.008622213664756594 0.0 0.0 0.0 0.0
1320000000.0 0.5269472 1.006511569 0.00825142831415081 -0.009911118687484797 0.0 0.0 0.0 0.0
1332000000.0 0.359212416 1.066984416 0.01298599895470966 0.006179697327256701 0.0 0.0 0.0 0.0
1344000000.0 0.212018032 1.067244648 -0.0076337958379237795 0.011174354496252282 0.0 0.0 0.0 0.0
1356000000.0 0.109545664 1.085351824 -0.00303078895464469 0.007024485346625598 0.0 0.0 0.0 0.0
1368000000.0 0.011746334 1.04087484 -0.0021228518799046915 0.0026082166849928545 0.0 0.0 0.0 0.0
1380000000.0 -0.098919008 1.063733936 0.019078210909066178 -0.03864955906022354 0.0 0.0 0.0 0.0
1392000000.0 -0.206046448 1.07424092 0.0032446204571952852 0.031523557410963916 0.0 0.0 0.0 0.0
1404000000.0 -0.311040832 1.109461192 0.01248584716791872 0.016895392063277493 0.0 0.0 0.0 0.0
1416000000.0 -0.455768704 1.141144864 -0.0023081823700950217 -8.390168138677663e-05 0.0 0.0 0.0 0.0
1428000000.0 -0.685983104 1.158871888 0.018052802794886778 -0.010746807194212438 0.0 0.0 0.0 0.0
1440000000.0 -0.966121984 1.115988376 -0.0005008583451849907 0.03165256063391236 0.0 0.0 0.0 0.0
1452000000.0 -1.294143552 0.96052608 0.03963833993051772 0.012274685747688412 0.0 0.0 0.0 0.0
1464000000.0 -1.503482944 0.677972864 -0.021057228396860514 0.015452081799972973 0.0 0.0 0.0 0.0
1476000000.0 -1.568495296 0.238098064 -0.030281542768545035 0.009096244370357847 0.0 0.0 0.0 0.0
1488000000.0 -1.48969616 -0.09560228 0.01589834612860615 -0.015411898868454007 0.0 0.0 0.0 0.0
1500000000.0 -1.308935392 -0.313427456 -0.007973145064167866 0.017323993396647426 0.0 0.0 0.0 0.0
