! Created with skrf 1.8.0 (http://scikit-rf.org).
# Hz S RI R 50.0 
!freq ReS11 ImS11 ReS21 ImS21 ReS12 ImS12 ReS22 ImS22
100000000.0 0.103448072 1.014889718 5.745774658266979e-05 7.517940201705317e-05 0.0 0.0 0.0 0.0
105000000.0 0.028157092 1.011980414 2.800259439357738e-05 6.756374394768831e-05 0.0 0.0 0.0 0.0
110000000.0 -0.045717528 1.019451142 -2.163759637952155e-05 6.836444592708197e-05 0.0 0.0 0.0 0.0
115000000.0 -0.120545304 1.013876438 -4.341731286714182e-05 4.0250267718323566e-05 0.0 0.0 0.0 0.0
120000000.0 -0.193636832 0.995157824 3.263379779311729e-05 2.8282013128452028e-05 0.0 0.0 0.0 0.0
125000000.0 -0.261094992 0.964408128 -1.8476313251790828e-06 7.586045259874355e-05 0.0 0.0 0.0 0.0
130000000.0 -0.321022272 0.924625024 1.3777418759116754e-05 4.689002595002243e-06 0.0 0.0 0.0 0.0
135000000.0 -0.408017056 0.930154368 -3.9968461487420626e-05 4.658572789308519e-05 0.0 0.0 0.0 0.0
140000000.0 -0.478476352 0.902821888 -1.8496624023471572e-05 8.242181239049731e-05 0.0 0.0 0.0 0.0
145000000.0 -0.5449216 0.866011584 -4.493554612503901e-05 6.676698656105794e-05 0.0 0.0 0.0 0.0
150000000.0 -0.603123648 0.816899264 -3.6457948274748784e-05 2.483182590136582e-05 0.0 0.0 0.0 0.0
155000000.0 -0.666503168 0.775793024 -3.9703121131114094e-05 3.3639153578056645e-05 0.0 0.0 0.0 0.0
160000000.0 -0.723525504 0.72444096 -1.2523844045983327e-06 4.817141860380612e-05 0.0 0.0 0.0 0.0
165000000.0 -0.770249472 0.664540672 -2.6158111552196766e-05 2.7069278546404405e-05 0.0 0.0 0.0 0.0
170000000.0 -0.823726336 0.610813696 -2.6433814889217918e-05 4.747138564864692e-05 0.0 0.0 0.0 0.0
175000000.0 -0.866090432 0.547872256 -5.1436070178233023e-05 3.966070736408879e-05 0.0 0.0 0.0 0.0
180000000.0 -0.898721088 0.47788192 -2.3928615217537537e-05 9.975766224758426e-06 0.0 0.0 0.0 0.0
185000000.0 -0.938627392 0.415080416 -5.385185039677161e-05 -3.555338760011104e-05 0.0 0.0 0.0 0.0
190000000.0 -0.968861312 0.344336864 -8.192883441284897e-05 1.9510582557985668e-05 0.0 0.0 0.0 0.0
195000000.0 -0.980360832 0.267501264 -6.990378370965301e-05 1.947721099321077e-05 0.0 0.0 0.0 0.0
200000000.0 -1.009271026 0.195325472 -8.297638871251679e-05 -3.099468245085461e-05 0.0 0.0 0.0 0.0
205000000.0 -1.022789478 0.119365664 -5.8894837489627895e-05 1.63350470483045e-05 0.0 0.0 0.0 0.0
210000000.0 -1.02229464 0.041604156 -7.941008949094664e-05 1.4152164888802293e-05 0.0 0.0 0.0 0.0
215000000.0 -1.029394746 -0.035317244 -4.588361803352144e-05 -2.5545380289866634e-05 0.0 0.0 0.0 0.0
220000000.0 -1.026188136 -0.11399036 -6.112030649073311e-05 -3.365946481272164e-05 0.0 0.0 0.0 0.0
225000000.0 -1.006949187 -0.190276944 -5.3112437151774024e-05 1.2507223025070555e-05 0.0 0.0 0.0 0.0
230000000.0 -0.997708032 -0.268099696 -6.6301858888434e-05 -1.909815216030564e-05 0.0 0.0 0.0 0.0
235000000.0 -0.975327232 -0.344094176 -8.600436997772093e-05 -3.3794763995762603e-06 0.0 0.0 0.0 0.0
240000000.0 -0.939274624 -0.413916 -3.181973656124853e-05 -4.1394004036487504e-05 0.0 0.0 0.0 0.0
245000000.0 -0.912338304 -0.488597056 -7.841114528144438e-05 -1.73887419801498e-05 0.0 0.0 0.0 0.0
250000000.0 -0.872453504 -0.55720768 -5.0555944939362e-05 -1.6297434040001413e-05 0.0 0.0 0.0 0.0
255000000.0 -0.821014336 -0.617729856 -7.531262115547193e-05 -3.250318422389349e-05 0.0 0.0 0.0 0.0
260000000.0 -0.780037632 -0.679515072 -3.586992645344274e-05 -9.167395231593656e-05 0.0 0.0 0.0 0.0
265000000.0 -0.7224832 -0.742744 -8.879273141219716e-06 -7.95137576113946e-05 0.0 0.0 0.0 0.0
270000000.0 -0.65688384 -0.790837312 -5.352698026046566e-05 -6.644374307785284e-05 0.0 0.0 0.0 0.0
275000000.0 -0.598889344 -0.84444224 -5.2328100020044484e-05 -9.925094557379402e-05 0.0 0.0 0.0 0.0
280000000.0 -0.532889376 -0.890234688 -6.31206096140562e-06 -8.113645004817194e-05 0.0 0.0 0.0 0.0
285000000.0 -0.458694432 -0.920952064 3.862802859295542e-06 -8.947369835918385e-05 0.0 0.0 0.0 0.0
290000000.0 -0.381693056 -0.938923264 3.2152046685479125e-05 -0.0001044577667382123 0.0 0.0 0.0 0.0
295000000.0 -0.303274112 -0.944360192 -9.119942660640671e-06 -7.12810821948336e-05 0.0 0.0 0.0 0.0
300000000.0 -0.231170208 -0.938012096 -1.4038724208614038e-06 -0.0001001318820367716 0.0 0.0 0.0 0.0
305000000.0 -0.163108752 -1.01755321 -0.0001771218698844805 0.00017632400128633977 0.0 0.0 0.0 0.0
310000000.0 -0.08098712 -1.026525974 -3.944030768383556e-05 0.00026893523592642964 0.0 0.0 0.0 0.0
315000000.0 0.000494656 -1.021562218 -0.0007766382497732038 -0.00027289711574367146 0.0 0.0 0.0 0.0
320000000.0 0.075362008 -1.024818302 -0.00020486640101462477 -0.0005739690021676389 0.0 0.0 0.0 0.0
325000000.0 0.221657008 -1.007589817 0.0002446415569253085 -0.0001151090830958229 0.0 0.0 0.0 0.0
330000000.0 0.233164048 -0.991276288 -0.00010202393989745505 -3.0910806848866285e-06 0.0 0.0 0.0 0.0
335000000.0 0.30982736 -0.98171904 3.1495704795510706e-05 -0.0006710535232225773 0.0 0.0 0.0 0.0
340000000.0 0.386205216 -0.953126208 0.0003449502929015322 -0.0005239252718137837 0.0 0.0 0.0 0.0
345000000.0 0.455611136 -0.919643328 -5.5756780387474314e-05 -0.00018080983362036188 0.0 0.0 0.0 0.0
350000000.0 0.525613856 -0.887089344 -0.0005661164281616177 -0.00036914684438517397 0.0 0.0 0.0 0.0
355000000.0 0.591228032 -0.845006656 0.00013128195873665034 -4.727069323871234e-05 0.0 0.0 0.0 0.0
360000000.0 0.647702464 -0.79162016 -0.0001860441030444453 -1.692520958179888e-05 0.0 0.0 0.0 0.0
365000000.0 0.712922304 -0.749186176 -0.0003001837999958769 0.0002975266094654987 0.0 0.0 0.0 0.0
370000000.0 0.767983424 -0.694081216 -0.00011818643982384069 -0.0005354658533293843 0.0 0.0 0.0 0.0
375000000.0 0.812486656 -0.632923328 0.00036087883167242247 -6.583910112347655e-05 0.0 0.0 0.0 0.0
380000000.0 0.863973248 -0.575621312 -0.000366842212968705 -0.00011313701836809773 0.0 0.0 0.0 0.0
385000000.0 0.9054224 -0.511811328 -0.000363083292384105 -0.0006637028504025867 0.0 0.0 0.0 0.0
390000000.0 0.9205936 -0.402981504 -1.994724827627911e-05 -0.00032918352548571515 0.0 0.0 0.0 0.0
395000000.0 0.976347584 -0.374667776 3.14921220815571e-05 -0.00046992433541135145 0.0 0.0 0.0 0.0
400000000.0 1.000130892 -0.302079424 -0.0003650485856376834 -8.301122001830206e-05 0.0 0.0 0.0 0.0
405000000.0 1.016053796 -0.229318144 0.000208936723908302 -0.00037701982674451755 0.0 0.0 0.0 0.0
410000000.0 1.04283166 -0.15442848 -0.0005814610295867475 -0.00042945603660551765 0.0 0.0 0.0 0.0
415000000.0 1.054788232 -0.077383144 0.0004165105413125777 0.0001491323387079528 0.0 0.0 0.0 0.0
420000000.0 1.055835724 0.001068299 -0.0004947277922871988 -0.0008887529978642179 0.0 0.0 0.0 0.0
425000000.0 1.065050124 0.074597848 -0.000859744308902388 -0.0011284277763684994 0.0 0.0 0.0 0.0
430000000.0 1.06427574 0.158444944 0.00037536039607602136 -0.0005148163706504023 0.0 0.0 0.0 0.0
435000000.0 1.039481996 0.23752984 -0.0002941912379829089 -0.0004741093597305198 0.0 0.0 0.0 0.0
440000000.0 1.03360474 0.3188216 0.0006043674676289041 -5.9217200650026954e-05 0.0 0.0 0.0 0.0
445000000.0 1.009238602 0.396659296 -0.00011479037487515834 -0.00039549519051060614 0.0 0.0 0.0 0.0
450000000.0 0.971535936 0.47203088 -0.0005599614323967982 -0.00010965472884525382 0.0 0.0 0.0 0.0
455000000.0 0.902018112 0.636694784 -7.543809901769601e-05 -0.00029085818058565294 0.0 0.0 0.0 0.0
460000000.0 0.900144448 0.615976576 0.0002496142481865682 -0.00048486447144254055 0.0 0.0 0.0 0.0
465000000.0 0.845062848 0.6781696 8.496250607137086e-07 -0.0006976112466304255 0.0 0.0 0.0 0.0
470000000.0 0.79966496 0.744230912 -0.0005499358472167498 -0.0007810182597270027 0.0 0.0 0.0 0.0
475000000.0 0.74637824 0.798808128 0.0006405980388105812 -0.0009247989055367859 0.0 0.0 0.0 0.0
480000000.0 0.680277376 0.850151872 0.0002459153599789018 -0.000533694946412693 0.0 0.0 0.0 0.0
485000000.0 0.620132032 0.901396864 0.0007238887757502528 -0.001101310546615622 0.0 0.0 0.0 0.0
490000000.0 0.555669376 0.943541312 -2.0309205771624544e-05 0.0006311675769642526 0.0 0.0 0.0 0.0
495000000.0 0.480249376 0.971584768 2.4526620319718483e-05 0.0005562823779203261 0.0 0.0 0.0 0.0
500000000.0 0.41450688 1.01226771 -0.0004882900011247348 -0.0006394237977512304 0.0 0.0 0.0 0.0
505000000.0 0.34034928 1.036787988 0.0009170570249734122 0.00023155906052002112 0.0 0.0 0.0 0.0
510000000.0 0.261840704 1.050543428 0.0004036236158058313 -0.000610865042683592 0.0 0.0 0.0 0.0
515000000.0 0.19361568 1.072773696 -0.0002150541420012966 -0.0005348234828325008 0.0 0.0 0.0 0.0
520000000.0 0.07396784 1.116986272 9.516174898045655e-05 -0.0004513022799111263 0.0 0.0 0.0 0.0
525000000.0 0.036876752 1.077386616 9.231573625925468e-05 -0.0004888256228256777 0.0 0.0 0.0 0.0
530000000.0 -0.037965136 1.081746224 0.0006563997063534724 -0.00040231041497837877 0.0 0.0 0.0 0.0
535000000.0 -0.108517792 1.0764668 0.0005089832690534326 -0.0002047766737318511 0.0 0.0 0.0 0.0
540000000.0 -0.183484432 1.054273964 0.0007818452402535414 -0.0007419945223961444 0.0 0.0 0.0 0.0
545000000.0 -0.254774864 1.046913148 0.0012570880723893727 7.011438417593938e-05 0.0 0.0 0.0 0.0
550000000.0 -0.324699904 1.02300632 0.0007772737054913773 -0.0002798242192550596 0.0 0.0 0.0 0.0
555000000.0 -0.389005152 0.990076992 0.0003304002724622297 -2.419754189756445e-05 0.0 0.0 0.0 0.0
560000000.0 -0.45411632 0.96316672 -0.00018489736879475843 -0.0003012394773179225 0.0 0.0 0.0 0.0
565000000.0 -0.518838272 0.931876928 0.00040442675865687565 0.00036406430961478947 0.0 0.0 0.0 0.0
570000000.0 -0.572640448 0.884231552 0.0007367189982540786 0.00038049784756882246 0.0 0.0 0.0 0.0
575000000.0 -0.63310112 0.851781312 0.00031360521307105733 0.0001328901188939823 0.0 0.0 0.0 0.0
580000000.0 -0.690777088 0.806671616 0.0011429292667515009 -0.00047530399665359114 0.0 0.0 0.0 0.0
585000000.0 -0.742750272 0.724876352 0.0009219218825542517 -0.00027331279620358874 0.0 0.0 0.0 0.0
590000000.0 -0.77057568 0.68988928 0.0013296908125144467 -0.00017993117518282062 0.0 0.0 0.0 0.0
595000000.0 -0.825773184 0.653976704 7.332334779479739e-05 8.47215128533667e-05 0.0 0.0 0.0 0.0
600000000.0 -0.879765632 0.598577536 0.0003499574281617771 -6.514197755259718e-06 0.0 0.0 0.0 0.0
