! Created with skrf 1.8.0 (http://scikit-rf.org).
# Hz S RI R 50.0 
!freq ReS11 ImS11 ReS21 ImS21 ReS12 ImS12 ReS22 ImS22
50000.0 0.026752186 0.000116717 0.24992857814806924 -0.003765018963366115 0.0 0.0 0.0 0.0
15049500.0 0.029480522 0.000770375 0.2507590737336956 -0.0016679020712791295 0.0 0.0 0.0 0.0
30049000.0 0.029002464 0.001173587 0.2504880875659804 -0.0024041436661897406 0.0 0.0 0.0 0.0
45048500.0 0.028277756 0.00142295 0.25041242199989056 -0.0028504289820426806 0.0 0.0 0.0 0.0
60048000.0 0.027133446 0.00150779 0.25046163670599514 -0.003314911493505115 0.0 0.0 0.0 0.0
75047500.0 0.025843524 0.001268248 0.25075278824588004 -0.0039856761528152635 0.0 0.0 0.0 0.0
90047000.0 0.024498482 0.000718588 0.25125520947504826 -0.004878311934696097 0.0 0.0 0.0 0.0
105046500.0 0.023258178 -7.7965e-05 0.2514052424614075 -0.005989242715109427 0.0 0.0 0.0 0.0
120046000.0 0.022237178 -0.001297035 0.2514926842895522 -0.007253137531621163 0.0 0.0 0.0 0.0
135045500.0 0.021519978 -0.002860005 0.2513440832463592 -0.008574292202523912 0.0 0.0 0.0 0.0
150045000.0 0.021074312 -0.004832099 0.25095935560449273 -0.009776179168862571 0.0 0.0 0.0 0.0
165044500.0 0.021140038 -0.007032597 0.25075612428654 -0.011052158823799195 0.0 0.0 0.0 0.0
180044000.0 0.021514964 -0.00940444 0.2503271330938582 -0.012197080781100461 0.0 0.0 0.0 0.0
195043500.0 0.022316052 -0.011901014 0.24991758732754685 -0.013054424196976605 0.0 0.0 0.0 0.0
210043000.0 0.023518138 -0.014393868 0.24975192578665398 -0.013758516623392265 0.0 0.0 0.0 0.0
225042500.0 0.024972898 -0.016800036 0.25007366527051933 -0.01441763167356528 0.0 0.0 0.0 0.0
240042000.0 0.026612118 -0.018766048 0.25050827331737263 -0.015085585358857212 0.0 0.0 0.0 0.0
255041500.0 0.028207058 -0.020387344 0.25074487503396237 -0.015839843853236446 0.0 0.0 0.0 0.0
270041000.0 0.029779294 -0.021388098 0.25150280196344144 -0.017075235716596703 0.0 0.0 0.0 0.0
285040500.0 0.031427134 -0.021765818 0.2515462799366203 -0.018240182392058654 0.0 0.0 0.0 0.0
300040000.0 0.032625716 -0.021568898 0.2509998377784289 -0.022521804111295042 0.0 0.0 0.0 0.0
315039500.0 0.033614028 -0.02063295 0.25081753717132227 -0.024850075613631083 0.0 0.0 0.0 0.0
330039000.0 0.034179168 -0.018370246 0.24918859570607793 -0.02620664444994069 0.0 0.0 0.0 0.0
345038500.0 0.033437986 -0.016875376 0.24854156694119142 -0.02711333118097641 0.0 0.0 0.0 0.0
360038000.0 0.033425536 -0.015392026 0.24673206087903596 -0.026832209156313246 0.0 0.0 0.0 0.0
375037500.0 0.032015036 -0.011926442 0.24649177125239363 -0.026602261719536315 0.0 0.0 0.0 0.0
390037000.0 0.03133341 -0.008630456 0.24521984573143646 -0.02496510255909351 0.0 0.0 0.0 0.0
405036500.0 0.027793762 -0.006688982 0.24636037008345937 -0.025522168869963648 0.0 0.0 0.0 0.0
420036000.0 0.026418256 -0.004786394 0.24685297202337525 -0.024862456956081976 0.0 0.0 0.0 0.0
435035500.0 0.022389154 -0.002457848 0.24836940560570892 -0.024646526515842267 0.0 0.0 0.0 0.0
450035000.0 0.019018224 -0.001344381 0.2495482343884172 -0.02684645865834893 0.0 0.0 0.0 0.0
465034500.0 0.01675729 -0.000428246 0.25073775809043813 -0.026904207762334285 0.0 0.0 0.0 0.0
480034000.0 0.013729914 -0.002322285 0.25150819850368045 -0.027125724582211633 0.0 0.0 0.0 0.0
495033500.0 0.010258098 -0.002857353 0.252736106929205 -0.029176831004119056 0.0 0.0 0.0 0.0
510033000.0 0.008347822 -0.004321385 0.2518297556121169 -0.02926819465856762 0.0 0.0 0.0 0.0
525032500.0 0.005982745 -0.009576102 0.25248766631689956 -0.02959764482544112 0.0 0.0 0.0 0.0
540032000.0 0.003875785 -0.013938114 0.2510030777096755 -0.03068605340863666 0.0 0.0 0.0 0.0
555031500.0 0.003110566 -0.018007298 0.25137688604901637 -0.029249099274267026 0.0 0.0 0.0 0.0
570031000.0 0.002822858 -0.02450253 0.2514405086612383 -0.029214938128146885 0.0 0.0 0.0 0.0
585030500.0 0.003758826 -0.029571626 0.2522128716875076 -0.02932580941922817 0.0 0.0 0.0 0.0
600030000.0 0.004389129 -0.03569854 0.25268583269619316 -0.030185341156715166 0.0 0.0 0.0 0.0
615029500.0 0.006152326 -0.041077044 0.2559826454468427 -0.030888282950153733 0.0 0.0 0.0 0.0
630029000.0 0.008642882 -0.047094048 0.2568021875036896 -0.031517251849622833 0.0 0.0 0.0 0.0
645028500.0 0.012821128 -0.051867164 0.25712987664077713 -0.0333683671904611 0.0 0.0 0.0 0.0
660028000.0 0.015356404 -0.055116204 0.25867863420887904 -0.034790205261088746 0.0 0.0 0.0 0.0
675027500.0 0.0187315 -0.057400224 0.25922018727074786 -0.03766776662952014 0.0 0.0 0.0 0.0
690027000.0 0.021829948 -0.057363036 0.25651588526704505 -0.0406667010940921 0.0 0.0 0.0 0.0
705026500.0 0.02431155 -0.056569628 0.25657335443753493 -0.04207089418955977 0.0 0.0 0.0 0.0
720026000.0 0.028289482 -0.05338292 0.25475090505853015 -0.04251962882903444 0.0 0.0 0.0 0.0
735025500.0 0.031433318 -0.051193164 0.25340489017957174 -0.04282641918205625 0.0 0.0 0.0 0.0
750025000.0 0.034609364 -0.048298756 0.2510269032723962 -0.043092731141703706 0.0 0.0 0.0 0.0
765024500.0 0.03592888 -0.04245448 0.2511248305521589 -0.042645150051029694 0.0 0.0 0.0 0.0
780024000.0 0.029074922 -0.043643744 0.24902499297420946 -0.04642086859579444 0.0 0.0 0.0 0.0
795023500.0 0.034436512 -0.031650682 0.25031296721748103 -0.03976201995579237 0.0 0.0 0.0 0.0
810023000.0 0.031719458 -0.026577588 0.25005106882078293 -0.04042954698183706 0.0 0.0 0.0 0.0
825022500.0 0.030586878 -0.020520464 0.25397923032656733 -0.040676316330245 0.0 0.0 0.0 0.0
840022000.0 0.027323654 -0.018773884 0.2526225177934394 -0.03833446420396304 0.0 0.0 0.0 0.0
855021500.0 0.02274649 -0.011986824 0.25687419755285573 -0.04017245584009397 0.0 0.0 0.0 0.0
870021000.0 0.018209112 -0.011018354 0.2557485355576598 -0.04400357367713072 0.0 0.0 0.0 0.0
885020500.0 0.015244782 -0.00897189 0.2548949233343695 -0.047162403690456 0.0 0.0 0.0 0.0
900020000.0 0.009186766 -0.009248948 0.2562659807779587 -0.043233724241163056 0.0 0.0 0.0 0.0
915019500.0 0.005299424 -0.00961158 0.25245772552598017 -0.04786313383459814 0.0 0.0 0.0 0.0
930019000.0 -0.003655214 -0.010256334 0.2503627167000859 -0.04581679830516353 0.0 0.0 0.0 0.0
945018500.0 -0.004863667 -0.014684358 0.24827697114260486 -0.045611160106758294 0.0 0.0 0.0 0.0
960018000.0 -0.002941222 -0.018274962 0.25038451727965055 -0.043538764220304754 0.0 0.0 0.0 0.0
975017500.0 -0.00343022 -0.024395496 0.24152232098324522 -0.05331085955858713 0.0 0.0 0.0 0.0
990017000.0 -0.014618528 -0.035196912 0.24873356427867827 -0.045220680379416005 0.0 0.0 0.0 0.0
1005016500.0 -0.008260493 -0.0452913 0.24900435234170945 -0.04296610366818411 0.0 0.0 0.0 0.0
1020016000.0 0.001237185 -0.051469368 0.2494072175981411 -0.04244767505687567 0.0 0.0 0.0 0.0
1035015500.0 -0.012428572 -0.0578823 0.24315071133747948 -0.041998222503431576 0.0 0.0 0.0 0.0
1050015000.0 0.000624898 -0.060301528 0.23556403654232988 -0.05495338070251889 0.0 0.0 0.0 0.0
1065014500.0 -0.011449346 -0.074716192 0.24039736512070034 -0.04549856815648589 0.0 0.0 0.0 0.0
1080014000.0 -0.004107997 -0.073603808 0.2376268449361769 -0.04675550152390828 0.0 0.0 0.0 0.0
1095013500.0 -0.008795518 -0.076690384 0.2325963124316739 -0.0442635097653449 0.0 0.0 0.0 0.0
1110013000.0 -0.000938585 -0.078626544 0.23036531112143313 -0.0462163820177221 0.0 0.0 0.0 0.0
1125012500.0 0.005853651 -0.073177728 0.22704172131558106 -0.04819695207484228 0.0 0.0 0.0 0.0
1140012000.0 -0.003261665 -0.072074792 0.22338706781399248 -0.038549289684698895 0.0 0.0 0.0 0.0
1155011500.0 -0.001489269 -0.058430184 0.20917786227345753 -0.02830817754623642 0.0 0.0 0.0 0.0
1170011000.0 0.013527604 -0.074039048 0.2193173181004304 -0.03571205867136058 0.0 0.0 0.0 0.0
1185010500.0 0.018435956 -0.06104432 0.2179528504110737 -0.04086919190426438 0.0 0.0 0.0 0.0
1200010000.0 0.019399802 -0.053823664 0.21547422340073744 -0.029516210311366 0.0 0.0 0.0 0.0
1215009500.0 0.022826766 -0.03356688 0.2241293714712334 -0.03525134577154851 0.0 0.0 0.0 0.0
1230009000.0 0.02067743 -0.028466298 0.2157560673201005 -0.03275800711087609 0.0 0.0 0.0 0.0
1245008500.0 0.004142143 -0.02297579 0.229678167572498 -0.03755033492421867 0.0 0.0 0.0 0.0
1260008000.0 0.026232012 -0.013316098 0.21140018028907823 -0.04284588909352199 0.0 0.0 0.0 0.0
1275007500.0 -0.018495212 -0.011235748 0.2366194710478848 -0.044801219369929944 0.0 0.0 0.0 0.0
1290007000.0 0.001244503 -0.006630941 0.22671597990270145 -0.04647092283594726 0.0 0.0 0.0 0.0
1305006500.0 -0.000703645 0.001618298 0.22430230010542276 -0.059003495553338996 0.0 0.0 0.0 0.0
1320006000.0 -0.005258175 0.01177301 0.21679519948707937 -0.07107633131696847 0.0 0.0 0.0 0.0
1335005500.0 -0.026045644 -0.000301656 0.2246004932283043 -0.06387955475825453 0.0 0.0 0.0 0.0
1350005000.0 -0.04124086 -0.007670793 0.2531001449490434 -0.06739011513339031 0.0 0.0 0.0 0.0
1365004500.0 -0.043027884 -0.013972358 0.23343319029838397 -0.08163850029541922 0.0 0.0 0.0 0.0
1380004000.0 -0.062318324 -0.025617128 0.23973361187030046 -0.08918953446587614 0.0 0.0 0.0 0.0
1395003500.0 -0.067039588 -0.02061057 0.22845900795201635 -0.1017264692144116 0.0 0.0 0.0 0.0
1410003000.0 -0.0822778 -0.068841416 0.2349087446485031 -0.11003697494278578 0.0 0.0 0.0 0.0
1425002500.0 -0.117462624 -0.091798072 0.24567336509169124 -0.13166629743062874 0.0 0.0 0.0 0.0
1440002000.0 -0.105035552 -0.092359072 0.2693903234366912 -0.12529594445098324 0.0 0.0 0.0 0.0
1455001500.0 -0.087644696 -0.09155828 0.23776210953868687 -0.15966219105281435 0.0 0.0 0.0 0.0
1470001000.0 -0.083494728 -0.162878912 0.2799974781163956 -0.11889051992179825 0.0 0.0 0.0 0.0
1485000500.0 -0.022965966 -0.137706016 0.2732764079518616 -0.15452577008556315 0.0 0.0 0.0 0.0
1500000000.0 0.029063952 -0.14514632 0.214404805341617 -0.15725461484746575 0.0 0.0 0.0 0.0
