! Created with skrf 1.8.0 (http://scikit-rf.org).
# Hz S RI R 50.0 
!freq ReS11 ImS11 ReS21 ImS21 ReS12 ImS12 ReS22 ImS22
50000.0 0.666541504 -0.010868616 7.848e-06 2.8784e-05 0.0 0.0 0.0 0.0
15049500.0 0.66453024 -0.041515684 -4.4285e-05 -1.4665e-05 0.0 0.0 0.0 0.0
30049000.0 0.661963136 -0.066562012 -5.8147e-05 -1.5392e-05 0.0 0.0 0.0 0.0
45048500.0 0.658201472 -0.091398824 -5.3837e-05 1.681e-06 0.0 0.0 0.0 0.0
60048000.0 0.65377472 -0.115623752 -2.8206e-05 -8.662e-06 0.0 0.0 0.0 0.0
75047500.0 0.64808896 -0.13878232 -6.6322e-05 -6.283e-06 0.0 0.0 0.0 0.0
90047000.0 0.641371776 -0.16051072 -3.541e-05 4.119e-06 0.0 0.0 0.0 0.0
105046500.0 0.63434144 -0.183775888 -1.1199e-05 6.31e-07 0.0 0.0 0.0 0.0
120046000.0 0.626280576 -0.20575552 -3.7873e-05 1.9781e-05 0.0 0.0 0.0 0.0
135045500.0 0.6175408 -0.227183312 -2.694e-05 4.1609e-05 0.0 0.0 0.0 0.0
150045000.0 0.607786048 -0.248836624 -3.5947e-05 5.3433e-05 0.0 0.0 0.0 0.0
165044500.0 0.597516544 -0.269349344 -2.4234e-05 1.6752e-05 0.0 0.0 0.0 0.0
180044000.0 0.585970112 -0.289792224 -1.0901e-05 5.4325e-05 0.0 0.0 0.0 0.0
195043500.0 0.573480192 -0.310087488 -2.149e-05 5.0999e-05 0.0 0.0 0.0 0.0
210043000.0 0.56072352 -0.33026816 -3.7242e-05 8.439e-05 0.0 0.0 0.0 0.0
225042500.0 0.546655104 -0.34897344 -1.483e-06 4.8022e-05 0.0 0.0 0.0 0.0
240042000.0 0.532255232 -0.367684608 -4.1051e-05 5.6383e-05 0.0 0.0 0.0 0.0
255041500.0 0.516394624 -0.386741504 4.798e-06 7.8815e-05 0.0 0.0 0.0 0.0
270041000.0 0.500596992 -0.404496928 1.5047e-05 5.4233e-05 0.0 0.0 0.0 0.0
285040500.0 0.483543264 -0.42083648 2.3076e-05 4.5927e-05 0.0 0.0 0.0 0.0
300040000.0 0.4702192 -0.428804608 0.000385781 -0.000323921 0.0 0.0 0.0 0.0
315039500.0 0.453738752 -0.443264224 -0.000171444 -0.00018337 0.0 0.0 0.0 0.0
330039000.0 0.437883904 -0.456233728 -3.6352e-05 0.000207543 0.0 0.0 0.0 0.0
345038500.0 0.4196928 -0.4684352 0.000146925 -7.9129e-05 0.0 0.0 0.0 0.0
360038000.0 0.402346368 -0.480471328 0.000146703 1.1036e-05 0.0 0.0 0.0 0.0
375037500.0 0.385232 -0.491013184 -9.5888e-05 0.000201072 0.0 0.0 0.0 0.0
390037000.0 0.372970624 -0.504872448 0.000211775 -2.1034e-05 0.0 0.0 0.0 0.0
405036500.0 0.351328832 -0.5108896 0.000343823 -6.9123e-05 0.0 0.0 0.0 0.0
420036000.0 0.333958752 -0.520046304 0.000263448 0.000152536 0.0 0.0 0.0 0.0
435035500.0 0.317360064 -0.528215296 0.000290997 -0.000123245 0.0 0.0 0.0 0.0
450035000.0 0.299029216 -0.531261568 0.000450814 0.000317996 0.0 0.0 0.0 0.0
465034500.0 0.280854464 -0.54121408 0.000216243 -0.000324622 0.0 0.0 0.0 0.0
480034000.0 0.262551696 -0.54613952 0.000259236 0.000141159 0.0 0.0 0.0 0.0
495033500.0 0.243124096 -0.550803648 0.000665378 -0.000119867 0.0 0.0 0.0 0.0
510033000.0 0.225414096 -0.55403328 0.000609927 -0.000358553 0.0 0.0 0.0 0.0
525032500.0 0.208013744 -0.558229312 0.000617119 -0.000271092 0.0 0.0 0.0 0.0
540032000.0 0.192737968 -0.5600064 0.000386103 -0.000854032 0.0 0.0 0.0 0.0
555031500.0 0.17301056 -0.562575168 7.5404e-05 -0.000859863 0.0 0.0 0.0 0.0
570031000.0 0.157024704 -0.56487712 -9.7485e-05 -0.000312581 0.0 0.0 0.0 0.0
585030500.0 0.139082784 -0.56558784 0.000240951 -0.000845198 0.0 0.0 0.0 0.0
600030000.0 0.124443096 -0.574597632 -0.000250816 -0.00036278 0.0 0.0 0.0 0.0
615029500.0 0.106568184 -0.574336704 0.0004548 -1.7655e-05 0.0 0.0 0.0 0.0
630029000.0 0.090067176 -0.573583872 0.000411963 -0.000380573 0.0 0.0 0.0 0.0
645028500.0 0.076903944 -0.573898112 0.000469257 -0.000183144 0.0 0.0 0.0 0.0
660028000.0 0.061225148 -0.571875776 -9.6361e-05 -0.00084211 0.0 0.0 0.0 0.0
675027500.0 0.045926968 -0.568491968 -2.8065e-05 -0.000458769 0.0 0.0 0.0 0.0
690027000.0 0.029503582 -0.57159584 -5.1151e-05 -0.000252853 0.0 0.0 0.0 0.0
705026500.0 0.018157796 -0.567674368 0.000258659 -0.000198248 0.0 0.0 0.0 0.0
720026000.0 -0.000327294 -0.565833664 -0.000207254 -0.00043559 0.0 0.0 0.0 0.0
735025500.0 -0.01223721 -0.564813824 -0.000201816 -0.000311643 0.0 0.0 0.0 0.0
750025000.0 -0.023417938 -0.56280864 -0.000199408 -0.000113481 0.0 0.0 0.0 0.0
765024500.0 -0.036124708 -0.561002944 -0.00013427 -0.000848729 0.0 0.0 0.0 0.0
780024000.0 -0.036977252 -0.567131968 -0.000451885 -0.000209067 0.0 0.0 0.0 0.0
795023500.0 -0.060887436 -0.556493824 -9.1515e-05 -0.000515148 0.0 0.0 0.0 0.0
810023000.0 -0.074186016 -0.554451584 0.000192543 -0.000189222 0.0 0.0 0.0 0.0
825022500.0 -0.084325816 -0.551188544 0.000300626 -0.000634725 0.0 0.0 0.0 0.0
840022000.0 -0.093800464 -0.54801408 0.000141955 -0.000478611 0.0 0.0 0.0 0.0
855021500.0 -0.106352184 -0.546910528 -2.638e-05 -0.000812892 0.0 0.0 0.0 0.0
870021000.0 -0.115780336 -0.544317824 0.000293663 -0.00047186 0.0 0.0 0.0 0.0
885020500.0 -0.12790468 -0.541858048 8.8973e-05 -0.000231015 0.0 0.0 0.0 0.0
900020000.0 -0.125333248 -0.5426832 -0.001821006 0.000854066 0.0 0.0 0.0 0.0
915019500.0 -0.138469296 -0.543717504 0.0002955 -0.000807653 0.0 0.0 0.0 0.0
930019000.0 -0.145475856 -0.545389952 0.001165673 -0.000565025 0.0 0.0 0.0 0.0
945018500.0 -0.1592696 -0.54623968 -0.000153318 -0.000552106 0.0 0.0 0.0 0.0
960018000.0 -0.166309344 -0.551248832 0.00099248 -0.001442046 0.0 0.0 0.0 0.0
975017500.0 -0.1816276 -0.551034048 0.000514752 0.000322971 0.0 0.0 0.0 0.0
990017000.0 -0.1887952 -0.555906624 0.000204056 0.000756124 0.0 0.0 0.0 0.0
1005016500.0 -0.202662736 -0.553377792 0.001762518 -0.002855461 0.0 0.0 0.0 0.0
1020016000.0 -0.216654832 -0.551798528 -0.000703792 -0.003337516 0.0 0.0 0.0 0.0
1035015500.0 -0.224574656 -0.566391552 0.000274493 0.003102232 0.0 0.0 0.0 0.0
1050015000.0 -0.233751664 -0.581706496 0.001346099 -0.000673044 0.0 0.0 0.0 0.0
1065014500.0 -0.253135616 -0.57253184 7.9726e-05 -0.000106875 0.0 0.0 0.0 0.0
1080014000.0 -0.275085312 -0.575833664 -0.000855683 -0.003630463 0.0 0.0 0.0 0.0
1095013500.0 -0.288035008 -0.580736832 -0.000522652 0.000800912 0.0 0.0 0.0 0.0
1110013000.0 -0.309867456 -0.58123872 -0.003637777 -0.000813354 0.0 0.0 0.0 0.0
1125012500.0 -0.319219904 -0.574923328 0.00050768 -0.00288225 0.0 0.0 0.0 0.0
1140012000.0 -0.350111552 -0.588260544 0.000684212 -0.003005155 0.0 0.0 0.0 0.0
1155011500.0 -0.382639744 -0.60110432 0.001456841 0.00110759 0.0 0.0 0.0 0.0
1170011000.0 -0.377875104 -0.587958976 0.000147768 -0.00036029 0.0 0.0 0.0 0.0
1185010500.0 -0.41508736 -0.585224064 -0.000773791 0.000478231 0.0 0.0 0.0 0.0
1200010000.0 -0.449684064 -0.585964928 -0.000772894 0.001183551 0.0 0.0 0.0 0.0
1215009500.0 -0.479910176 -0.57771008 0.001698339 -0.004070116 0.0 0.0 0.0 0.0
1230009000.0 -0.501900608 -0.573713472 -0.002439489 0.002376831 0.0 0.0 0.0 0.0
1245008500.0 -0.529658304 -0.567982016 -0.004449633 0.001507866 0.0 0.0 0.0 0.0
1260008000.0 -0.56748 -0.567299584 -0.003416408 -0.000313769 0.0 0.0 0.0 0.0
1275007500.0 -0.597538944 -0.555788608 0.005161312 -0.001414218 0.0 0.0 0.0 0.0
1290007000.0 -0.642828416 -0.540126144 -0.011552828 0.005435427 0.0 0.0 0.0 0.0
1305006500.0 -0.6643568 -0.524865632 0.005569389 -0.001765903 0.0 0.0 0.0 0.0
1320006000.0 -0.709087424 -0.501066016 0.00018147 -0.003353278 0.0 0.0 0.0 0.0
1335005500.0 -0.716497792 -0.476110048 0.008540008 -0.003025962 0.0 0.0 0.0 0.0
1350005000.0 -0.752774976 -0.47055088 0.000600978 0.007426007 0.0 0.0 0.0 0.0
1365004500.0 -0.81874048 -0.373038176 -0.004586698 0.010039446 0.0 0.0 0.0 0.0
1380004000.0 -0.82901728 -0.388093472 0.002359447 0.005193119 0.0 0.0 0.0 0.0
1395003500.0 -0.862719168 -0.334619104 0.008674556 -0.005226001 0.0 0.0 0.0 0.0
1410003000.0 -0.879178496 -0.325256576 -0.003054251 0.008274388 0.0 0.0 0.0 0.0
1425002500.0 -0.84510624 -0.273901664 0.003644108 -0.00757997 0.0 0.0 0.0 0.0
1440002000.0 -0.897897856 -0.2305136 0.00352646 0.00941759 0.0 0.0 0.0 0.0
1455001500.0 -0.900650112 -0.186012 0.003754503 0.003356995 0.0 0.0 0.0 0.0
1470001000.0 -0.896414272 -0.12372868 0.008286563 0.011496444 0.0 0.0 0.0 0.0
1485000500.0 -0.928349952 -0.08828508 0.007815525 0.01234546 0.0 0.0 0.0 0.0
1500000000.0 -0.894047232 -0.068284008 0.010038018 0.007752324 0.0 0.0 0.0 0.0
