! Created with skrf 1.8.0 (http://scikit-rf.org).
# Hz S RI R 50.0 
!freq ReS11 ImS11 ReS21 ImS21 ReS12 ImS12 ReS22 ImS22
50000.0 0.665917184 -0.01067003 3.8583e-05 1.3961e-05 0.0 0.0 0.0 0.0
15049500.0 0.66443456 -0.0414791 -4.7839e-05 -2.303e-06 0.0 0.0 0.0 0.0
30049000.0 0.661685376 -0.06682688 -3.8766e-05 -2.4518e-05 0.0 0.0 0.0 0.0
45048500.0 0.658102336 -0.091196464 -4.66e-07 -2.8659e-05 0.0 0.0 0.0 0.0
60048000.0 0.653553088 -0.115533792 -5.1809e-05 1.9419e-05 0.0 0.0 0.0 0.0
75047500.0 0.648039104 -0.138966592 -4.9386e-05 -1.4802e-05 0.0 0.0 0.0 0.0
90047000.0 0.641297344 -0.16058712 -3.9332e-05 7.17e-07 0.0 0.0 0.0 0.0
105046500.0 0.634114048 -0.183964912 -1.0927e-05 1.4521e-05 0.0 0.0 0.0 0.0
120046000.0 0.625797312 -0.205859424 -6.8823e-05 1.3297e-05 0.0 0.0 0.0 0.0
135045500.0 0.617546304 -0.227168448 -7.5284e-05 4.4978e-05 0.0 0.0 0.0 0.0
150045000.0 0.607523648 -0.248800624 -3.1408e-05 4.7841e-05 0.0 0.0 0.0 0.0
165044500.0 0.597248704 -0.269386496 -2.3753e-05 4.061e-05 0.0 0.0 0.0 0.0
180044000.0 0.585688256 -0.28974336 1.7805e-05 4.693e-05 0.0 0.0 0.0 0.0
195043500.0 0.573162944 -0.310143136 -2.8654e-05 1.7651e-05 0.0 0.0 0.0 0.0
210043000.0 0.560476672 -0.33014384 -1.5278e-05 6.2958e-05 0.0 0.0 0.0 0.0
225042500.0 0.546325888 -0.349008224 1.5322e-05 4.4513e-05 0.0 0.0 0.0 0.0
240042000.0 0.53190272 -0.367898848 -1.262e-05 4.229e-05 0.0 0.0 0.0 0.0
255041500.0 0.516416128 -0.38685312 8.86e-06 5.9589e-05 0.0 0.0 0.0 0.0
270041000.0 0.500558016 -0.404914528 1.86e-06 5.8805e-05 0.0 0.0 0.0 0.0
285040500.0 0.483563776 -0.42138688 3.545e-05 3.9025e-05 0.0 0.0 0.0 0.0
300040000.0 0.469480928 -0.428762016 -0.000154557 -0.000246215 0.0 0.0 0.0 0.0
315039500.0 0.452799296 -0.443115328 3.3405e-05 -9.1588e-05 0.0 0.0 0.0 0.0
330039000.0 0.435155968 -0.456629984 9.4475e-05 -4.5312e-05 0.0 0.0 0.0 0.0
345038500.0 0.419921856 -0.46857168 -0.000164378 -0.00022785 0.0 0.0 0.0 0.0
360038000.0 0.402158336 -0.481121216 -5.5363e-05 -7.4348e-05 0.0 0.0 0.0 0.0
375037500.0 0.384886912 -0.492109856 2.5218e-05 -0.000148514 0.0 0.0 0.0 0.0
390037000.0 0.369652352 -0.504128928 0.000517313 0.000418916 0.0 0.0 0.0 0.0
405036500.0 0.349839968 -0.512337152 -0.000183861 0.000422468 0.0 0.0 0.0 0.0
420036000.0 0.334401024 -0.51938944 -0.000139012 3.4472e-05 0.0 0.0 0.0 0.0
435035500.0 0.316575424 -0.528446144 0.000371575 0.000192384 0.0 0.0 0.0 0.0
450035000.0 0.300644608 -0.53082544 -0.000332174 0.000248075 0.0 0.0 0.0 0.0
465034500.0 0.279650016 -0.540214528 -6.818e-05 -0.000270246 0.0 0.0 0.0 0.0
480034000.0 0.262085968 -0.545982528 0.000441908 0.000112375 0.0 0.0 0.0 0.0
495033500.0 0.244654224 -0.550348608 4.4426e-05 9.9146e-05 0.0 0.0 0.0 0.0
510033000.0 0.224899264 -0.553712896 0.000566813 -0.000410558 0.0 0.0 0.0 0.0
525032500.0 0.207865536 -0.558156992 0.000559165 -0.000146458 0.0 0.0 0.0 0.0
540032000.0 0.190929792 -0.561048448 0.000304892 -0.000422602 0.0 0.0 0.0 0.0
555031500.0 0.172888576 -0.562676224 0.000210466 -0.000565791 0.0 0.0 0.0 0.0
570031000.0 0.15536496 -0.56402752 0.000409054 -0.000197486 0.0 0.0 0.0 0.0
585030500.0 0.137254224 -0.568872512 0.000127222 -0.000307259 0.0 0.0 0.0 0.0
600030000.0 0.125483824 -0.573560384 0.000506555 -0.000696122 0.0 0.0 0.0 0.0
615029500.0 0.107234848 -0.575193856 -3.5579e-05 -0.000150274 0.0 0.0 0.0 0.0
630029000.0 0.091252824 -0.574274112 8.2518e-05 -0.000381951 0.0 0.0 0.0 0.0
645028500.0 0.076162536 -0.572551168 0.000418067 -0.000647968 0.0 0.0 0.0 0.0
660028000.0 0.06115822 -0.57195776 0.000232492 -0.000551406 0.0 0.0 0.0 0.0
675027500.0 0.047596536 -0.570174784 -0.00016626 -0.000638963 0.0 0.0 0.0 0.0
690027000.0 0.02991375 -0.568118144 1.4761e-05 -0.000305334 0.0 0.0 0.0 0.0
705026500.0 0.017395086 -0.56816992 -0.000284064 -0.000682258 0.0 0.0 0.0 0.0
720026000.0 0.002105276 -0.564086464 0.00053455 -0.000775259 0.0 0.0 0.0 0.0
735025500.0 -0.01158245 -0.564963968 0.000549009 -0.000495617 0.0 0.0 0.0 0.0
750025000.0 -0.022306132 -0.562895232 -7.2376e-05 -0.000659007 0.0 0.0 0.0 0.0
765024500.0 -0.036026584 -0.560840576 -0.000111819 -0.000631428 0.0 0.0 0.0 0.0
780024000.0 -0.039398716 -0.550062208 -0.000206582 -0.000274829 0.0 0.0 0.0 0.0
795023500.0 -0.058627904 -0.556380736 -0.000345266 -0.00054302 0.0 0.0 0.0 0.0
810023000.0 -0.068964664 -0.554478528 -0.000326562 -0.000663972 0.0 0.0 0.0 0.0
825022500.0 -0.083316 -0.5505808 9.0367e-05 -0.000242102 0.0 0.0 0.0 0.0
840022000.0 -0.09509808 -0.550447872 -0.000150164 -0.000530114 0.0 0.0 0.0 0.0
855021500.0 -0.102837736 -0.547373312 -0.000386408 -0.000753548 0.0 0.0 0.0 0.0
870021000.0 -0.114781032 -0.547741888 -0.000242837 5.432e-05 0.0 0.0 0.0 0.0
885020500.0 -0.1220202 -0.543380608 -0.00024013 -0.000354262 0.0 0.0 0.0 0.0
900020000.0 -0.122879248 -0.544343616 0.001578501 0.001521052 0.0 0.0 0.0 0.0
915019500.0 -0.133114128 -0.544259264 0.00010586 -0.000878379 0.0 0.0 0.0 0.0
930019000.0 -0.144914144 -0.548368064 -0.000221072 -0.002411877 0.0 0.0 0.0 0.0
945018500.0 -0.153389616 -0.547223552 0.001073237 -0.000553372 0.0 0.0 0.0 0.0
960018000.0 -0.16498864 -0.548906112 0.000485555 -0.001878289 0.0 0.0 0.0 0.0
975017500.0 -0.171352384 -0.551887552 -0.000359748 -0.000156818 0.0 0.0 0.0 0.0
990017000.0 -0.184775568 -0.556005184 0.000556961 0.000294501 0.0 0.0 0.0 0.0
1005016500.0 -0.201906112 -0.55832864 0.002301836 4.2313e-05 0.0 0.0 0.0 0.0
1020016000.0 -0.213545168 -0.5675056 -0.000182263 -0.001396786 0.0 0.0 0.0 0.0
1035015500.0 -0.225483424 -0.564662464 -0.000890797 -0.000662878 0.0 0.0 0.0 0.0
1050015000.0 -0.241471904 -0.589732864 0.00058063 -0.000548643 0.0 0.0 0.0 0.0
1065014500.0 -0.251887168 -0.577965312 -0.001415974 -0.003086562 0.0 0.0 0.0 0.0
1080014000.0 -0.269727904 -0.575472256 0.002514494 -0.000580048 0.0 0.0 0.0 0.0
1095013500.0 -0.284712 -0.586997696 0.000127294 -0.00285291 0.0 0.0 0.0 0.0
1110013000.0 -0.305991552 -0.584092608 -0.001029926 -0.002799991 0.0 0.0 0.0 0.0
1125012500.0 -0.316783456 -0.57779872 -0.00073624 -0.001002315 0.0 0.0 0.0 0.0
1140012000.0 -0.352654752 -0.587986304 -0.000866326 0.000634071 0.0 0.0 0.0 0.0
1155011500.0 -0.390436512 -0.584091008 4.818e-05 0.000187766 0.0 0.0 0.0 0.0
1170011000.0 -0.410210624 -0.592350336 -0.002782883 0.000771363 0.0 0.0 0.0 0.0
1185010500.0 -0.424343552 -0.586941568 0.000831175 -0.000118786 0.0 0.0 0.0 0.0
1200010000.0 -0.446273792 -0.587608128 -0.002915913 0.000189712 0.0 0.0 0.0 0.0
1215009500.0 -0.47553136 -0.5898896 -0.000657676 0.000510523 0.0 0.0 0.0 0.0
1230009000.0 -0.496970464 -0.578084032 -0.003977289 0.000113705 0.0 0.0 0.0 0.0
1245008500.0 -0.539529472 -0.58024384 0.006062974 -0.003710692 0.0 0.0 0.0 0.0
1260008000.0 -0.578855424 -0.553992896 -0.008106549 0.001246776 0.0 0.0 0.0 0.0
1275007500.0 -0.59547712 -0.556828224 -0.000626805 -0.001442208 0.0 0.0 0.0 0.0
1290007000.0 -0.633582976 -0.534835808 -0.003827134 -0.001187435 0.0 0.0 0.0 0.0
1305006500.0 -0.682596864 -0.533927552 0.003624941 0.000722305 0.0 0.0 0.0 0.0
1320006000.0 -0.700225984 -0.5232488 0.003153226 -0.0011314 0.0 0.0 0.0 0.0
1335005500.0 -0.731513152 -0.48503424 -0.007371706 -0.002234966 0.0 0.0 0.0 0.0
1350005000.0 -0.787198144 -0.459864064 0.002593188 0.002371235 0.0 0.0 0.0 0.0
1365004500.0 -0.797145088 -0.44474512 0.006860439 0.008166263 0.0 0.0 0.0 0.0
1380004000.0 -0.820788608 -0.412190304 0.001573949 -0.002410205 0.0 0.0 0.0 0.0
1395003500.0 -0.846088448 -0.359721408 0.004974821 0.001096757 0.0 0.0 0.0 0.0
1410003000.0 -0.86998848 -0.325483904 -0.003383845 0.004766459 0.0 0.0 0.0 0.0
1425002500.0 -0.870669248 -0.270161216 1.371e-05 0.004664577 0.0 0.0 0.0 0.0
1440002000.0 -0.899970304 -0.242251008 0.0177553 0.01625642 0.0 0.0 0.0 0.0
1455001500.0 -0.90688736 -0.184213456 0.022416862 0.002922182 0.0 0.0 0.0 0.0
1470001000.0 -0.918265664 -0.162234928 -0.001431789 -0.006657861 0.0 0.0 0.0 0.0
1485000500.0 -0.923830016 -0.119800392 0.003594331 0.016351014 0.0 0.0 0.0 0.0
1500000000.0 -0.927106816 -0.062830844 0.001389527 0.011884588 0.0 0.0 0.0 0.0
