! Created with skrf 1.8.0 (http://scikit-rf.org).
# Hz S RI R 50.0 
!freq ReS11 ImS11 ReS21 ImS21 ReS12 ImS12 ReS22 ImS22
50000.0 0.003697115 -0.007718571 -0.81686752 -0.013494914 0.0 0.0 0.0 0.0
15049500.0 0.008772802 0.002674825 -0.7860288 0.2001164 0.0 0.0 0.0 0.0
30049000.0 0.011520276 0.002442027 -0.716590464 0.374991744 0.0 0.0 0.0 0.0
45048500.0 0.014064938 0.001647576 -0.608361728 0.528813312 0.0 0.0 0.0 0.0
60048000.0 0.017137846 0.000112038 -0.4703648 0.651878208 0.0 0.0 0.0 0.0
75047500.0 0.020641966 -0.002138437 -0.310551072 0.738060096 0.0 0.0 0.0 0.0
90047000.0 0.025225638 -0.005793068 -0.128480328 0.784021312 0.0 0.0 0.0 0.0
105046500.0 0.029055504 -0.012099008 0.052270012 0.79171488 0.0 0.0 0.0 0.0
120046000.0 0.03134333 -0.020673306 0.226125584 0.758820416 0.0 0.0 0.0 0.0
135045500.0 0.0306453 -0.03094707 0.387701056 0.688470336 0.0 0.0 0.0 0.0
150045000.0 0.02634672 -0.041211988 0.529419424 0.58408864 0.0 0.0 0.0 0.0
165044500.0 0.018446562 -0.049832644 0.644436864 0.452341824 0.0 0.0 0.0 0.0
180044000.0 0.007753778 -0.055287024 0.72726688 0.299186528 0.0 0.0 0.0 0.0
195043500.0 -0.004035768 -0.056291416 0.775875712 0.131460264 0.0 0.0 0.0 0.0
210043000.0 -0.014765996 -0.052716284 0.785320256 -0.043768116 0.0 0.0 0.0 0.0
225042500.0 -0.02236772 -0.045582152 0.754913472 -0.21688984 0.0 0.0 0.0 0.0
240042000.0 -0.02557153 -0.036752104 0.685569408 -0.379741024 0.0 0.0 0.0 0.0
255041500.0 -0.024159698 -0.028653038 0.580080128 -0.52205264 0.0 0.0 0.0 0.0
270041000.0 -0.01916821 -0.023346384 0.44627904 -0.636130496 0.0 0.0 0.0 0.0
285040500.0 -0.012377684 -0.022112176 0.290799136 -0.716911168 0.0 0.0 0.0 0.0
300040000.0 -0.005924461 -0.024963568 0.136256224 -0.75758208 0.0 0.0 0.0 0.0
315039500.0 -0.00164687 -0.031058238 -0.034509996 -0.765767488 0.0 0.0 0.0 0.0
330039000.0 -0.001879233 -0.039098232 -0.202685696 -0.738966144 0.0 0.0 0.0 0.0
345038500.0 -0.006754299 -0.046596928 -0.360459872 -0.676225984 0.0 0.0 0.0 0.0
360038000.0 -0.013758756 -0.051047316 -0.4999144 -0.57825376 0.0 0.0 0.0 0.0
375037500.0 -0.02344455 -0.051259568 -0.613099008 -0.454284256 0.0 0.0 0.0 0.0
390037000.0 -0.03298664 -0.046473972 -0.694716608 -0.306253504 0.0 0.0 0.0 0.0
405036500.0 -0.0384251 -0.037215392 -0.744265216 -0.149602416 0.0 0.0 0.0 0.0
420036000.0 -0.03886194 -0.025460544 -0.75270944 0.015644444 0.0 0.0 0.0 0.0
435035500.0 -0.032678898 -0.014624022 -0.719778048 0.181275024 0.0 0.0 0.0 0.0
450035000.0 -0.020747342 -0.00685719 -0.64778048 0.338534368 0.0 0.0 0.0 0.0
465034500.0 -0.00531102 -0.005727464 -0.54566176 0.468881664 0.0 0.0 0.0 0.0
480034000.0 0.011051054 -0.011722036 -0.418594848 0.57259328 0.0 0.0 0.0 0.0
495033500.0 0.023818994 -0.024242348 -0.275394624 0.64328192 0.0 0.0 0.0 0.0
510033000.0 0.032975476 -0.042790344 -0.125440376 0.67956384 0.0 0.0 0.0 0.0
525032500.0 0.03410234 -0.064294576 0.024829656 0.683241664 0.0 0.0 0.0 0.0
540032000.0 0.028182946 -0.085722648 0.17134088 0.656720512 0.0 0.0 0.0 0.0
555031500.0 0.014255874 -0.10488064 0.307200704 0.600769088 0.0 0.0 0.0 0.0
570031000.0 -0.00552338 -0.118240552 0.430797056 0.518436064 0.0 0.0 0.0 0.0
585030500.0 -0.027831172 -0.124144904 0.531250784 0.413046304 0.0 0.0 0.0 0.0
600030000.0 -0.05130128 -0.123519288 0.609763328 0.297272032 0.0 0.0 0.0 0.0
615029500.0 -0.071840056 -0.113395336 0.659852608 0.155329376 0.0 0.0 0.0 0.0
630029000.0 -0.087359568 -0.09771 0.67658368 0.004913151 0.0 0.0 0.0 0.0
645028500.0 -0.0946814 -0.078582128 0.657384192 -0.14705944 0.0 0.0 0.0 0.0
660028000.0 -0.093277224 -0.06038718 0.606142272 -0.290243552 0.0 0.0 0.0 0.0
675027500.0 -0.085347544 -0.0453843 0.52062368 -0.41442848 0.0 0.0 0.0 0.0
690027000.0 -0.073032496 -0.0370808 0.412189984 -0.516289664 0.0 0.0 0.0 0.0
705026500.0 -0.060291944 -0.034969488 0.284147264 -0.586145792 0.0 0.0 0.0 0.0
720026000.0 -0.049647892 -0.038973532 0.149523216 -0.627460992 0.0 0.0 0.0 0.0
735025500.0 -0.042911308 -0.049419544 0.010511484 -0.638550208 0.0 0.0 0.0 0.0
750025000.0 -0.041574156 -0.060350368 -0.127415616 -0.620027712 0.0 0.0 0.0 0.0
765024500.0 -0.046560984 -0.07063536 -0.253860896 -0.5751616 0.0 0.0 0.0 0.0
780024000.0 -0.053943652 -0.077342 -0.370757152 -0.49106992 0.0 0.0 0.0 0.0
795023500.0 -0.067221864 -0.080532408 -0.469124832 -0.411543104 0.0 0.0 0.0 0.0
810023000.0 -0.0797926 -0.076757568 -0.543544256 -0.296634848 0.0 0.0 0.0 0.0
825022500.0 -0.089175136 -0.067978432 -0.596786496 -0.168870352 0.0 0.0 0.0 0.0
840022000.0 -0.093075144 -0.05458032 -0.618042752 -0.030358646 0.0 0.0 0.0 0.0
855021500.0 -0.090587352 -0.041124668 -0.609730944 0.110235408 0.0 0.0 0.0 0.0
870021000.0 -0.081413032 -0.029345802 -0.568226816 0.244167232 0.0 0.0 0.0 0.0
885020500.0 -0.0664991 -0.02252864 -0.499078272 0.3644184 0.0 0.0 0.0 0.0
900020000.0 -0.050584792 -0.028674494 -0.380717056 0.46853424 0.0 0.0 0.0 0.0
915019500.0 -0.035718548 -0.036544044 -0.27170416 0.538243392 0.0 0.0 0.0 0.0
930019000.0 -0.025506972 -0.052616068 -0.14596256 0.587660544 0.0 0.0 0.0 0.0
945018500.0 -0.018267074 -0.070358264 -0.023185436 0.604691712 0.0 0.0 0.0 0.0
960018000.0 -0.019648628 -0.092020056 0.104955632 0.59467904 0.0 0.0 0.0 0.0
975017500.0 -0.029744314 -0.114088376 0.23035744 0.567237824 0.0 0.0 0.0 0.0
990017000.0 -0.044484248 -0.130892768 0.344674272 0.50925392 0.0 0.0 0.0 0.0
1005016500.0 -0.064763488 -0.1437864 0.446107456 0.429636064 0.0 0.0 0.0 0.0
1020016000.0 -0.08750592 -0.146940096 0.545807808 0.328763424 0.0 0.0 0.0 0.0
1035015500.0 -0.115818408 -0.146819152 0.6140144 0.204157744 0.0 0.0 0.0 0.0
1050015000.0 -0.134197056 -0.136160128 0.653234368 0.062179564 0.0 0.0 0.0 0.0
1065014500.0 -0.157425888 -0.120274384 0.665505088 -0.087873216 0.0 0.0 0.0 0.0
1080014000.0 -0.169212656 -0.100322632 0.639660352 -0.24641256 0.0 0.0 0.0 0.0
1095013500.0 -0.168931536 -0.07492036 0.575613952 -0.398014944 0.0 0.0 0.0 0.0
1110013000.0 -0.162143008 -0.059007516 0.467581632 -0.527729824 0.0 0.0 0.0 0.0
1125012500.0 -0.152296496 -0.040707952 0.341436288 -0.619243648 0.0 0.0 0.0 0.0
1140012000.0 -0.133518088 -0.032363992 0.189791712 -0.692811136 0.0 0.0 0.0 0.0
1155011500.0 -0.120403128 -0.03522336 0.030482666 -0.743346432 0.0 0.0 0.0 0.0
1170011000.0 -0.112410704 -0.05151704 -0.13808984 -0.7462096 0.0 0.0 0.0 0.0
1185010500.0 -0.109091168 -0.062942364 -0.296150432 -0.6896192 0.0 0.0 0.0 0.0
1200010000.0 -0.108989552 -0.068851896 -0.460736096 -0.626076928 0.0 0.0 0.0 0.0
1215009500.0 -0.119446336 -0.089285504 -0.596819264 -0.516867168 0.0 0.0 0.0 0.0
1230009000.0 -0.132534864 -0.094062632 -0.721062272 -0.391714976 0.0 0.0 0.0 0.0
1245008500.0 -0.161173792 -0.093138952 -0.80434752 -0.234335472 0.0 0.0 0.0 0.0
1260008000.0 -0.177755184 -0.088741288 -0.855111488 -0.055391728 0.0 0.0 0.0 0.0
1275007500.0 -0.187159152 -0.073704696 -0.883053632 0.144524272 0.0 0.0 0.0 0.0
1290007000.0 -0.195396048 -0.05126078 -0.847580928 0.351409152 0.0 0.0 0.0 0.0
1305006500.0 -0.192410544 -0.02562178 -0.75181696 0.5347016 0.0 0.0 0.0 0.0
1320006000.0 -0.178797104 -0.025216842 -0.613066112 0.686629888 0.0 0.0 0.0 0.0
1335005500.0 -0.166625424 -0.00779934 -0.45565104 0.817386048 0.0 0.0 0.0 0.0
1350005000.0 -0.15736616 -0.001730026 -0.282925088 0.891074048 0.0 0.0 0.0 0.0
1365004500.0 -0.130141992 -0.01730874 -0.063050432 0.91810656 0.0 0.0 0.0 0.0
1380004000.0 -0.11958884 -0.025242744 0.095351608 0.946374976 0.0 0.0 0.0 0.0
1395003500.0 -0.131821248 -0.052318004 0.297967456 0.905325952 0.0 0.0 0.0 0.0
1410003000.0 -0.130249056 -0.077304024 0.46405568 0.839801984 0.0 0.0 0.0 0.0
1425002500.0 -0.151927664 -0.094904816 0.632892288 0.750752576 0.0 0.0 0.0 0.0
1440002000.0 -0.183762288 -0.118949736 0.770367168 0.625528256 0.0 0.0 0.0 0.0
1455001500.0 -0.220833904 -0.11867096 0.904466176 0.477710464 0.0 0.0 0.0 0.0
1470001000.0 -0.242475136 -0.119033856 0.989673024 0.318860512 0.0 0.0 0.0 0.0
1485000500.0 -0.28044112 -0.082546024 1.04447484 0.11643788 0.0 0.0 0.0 0.0
1500000000.0 -0.315182656 -0.051133456 1.058309556 -0.095380592 0.0 0.0 0.0 0.0
