! Created with skrf 1.8.0 (http://scikit-rf.org).
# Hz S RI R 50.0 
!freq ReS11 ImS11 ReS21 ImS21 ReS12 ImS12 ReS22 ImS22
50000.0 0.999231872 0.002571321 9.137890381423022e-05 -0.00017205411331238103 0.0 0.0 0.0 0.0
50270.0 1.000370502 0.002442147 -0.0001528949635717847 0.00032952887285393154 0.0 0.0 0.0 0.0
50540.0 0.999790912 0.000143582 -0.0002232939742335814 0.00024570074986449 0.0 0.0 0.0 0.0
50810.0 0.99893248 0.001077164 0.00035187326375277087 -0.00014024035644910824 0.0 0.0 0.0 0.0
51080.0 1.001445055 0.000922111 0.00032435016177825436 -6.734803702722297e-05 0.0 0.0 0.0 0.0
51350.0 1.000501275 0.000914143 -0.00012162942162271135 4.6225521865358285e-05 0.0 0.0 0.0 0.0
51620.0 0.999990016 0.001397599 -4.568043454911655e-05 4.4955574575394756e-05 0.0 0.0 0.0 0.0
51890.0 0.999707072 0.001203866 -5.11456567025467e-06 3.435106467061322e-05 0.0 0.0 0.0 0.0
52160.0 0.999716352 0.001145616 7.787208496722464e-06 9.508490103496231e-05 0.0 0.0 0.0 0.0
52430.0 0.999655168 0.001285183 -3.615462595763073e-05 2.9278461893750735e-05 0.0 0.0 0.0 0.0
52700.0 0.999991296 0.001326331 6.665687507134004e-05 0.00014601914405557842 0.0 0.0 0.0 0.0
52970.0 0.998976 0.000924027 -3.493457494559309e-05 0.00011040945091055722 0.0 0.0 0.0 0.0
53240.0 0.999313408 0.000782039 7.741372968138608e-07 0.00016475198997112502 0.0 0.0 0.0 0.0
53510.0 0.999721216 0.001606945 -5.072916873259792e-05 0.00029384066146246615 0.0 0.0 0.0 0.0
53780.0 0.999494912 0.001689221 0.0001818722377786913 -0.0002870973833499204 0.0 0.0 0.0 0.0
54050.0 1.00014317 0.000495029 0.0002802073380973431 -0.0002021176903994335 0.0 0.0 0.0 0.0
54320.0 0.999631552 0.001016729 -0.00023467652801590085 0.0001867641061885343 0.0 0.0 0.0 0.0
54590.0 1.000658155 0.001075758 -0.0002553820284433109 0.0001482193970443138 0.0 0.0 0.0 0.0
54860.0 1.000190735 0.00112323 0.00029719123137915616 1.730702728202864e-05 0.0 0.0 0.0 0.0
55130.0 0.999940544 0.001397663 0.00014917147551344725 3.539699613160718e-05 0.0 0.0 0.0 0.0
55400.0 0.999797952 0.001222123 9.33200902894661e-05 8.076674026705484e-05 0.0 0.0 0.0 0.0
55670.0 0.99969312 0.001265023 7.049742445963596e-05 0.00010501004371753171 0.0 0.0 0.0 0.0
55940.0 0.999579776 0.001251886 9.713508465582052e-06 3.730286760141994e-05 0.0 0.0 0.0 0.0
56210.0 0.999569984 0.001121822 -2.6891050934772087e-05 -3.7186316869909763e-06 0.0 0.0 0.0 0.0
56480.0 0.999466112 0.001138047 -1.573023777913611e-05 -8.993978352437724e-05 0.0 0.0 0.0 0.0
56750.0 0.999426368 0.001168786 -2.350453943126764e-05 -3.900967498100932e-05 0.0 0.0 0.0 0.0
57020.0 0.999820608 0.001097037 2.2488456752178786e-05 -0.0001830483124694281 0.0 0.0 0.0 0.0
57290.0 0.999693824 0.001555292 -6.017464596176568e-05 0.00024026684004118456 0.0 0.0 0.0 0.0
57560.0 0.999782976 0.000650618 -0.00014230360673805174 0.00024193699589633225 0.0 0.0 0.0 0.0
57830.0 0.999014208 0.001404945 0.00027426953039790154 -0.00017525986481597703 0.0 0.0 0.0 0.0
58100.0 1.000656247 0.000663884 0.00022724307347020872 -6.544821709422896e-05 0.0 0.0 0.0 0.0
58370.0 0.998903424 0.001362824 3.07610152887779e-06 7.744795625698613e-05 0.0 0.0 0.0 0.0
58640.0 1.000131011 0.001020396 0.00018936919392287496 8.355629418542079e-05 0.0 0.0 0.0 0.0
58910.0 0.998887744 0.000987421 -0.0002268803962873357 -2.7605743270223995e-05 0.0 0.0 0.0 0.0
59180.0 0.999136384 0.001013253 9.836706588429692e-06 4.8999858157888e-05 0.0 0.0 0.0 0.0
59450.0 0.999646336 0.001198987 -9.77613721491295e-05 -2.5689583833129876e-05 0.0 0.0 0.0 0.0
59720.0 0.999510912 0.001316186 1.2632649356976503e-05 4.4623816177280054e-05 0.0 0.0 0.0 0.0
59990.0 0.999391552 0.001119869 9.432361226111076e-06 -4.3699137882802184e-05 0.0 0.0 0.0 0.0
60260.0 0.999564352 0.000958724 -2.1712730641299603e-05 -4.975968118967774e-05 0.0 0.0 0.0 0.0
60530.0 0.999448576 0.000716976 6.545462967951234e-05 -9.290896540979188e-05 0.0 0.0 0.0 0.0
60800.0 0.999649984 0.000790451 -3.6068431353346624e-05 0.00017338253437041727 0.0 0.0 0.0 0.0
61070.0 0.999532864 0.001201337 -9.650732976263758e-05 0.0001794434361186988 0.0 0.0 0.0 0.0
61340.0 0.999755136 0.000992804 0.00028309892947278684 -0.00013853123135727213 0.0 0.0 0.0 0.0
61610.0 0.999135872 0.001334697 0.0002824974145338711 -0.00010561324094865287 0.0 0.0 0.0 0.0
61880.0 0.9999728 0.000982039 -5.06515125705351e-05 9.864876373942517e-05 0.0 0.0 0.0 0.0
62150.0 0.999371904 0.001318565 0.00018467252223076906 3.448320334490568e-05 0.0 0.0 0.0 0.0
62420.0 0.99991296 0.00125079 -0.00029055430556877693 4.565941924122334e-05 0.0 0.0 0.0 0.0
62690.0 0.999565824 0.001375003 8.474976681125096e-05 0.00011566270542157737 0.0 0.0 0.0 0.0
62960.0 0.999395584 0.000980517 -0.00017874597411784103 -6.349525782028212e-05 0.0 0.0 0.0 0.0
63230.0 0.999154176 0.001075284 3.684167400165002e-05 0.00010865143239164473 0.0 0.0 0.0 0.0
63500.0 0.999381888 0.000910822 -3.9898427175478106e-05 3.702161734612725e-05 0.0 0.0 0.0 0.0
63770.0 0.999444224 0.000865647 -1.7571481132183693e-05 3.339227304064987e-05 0.0 0.0 0.0 0.0
64040.0 0.999323904 0.000948812 8.956992040658932e-06 -5.101397686639822e-07 0.0 0.0 0.0 0.0
64310.0 0.999378944 0.000984611 6.614304596591291e-06 1.9437896354891682e-05 0.0 0.0 0.0 0.0
64580.0 0.999618816 0.000747124 3.369739502306762e-05 8.865146974900833e-05 0.0 0.0 0.0 0.0
64850.0 0.999209536 0.001155256 0.00014304576513601716 -7.814826038787695e-05 0.0 0.0 0.0 0.0
65120.0 0.999865856 0.000889516 4.4320111940147096e-05 7.054296748282607e-06 0.0 0.0 0.0 0.0
65390.0 0.998954304 0.001316972 0.00023569479517235556 4.9904244595638965e-05 0.0 0.0 0.0 0.0
65660.0 0.998706752 0.001255078 0.00028907855782146384 3.48633749924275e-05 0.0 0.0 0.0 0.0
65930.0 0.999547776 0.001509938 7.788527292782684e-05 7.923574878776577e-05 0.0 0.0 0.0 0.0
66200.0 0.99911936 0.001279748 0.00024600531219563446 0.00014333903177267672 0.0 0.0 0.0 0.0
66470.0 0.999147072 0.001146313 9.412765374981642e-05 0.00010210447547269741 0.0 0.0 0.0 0.0
66740.0 0.998897536 0.000934368 5.016325072784831e-05 7.690918423969288e-05 0.0 0.0 0.0 0.0
67010.0 0.999504064 0.001202324 5.728770061159051e-05 0.00016539606462258034 0.0 0.0 0.0 0.0
67280.0 0.999367808 0.00106667 -2.141209364478443e-05 -0.00012770864898959262 0.0 0.0 0.0 0.0
67550.0 0.999383744 0.000696126 2.7436056222957106e-05 -0.00011809345160478092 0.0 0.0 0.0 0.0
67820.0 0.99942592 0.000797553 2.42444665273134e-05 2.823059935258159e-05 0.0 0.0 0.0 0.0
68090.0 0.999490368 0.000814804 6.205106096435056e-05 3.6739704950436863e-06 0.0 0.0 0.0 0.0
68360.0 0.999539456 0.000874907 1.0139199489625508e-05 7.201083112080833e-05 0.0 0.0 0.0 0.0
68630.0 0.999639296 0.001008583 3.8990875853441705e-05 5.237434796903438e-05 0.0 0.0 0.0 0.0
68900.0 0.99944224 0.001117998 -8.642688052178239e-05 6.668145099856146e-05 0.0 0.0 0.0 0.0
69170.0 0.99878848 0.001121607 -0.0001467691305202815 0.00011092047372473926 0.0 0.0 0.0 0.0
69440.0 0.999537152 0.001264463 -5.621025428433371e-05 4.407295109577466e-05 0.0 0.0 0.0 0.0
69710.0 0.99883104 0.001184924 -0.00020980244428959552 -2.6154436298861037e-05 0.0 0.0 0.0 0.0
69980.0 0.999129152 0.001045214 -0.00019976777306753116 -0.000103979593616437 0.0 0.0 0.0 0.0
70250.0 0.998337344 0.000991511 -4.234606660623965e-05 5.4528724870291216e-05 0.0 0.0 0.0 0.0
70520.0 1.000165105 0.000788018 -1.6035586452528678e-05 -9.232472446816983e-05 0.0 0.0 0.0 0.0
70790.0 0.999815488 0.000779615 7.839171395436736e-05 0.0001573376478319688 0.0 0.0 0.0 0.0
71060.0 0.999117888 0.000563474 3.053320618013667e-05 0.0001274144713380755 0.0 0.0 0.0 0.0
71330.0 0.999368192 0.00031075 5.096491412935624e-05 -0.00012001088582619221 0.0 0.0 0.0 0.0
71600.0 0.999571072 0.001173262 7.356948679904057e-05 -2.9416283536942488e-05 0.0 0.0 0.0 0.0
71870.0 0.99994336 0.000998001 3.786167007954474e-05 -1.8839663048677558e-05 0.0 0.0 0.0 0.0
72140.0 0.99839936 0.000889205 6.275336696982597e-05 7.776489692625043e-05 0.0 0.0 0.0 0.0
72410.0 0.998385472 0.001269218 0.00010567637479297852 2.1241135459620214e-05 0.0 0.0 0.0 0.0
72680.0 0.998992896 0.000724422 -4.186208004171381e-06 4.472107414347079e-05 0.0 0.0 0.0 0.0
72950.0 0.998625664 0.00107147 0.00014682157897294237 8.882739018958088e-05 0.0 0.0 0.0 0.0
73220.0 0.999688832 0.000828935 -8.058624064810313e-05 -1.3487562241043048e-05 0.0 0.0 0.0 0.0
73490.0 0.998056064 0.000774994 1.987677605310093e-05 4.333764407227132e-05 0.0 0.0 0.0 0.0
73760.0 0.998448064 0.000540348 -0.0001165160515643558 -0.00011414690589259252 0.0 0.0 0.0 0.0
74030.0 0.999147264 0.000753732 -7.096426076175876e-05 -0.00018076471993045852 0.0 0.0 0.0 0.0
74300.0 0.99885088 0.000567479 2.2665304453568683e-05 0.00018252158968743131 0.0 0.0 0.0 0.0
74570.0 0.999623744 0.000548699 -8.914029299086015e-07 0.0001429300162205845 0.0 0.0 0.0 0.0
74840.0 0.999648384 0.000496726 7.107365480046476e-05 -0.00012860329612146172 0.0 0.0 0.0 0.0
75110.0 0.999137152 0.000723373 9.496191435775794e-05 -5.931973798416383e-05 0.0 0.0 0.0 0.0
75380.0 0.99929728 0.000852484 5.239688887244697e-05 4.839303760344501e-05 0.0 0.0 0.0 0.0
75650.0 0.999274816 0.000786387 6.546586666021997e-05 -7.234206758608577e-06 0.0 0.0 0.0 0.0
75920.0 0.999337728 0.000761095 7.964090876357316e-06 5.896885268099695e-05 0.0 0.0 0.0 0.0
76190.0 0.999335296 0.000760732 1.0185222538174096e-05 6.585181092307083e-05 0.0 0.0 0.0 0.0
76460.0 0.999292608 0.000733615 5.895168858239164e-05 3.69589016920784e-05 0.0 0.0 0.0 0.0
76730.0 0.999134336 0.000760769 -7.849340871140261e-05 -2.1859532448446914e-05 0.0 0.0 0.0 0.0
77000.0 0.99925184 0.000594417 -3.3359443460625884e-05 -2.36353741031807e-05 0.0 0.0 0.0 0.0
