! Created with skrf 1.8.0 (http://scikit-rf.org).
# Hz S RI R 50.0 
!freq ReS11 ImS11
50000.0 0.998892224 0.000620528
15049500.0 0.977585344 0.219599792
30049000.0 0.907775616 0.427626336
45048500.0 0.794549568 0.615770496
60048000.0 0.645540736 0.773047616
75047500.0 0.467002784 0.896526016
90047000.0 0.252866864 0.982195584
105046500.0 0.033742748 1.014323832
120046000.0 -0.188054176 0.999201984
135045500.0 -0.402991904 0.934991808
150045000.0 -0.600760512 0.825256256
165044500.0 -0.769014208 0.672825024
180044000.0 -0.8998608 0.486583936
195043500.0 -0.98766432 0.274460576
210043000.0 -1.02571094 0.046734244
225042500.0 -1.010188342 -0.187126656
240042000.0 -0.941095168 -0.412096928
255041500.0 -0.822584192 -0.616438528
270041000.0 -0.659581632 -0.787878976
285040500.0 -0.461200928 -0.918383744
300040000.0 -0.240229152 -0.98994944
315039500.0 -0.008356187 -1.015508176
330039000.0 0.223488768 -0.99315712
345038500.0 0.446722208 -0.919354176
360038000.0 0.645027392 -0.796766848
375037500.0 0.805006464 -0.637200768
390037000.0 0.938284736 -0.452160416
405036500.0 1.016216756 -0.242438
420036000.0 1.055241944 -0.017155402
435035500.0 1.0452801 0.2164504
450035000.0 0.978083136 0.455733888
465034500.0 0.863489856 0.65715584
480034000.0 0.706680384 0.833551936
495033500.0 0.516149568 0.965881728
510033000.0 0.302771968 1.052454828
525032500.0 0.081197544 1.09000528
540032000.0 -0.144033904 1.07717276
555031500.0 -0.360151136 1.024245024
570031000.0 -0.554524224 0.92556352
585030500.0 -0.730540224 0.792123776
600030000.0 -0.872992768 0.64298464
615029500.0 -0.988109888 0.443164256
630029000.0 -1.052847384 0.224251888
645028500.0 -1.069763304 -0.012718512
660028000.0 -1.031641364 -0.248311408
675027500.0 -0.944437312 -0.47514368
690027000.0 -0.802804736 -0.680945408
705026500.0 -0.617768832 -0.849922624
720026000.0 -0.393421824 -0.97248448
735025500.0 -0.138135232 -1.042025448
750025000.0 0.130550968 -1.04749012
765024500.0 0.406302816 -0.992682688
780024000.0 0.62572768 -0.872590656
795023500.0 0.863195136 -0.676448384
810023000.0 1.018623828 -0.432789344
825022500.0 1.094054576 -0.164688448
840022000.0 1.106211304 0.108134944
855021500.0 1.045251368 0.365957536
870021000.0 0.930763072 0.585645696
885020500.0 0.776959744 0.75955488
900020000.0 0.6208192 0.925487168
915019500.0 0.428854368 1.03109014
930019000.0 0.226008624 1.086633208
945018500.0 0.018578092 1.107266784
960018000.0 -0.168556384 1.097137688
975017500.0 -0.362778112 1.043462396
990017000.0 -0.543374336 0.962194304
1005016500.0 -0.68231328 0.856686656
1020016000.0 -0.821326208 0.72418656
1035015500.0 -0.940669248 0.57286208
1050015000.0 -1.032598496 0.358973536
1065014500.0 -1.111495136 0.186139056
1080014000.0 -1.123664976 -0.04021596
1095013500.0 -1.116878392 -0.263606432
1110013000.0 -1.058828472 -0.482462592
1125012500.0 -0.960455168 -0.714410304
1140012000.0 -0.7935872 -0.911591296
1155011500.0 -0.600778304 -1.05618
1170011000.0 -0.322918848 -1.272717824
1185010500.0 0.032102492 -1.336465952
1200010000.0 0.41987728 -1.335438976
1215009500.0 0.821168064 -1.200095056
1230009000.0 1.252992384 -0.86110784
1245008500.0 1.456210496 -0.391836576
1260008000.0 1.432257408 0.117176536
1275007500.0 1.274050816 0.476164032
1290007000.0 1.016324998 0.738131136
1305006500.0 0.789418688 0.84747616
1320006000.0 0.584770496 0.942589568
1335005500.0 0.438670144 0.965229184
1350005000.0 0.285025376 1.007039547
1365004500.0 0.127123344 1.014606
1380004000.0 0.056463356 1.074986696
1395003500.0 -0.064932608 1.125016216
1410003000.0 -0.198152192 1.211561568
1425002500.0 -0.396908736 1.317798016
1440002000.0 -0.750997056 1.45599328
1455001500.0 -1.372428896 1.289567936
1470001000.0 -1.87145184 0.637902656
1485000500.0 -1.754067392 -0.0964096
1500000000.0 -1.399787072 -0.409205984
