! Created with skrf 1.8.0 (http://scikit-rf.org).
# Hz S RI R 50.0 
!freq ReS11 ImS11
50000.0 0.6662512 -0.010838842
15049500.0 0.6643952 -0.04157644
30049000.0 0.662030592 -0.06659828
45048500.0 0.658139328 -0.091145576
60048000.0 0.653826624 -0.115686776
75047500.0 0.648292992 -0.138802192
90047000.0 0.641516544 -0.160782896
105046500.0 0.634193344 -0.1837124
120046000.0 0.626276864 -0.206112928
135045500.0 0.61707776 -0.227585904
150045000.0 0.607757632 -0.248928544
165044500.0 0.59740864 -0.269441856
180044000.0 0.585737856 -0.289964448
195043500.0 0.573679488 -0.31014096
210043000.0 0.560645504 -0.329760448
225042500.0 0.547019648 -0.349437952
240042000.0 0.532406336 -0.367782848
255041500.0 0.516247744 -0.386373472
270041000.0 0.50036864 -0.405214112
285040500.0 0.482959456 -0.421095168
300040000.0 0.470577088 -0.429332672
315039500.0 0.453773248 -0.443118304
330039000.0 0.4366248 -0.456315264
345038500.0 0.4180104 -0.468308608
360038000.0 0.402432064 -0.481308
375037500.0 0.386086496 -0.491732768
390037000.0 0.367591872 -0.50736576
405036500.0 0.349996544 -0.512561088
420036000.0 0.334930368 -0.519869568
435035500.0 0.316758752 -0.52819968
450035000.0 0.3003368 -0.537631936
465034500.0 0.280590432 -0.540499328
480034000.0 0.26248336 -0.544718784
495033500.0 0.24407856 -0.550465536
510033000.0 0.226231504 -0.555375808
525032500.0 0.208587744 -0.557994624
540032000.0 0.192291744 -0.561606208
555031500.0 0.175230336 -0.56260448
570031000.0 0.157116064 -0.56472608
585030500.0 0.137542016 -0.564765376
600030000.0 0.123721192 -0.573148864
615029500.0 0.108135216 -0.573734656
630029000.0 0.092384096 -0.573444096
645028500.0 0.075823144 -0.573426368
660028000.0 0.059987776 -0.5720256
675027500.0 0.045033376 -0.573643008
690027000.0 0.030085378 -0.569838784
705026500.0 0.015665064 -0.569001664
720026000.0 0.001515727 -0.566581696
735025500.0 -0.01090826 -0.563662656
750025000.0 -0.023634876 -0.562943616
765024500.0 -0.03545732 -0.5608288
780024000.0 -0.060611704 -0.558524352
795023500.0 -0.060790224 -0.555770048
810023000.0 -0.074453936 -0.55480352
825022500.0 -0.08405724 -0.550373312
840022000.0 -0.093134112 -0.548228608
855021500.0 -0.103548328 -0.547953216
870021000.0 -0.118117712 -0.545963904
885020500.0 -0.128493728 -0.541210688
900020000.0 -0.127474296 -0.544140032
915019500.0 -0.134082016 -0.54508672
930019000.0 -0.146099216 -0.544411072
945018500.0 -0.159215664 -0.5471984
960018000.0 -0.167473312 -0.545858112
975017500.0 -0.175642496 -0.555510016
990017000.0 -0.189013072 -0.554148288
1005016500.0 -0.201517616 -0.559061376
1020016000.0 -0.215419472 -0.567408128
1035015500.0 -0.226725168 -0.563737664
1050015000.0 -0.237185456 -0.581935872
1065014500.0 -0.253131088 -0.574301824
1080014000.0 -0.271650112 -0.576563392
1095013500.0 -0.288411872 -0.579037248
1110013000.0 -0.304193408 -0.584178688
1125012500.0 -0.3263784 -0.575859392
1140012000.0 -0.350895072 -0.580147008
1155011500.0 -0.36341472 -0.603615872
1170011000.0 -0.394895392 -0.58094688
1185010500.0 -0.418295424 -0.579670656
1200010000.0 -0.444536928 -0.579536064
1215009500.0 -0.461660384 -0.579744704
1230009000.0 -0.506727392 -0.574995328
1245008500.0 -0.533205152 -0.561404736
1260008000.0 -0.555622144 -0.560512832
1275007500.0 -0.590371008 -0.553118656
1290007000.0 -0.62290752 -0.544033536
1305006500.0 -0.669002368 -0.526147072
1320006000.0 -0.695026688 -0.498736992
1335005500.0 -0.727474112 -0.50409936
1350005000.0 -0.756810304 -0.448648576
1365004500.0 -0.736090304 -0.42087184
1380004000.0 -0.818924544 -0.3871176
1395003500.0 -0.8507136 -0.356855168
1410003000.0 -0.85723392 -0.297695008
1425002500.0 -0.888681024 -0.272863264
1440002000.0 -0.855913216 -0.235348272
1455001500.0 -0.888251392 -0.185365632
1470001000.0 -0.922613888 -0.124701952
1485000500.0 -0.905745792 -0.092645968
1500000000.0 -0.889519424 -0.058359368
