! Created with skrf 1.8.0 (http://scikit-rf.org).
# Hz S RI R 50.0 
!freq ReS11 ImS11
50000.0 0.66595296 -0.010613322
15049500.0 0.664595072 -0.04128384
30049000.0 0.661978816 -0.066622972
45048500.0 0.658314496 -0.091136048
60048000.0 0.653871104 -0.115533552
75047500.0 0.648027968 -0.138617248
90047000.0 0.641478912 -0.160674256
105046500.0 0.634227008 -0.183619872
120046000.0 0.62617312 -0.20581344
135045500.0 0.617115456 -0.227585488
150045000.0 0.607806976 -0.248857968
165044500.0 0.5974912 -0.269320288
180044000.0 0.586189248 -0.289963136
195043500.0 0.573715712 -0.310158176
210043000.0 0.560498368 -0.329872288
225042500.0 0.546979136 -0.3491984
240042000.0 0.53241824 -0.367694592
255041500.0 0.516599008 -0.386397824
270041000.0 0.500230016 -0.405070816
285040500.0 0.48349696 -0.4207616
300040000.0 0.469934464 -0.42842
315039500.0 0.45278496 -0.442531936
330039000.0 0.43606736 -0.45525696
345038500.0 0.419780896 -0.468964064
360038000.0 0.402288288 -0.4801088
375037500.0 0.384854656 -0.490907104
390037000.0 0.372933952 -0.501998592
405036500.0 0.349809088 -0.512336256
420036000.0 0.33455136 -0.519054528
435035500.0 0.31555904 -0.527743808
450035000.0 0.30155296 -0.537295744
465034500.0 0.282104704 -0.539547712
480034000.0 0.262371952 -0.544739968
495033500.0 0.244489792 -0.5487088
510033000.0 0.225393152 -0.55472352
525032500.0 0.208919728 -0.55874976
540032000.0 0.191804432 -0.560960064
555031500.0 0.174509296 -0.562985536
570031000.0 0.155670464 -0.564773312
585030500.0 0.142939632 -0.565530752
600030000.0 0.125307632 -0.572462208
615029500.0 0.107385608 -0.573094848
630029000.0 0.09317864 -0.57324384
645028500.0 0.07403012 -0.574278272
660028000.0 0.062059452 -0.573623744
675027500.0 0.045742404 -0.574265024
690027000.0 0.032097216 -0.570207296
705026500.0 0.016560548 -0.568951936
720026000.0 0.002243358 -0.565051584
735025500.0 -0.011817372 -0.563918592
750025000.0 -0.025235384 -0.56332768
765024500.0 -0.036215836 -0.559451072
780024000.0 -0.063135908 -0.557510528
795023500.0 -0.060975608 -0.556179328
810023000.0 -0.070892968 -0.555183808
825022500.0 -0.084208888 -0.551778112
840022000.0 -0.092130336 -0.547078336
855021500.0 -0.107871984 -0.545422016
870021000.0 -0.117169184 -0.546048128
885020500.0 -0.126083416 -0.542565376
900020000.0 -0.12739952 -0.541522176
915019500.0 -0.135948048 -0.540660544
930019000.0 -0.145656496 -0.545244352
945018500.0 -0.154461504 -0.544333824
960018000.0 -0.165096704 -0.551879616
975017500.0 -0.173989744 -0.557623616
990017000.0 -0.187727136 -0.55675296
1005016500.0 -0.198002528 -0.560287424
1020016000.0 -0.209156128 -0.55947488
1035015500.0 -0.224058656 -0.566692224
1050015000.0 -0.227559648 -0.564867584
1065014500.0 -0.25235432 -0.57656448
1080014000.0 -0.268256128 -0.579334976
1095013500.0 -0.28541088 -0.575700672
1110013000.0 -0.308914048 -0.585258496
1125012500.0 -0.322246848 -0.578809152
1140012000.0 -0.3497784 -0.582587072
1155011500.0 -0.359381856 -0.58240864
1170011000.0 -0.41084048 -0.573439936
1185010500.0 -0.41833712 -0.58566944
1200010000.0 -0.445340768 -0.573979968
1215009500.0 -0.47652528 -0.580522944
1230009000.0 -0.500846976 -0.572638912
1245008500.0 -0.53388368 -0.563478144
1260008000.0 -0.5645552 -0.538633792
1275007500.0 -0.610295552 -0.560007872
1290007000.0 -0.634050816 -0.542365056
1305006500.0 -0.668511616 -0.534464
1320006000.0 -0.70096992 -0.49271776
1335005500.0 -0.741372096 -0.471183136
1350005000.0 -0.773943936 -0.457567968
1365004500.0 -0.79344032 -0.455491424
1380004000.0 -0.83440736 -0.387745728
1395003500.0 -0.863217472 -0.36142208
1410003000.0 -0.875126912 -0.309858304
1425002500.0 -0.870631936 -0.276148256
1440002000.0 -0.898130752 -0.222527872
1455001500.0 -0.89026688 -0.180051856
1470001000.0 -0.885881984 -0.145917344
1485000500.0 -0.892117888 -0.1147906
1500000000.0 -0.925881216 -0.072250912
