! Created with skrf 1.8.0 (http://scikit-rf.org).
# Hz S RI R 50.0 
!freq ReS11 ImS11
50000.0 0.66667712 -0.01097764
15049500.0 0.649219968 -0.155872
30049000.0 0.60699776 -0.291782208
45048500.0 0.53914464 -0.419722304
60048000.0 0.446359808 -0.5351776
75047500.0 0.328234176 -0.633207424
90047000.0 0.178662224 -0.709418816
105046500.0 0.010508758 -0.755012928
120046000.0 -0.172700288 -0.75955616
135045500.0 -0.36316736 -0.714458368
150045000.0 -0.545640384 -0.613271936
165044500.0 -0.698960768 -0.456724352
180044000.0 -0.802737472 -0.253124512
195043500.0 -0.838403968 -0.021498946
210043000.0 -0.798940032 0.209258496
225042500.0 -0.68988384 0.411522432
240042000.0 -0.530072576 0.563063552
255041500.0 -0.341927488 0.65420352
270041000.0 -0.149917632 0.6879312
285040500.0 0.029382508 0.669322752
300040000.0 0.174335008 0.61377376
315039500.0 0.305539616 0.53159584
330039000.0 0.40646176 0.430611264
345038500.0 0.479890816 0.317710144
360038000.0 0.528073792 0.200757328
375037500.0 0.55220416 0.08281076
390037000.0 0.55684192 -0.032703076
405036500.0 0.538425856 -0.144415408
420036000.0 0.5028336 -0.250197328
435035500.0 0.448484192 -0.350129888
450035000.0 0.371065248 -0.44405504
465034500.0 0.28135392 -0.522776128
480034000.0 0.172955408 -0.584230272
495033500.0 0.049151928 -0.627566656
510033000.0 -0.084898584 -0.643643776
525032500.0 -0.228812704 -0.631521856
540032000.0 -0.370975264 -0.58325696
555031500.0 -0.50771968 -0.493696832
570031000.0 -0.621448192 -0.365044992
585030500.0 -0.69658464 -0.201778368
600030000.0 -0.719325248 -0.02707885
615029500.0 -0.680100096 0.159867744
630029000.0 -0.584651648 0.31977632
645028500.0 -0.44744544 0.435892864
660028000.0 -0.291075744 0.501028352
675027500.0 -0.135695504 0.516736928
690027000.0 0.003351177 0.490397024
705026500.0 0.11975004 0.434970688
720026000.0 0.210301216 0.360590112
735025500.0 0.27852736 0.27611936
750025000.0 0.323031936 0.187241984
765024500.0 0.348744768 0.09736696
780024000.0 0.357454912 0.00871562
795023500.0 0.351206944 -0.0732088
810023000.0 0.3322816 -0.154131536
825022500.0 0.301777376 -0.226627184
840022000.0 0.2612144 -0.295963392
855021500.0 0.20939472 -0.35617792
870021000.0 0.145797024 -0.415088864
885020500.0 0.077519456 -0.460359456
900020000.0 -0.003226073 -0.489394592
915019500.0 -0.093721232 -0.50636208
930019000.0 -0.18779696 -0.51158224
945018500.0 -0.293871936 -0.490207008
960018000.0 -0.397354656 -0.448951072
975017500.0 -0.498590752 -0.36981888
990017000.0 -0.571400512 -0.263634864
1005016500.0 -0.618888704 -0.12981252
1020016000.0 -0.624958272 0.019270246
1035015500.0 -0.5814288 0.164581824
1050015000.0 -0.507526112 0.281487488
1065014500.0 -0.37792208 0.3685504
1080014000.0 -0.25246256 0.41119024
1095013500.0 -0.13000892 0.417526336
1110013000.0 -0.027256938 0.393571232
1125012500.0 0.058396376 0.344872224
1140012000.0 0.131629304 0.29119136
1155011500.0 0.178785664 0.2341592
1170011000.0 0.221356448 0.155901808
1185010500.0 0.241114976 0.080423064
1200010000.0 0.249466592 0.00588109
1215009500.0 0.245027296 -0.064766132
1230009000.0 0.241881696 -0.136971632
1245008500.0 0.22159072 -0.208736848
1260008000.0 0.174164528 -0.273801984
1275007500.0 0.124921032 -0.352266016
1290007000.0 0.055891796 -0.411669024
1305006500.0 -0.03979906 -0.472243168
1320006000.0 -0.130054208 -0.526255968
1335005500.0 -0.265283728 -0.546916544
1350005000.0 -0.416827808 -0.543035264
1365004500.0 -0.611042688 -0.463674656
1380004000.0 -0.758279232 -0.390953696
1395003500.0 -0.88957856 -0.2204056
1410003000.0 -0.969985472 0.003867818
1425002500.0 -0.954584 0.200929088
1440002000.0 -0.871628096 0.376509216
1455001500.0 -0.707656768 0.53052784
1470001000.0 -0.586738432 0.60157984
1485000500.0 -0.450325216 0.650982144
1500000000.0 -0.315757344 0.613533184
