! Created with skrf 1.8.0 (http://scikit-rf.org).
# Hz S RI R 50.0 
!freq ReS11 ImS11
50000.0 0.666431872 -0.011040896
15049500.0 0.64911392 -0.15586816
30049000.0 0.606965952 -0.291703936
45048500.0 0.53866976 -0.41976016
60048000.0 0.445940704 -0.535535936
75047500.0 0.327553248 -0.633252032
90047000.0 0.177775424 -0.709641856
105046500.0 0.0097192 -0.7551616
120046000.0 -0.173955584 -0.759022784
135045500.0 -0.36478848 -0.71400864
150045000.0 -0.54741248 -0.612610944
165044500.0 -0.700075008 -0.454559616
180044000.0 -0.803807552 -0.250647312
195043500.0 -0.838765824 -0.018525972
210043000.0 -0.79811584 0.212685456
225042500.0 -0.688139072 0.414232736
240042000.0 -0.527166592 0.565095872
255041500.0 -0.339620736 0.6562608
270041000.0 -0.146430608 0.68825984
285040500.0 0.03242994 0.668807104
300040000.0 0.177126096 0.612335808
315039500.0 0.307155008 0.530494144
330039000.0 0.406478528 0.428001728
345038500.0 0.48021952 0.316278048
360038000.0 0.527547904 0.198863376
375037500.0 0.55202528 0.081290176
390037000.0 0.554253696 -0.034521924
405036500.0 0.537504192 -0.145298912
420036000.0 0.501834976 -0.250991552
435035500.0 0.446038688 -0.351122848
450035000.0 0.3692296 -0.444856416
465034500.0 0.279997248 -0.522951136
480034000.0 0.171773136 -0.584031936
495033500.0 0.04904244 -0.626770432
510033000.0 -0.087700496 -0.644072384
525032500.0 -0.228680928 -0.631095872
540032000.0 -0.373961344 -0.580821504
555031500.0 -0.50886064 -0.492427936
570031000.0 -0.621180544 -0.361774848
585030500.0 -0.695503232 -0.19753296
600030000.0 -0.71729184 -0.021057964
615029500.0 -0.675946944 0.164054768
630029000.0 -0.577720064 0.323864512
645028500.0 -0.438509408 0.438796448
660028000.0 -0.2832376 0.502224096
675027500.0 -0.128393664 0.514529408
690027000.0 0.010609442 0.485640864
705026500.0 0.125334176 0.429143168
720026000.0 0.216783552 0.35534672
735025500.0 0.280473664 0.271015456
750025000.0 0.324064384 0.181905872
765024500.0 0.347559072 0.092398712
780024000.0 0.356947744 0.005953442
795023500.0 0.348029792 -0.077861608
810023000.0 0.329810272 -0.157496592
825022500.0 0.2982896 -0.231355296
840022000.0 0.25435096 -0.29655008
855021500.0 0.206228272 -0.358798624
870021000.0 0.143730448 -0.41358336
885020500.0 0.069543336 -0.458327328
900020000.0 -0.006991875 -0.489058496
915019500.0 -0.093239544 -0.50734304
930019000.0 -0.192822496 -0.505029856
945018500.0 -0.292786848 -0.491109088
960018000.0 -0.402136192 -0.440450144
975017500.0 -0.494883008 -0.363832896
990017000.0 -0.572249472 -0.257476624
1005016500.0 -0.616462784 -0.12562592
1020016000.0 -0.617719552 0.022938582
1035015500.0 -0.572995648 0.167430528
1050015000.0 -0.481692992 0.291357312
1065014500.0 -0.370533056 0.366730368
1080014000.0 -0.245915248 0.4125336
1095013500.0 -0.123044608 0.414316768
1110013000.0 -0.017694226 0.391564128
1125012500.0 0.059390788 0.34472816
1140012000.0 0.136804048 0.287244832
1155011500.0 0.178583296 0.208362512
1170011000.0 0.225290672 0.146026976
1185010500.0 0.244551904 0.075517784
1200010000.0 0.25296232 0.004144089
1215009500.0 0.246749408 -0.066700884
1230009000.0 0.231937296 -0.140144384
1245008500.0 0.210177808 -0.217062704
1260008000.0 0.169902992 -0.283204064
1275007500.0 0.118561008 -0.359156928
1290007000.0 0.044937204 -0.419572672
1305006500.0 -0.034239896 -0.479825568
1320006000.0 -0.157242864 -0.526457312
1335005500.0 -0.291884064 -0.551677376
1350005000.0 -0.427341504 -0.543818496
1365004500.0 -0.605749696 -0.450105984
1380004000.0 -0.798542464 -0.388753472
1395003500.0 -0.926365952 -0.231231488
1410003000.0 -0.993121664 -0.033257958
1425002500.0 -0.952077696 0.219320656
1440002000.0 -0.85271552 0.406714688
1455001500.0 -0.734261376 0.515996864
1470001000.0 -0.61106048 0.599386432
1485000500.0 -0.413453472 0.628124992
1500000000.0 -0.331913376 0.617078848
