! Created with skrf 1.8.0 (http://scikit-rf.org).
# Hz S RI R 50.0 
!freq ReS11 ImS11
50000.0 0.997471872 -0.001330441
15049500.0 0.978255616 0.219528784
30049000.0 0.907414592 0.427159648
45048500.0 0.790121088 0.614203584
60048000.0 0.642988288 0.771856576
75047500.0 0.4634288 0.894948288
90047000.0 0.2480164 0.97603424
105046500.0 0.030843348 1.009191514
120046000.0 -0.189364368 0.993794112
135045500.0 -0.401762976 0.927588352
150045000.0 -0.599105664 0.820209792
165044500.0 -0.766501696 0.668835648
180044000.0 -0.892730944 0.481760288
195043500.0 -0.982051648 0.27412896
210043000.0 -1.021240712 0.04845896
225042500.0 -1.003122449 -0.183429696
240042000.0 -0.938408512 -0.408447872
255041500.0 -0.82110144 -0.61091456
270041000.0 -0.656101888 -0.781368768
285040500.0 -0.459995264 -0.914382528
300040000.0 -0.236869888 -0.970455296
315039500.0 -0.01007231 -1.01041639
330039000.0 0.225352752 -0.990268032
345038500.0 0.441965216 -0.915314368
360038000.0 0.636739328 -0.793551296
375037500.0 0.798985472 -0.635377216
390037000.0 0.930643584 -0.438926816
405036500.0 1.004446149 -0.237839408
420036000.0 1.04743254 -0.013162212
435035500.0 1.035171868 0.226060992
450035000.0 0.970199232 0.455929216
465034500.0 0.846916032 0.664566912
480034000.0 0.682857088 0.83251744
495033500.0 0.491431424 0.958691136
510033000.0 0.278410048 1.039796352
525032500.0 0.056578704 1.071984408
540032000.0 -0.166022544 1.053423168
555031500.0 -0.376216512 0.994624256
570031000.0 -0.569466048 0.892041728
585030500.0 -0.73506144 0.747057664
600030000.0 -0.881109568 0.595394496
615029500.0 -0.98555424 0.39427872
630029000.0 -1.035175084 0.173908752
645028500.0 -1.047465444 -0.05721492
660028000.0 -1.01176417 -0.293986272
675027500.0 -0.90002848 -0.51268144
690027000.0 -0.76394112 -0.710109248
705026500.0 -0.561351616 -0.872828992
720026000.0 -0.32667856 -0.974041088
735025500.0 -0.078474376 -1.028366566
750025000.0 0.177758784 -1.025951028
765024500.0 0.446051968 -0.95433952
780024000.0 0.708707264 -0.855740032
795023500.0 0.87034368 -0.619090496
810023000.0 1.008021713 -0.379864128
825022500.0 1.08802724 -0.113402232
840022000.0 1.084267136 0.14580152
855021500.0 1.004352212 0.392990592
870021000.0 0.895712128 0.608677056
885020500.0 0.749263168 0.768218816
900020000.0 0.546858368 0.906351232
915019500.0 0.558688576 0.89134816
930019000.0 0.576554688 0.88299808
945018500.0 0.596098944 0.872872576
960018000.0 0.61341632 0.857653696
975017500.0 0.6347808 0.855703168
990017000.0 0.657371456 0.849484928
1005016500.0 0.677937408 0.836227584
1020016000.0 0.69554272 0.841915264
1035015500.0 0.731993728 0.8240368
1050015000.0 0.751404608 0.842551168
1065014500.0 0.775438016 0.787684032
1080014000.0 0.802170304 0.785329664
1095013500.0 0.838403008 0.760875456
1110013000.0 0.869908352 0.743345664
1125012500.0 0.891091136 0.711463488
1140012000.0 0.914207424 0.696567808
1155011500.0 1.001418948 0.663795712
1170011000.0 0.977275968 0.634596864
1185010500.0 1.012295842 0.616166144
1200010000.0 1.04507816 0.609381248
1215009500.0 1.04984832 0.593699136
1230009000.0 1.06189716 0.535341248
1245008500.0 1.099439384 0.498377984
1260008000.0 1.143787616 0.405665472
1275007500.0 1.189855696 0.3908008
1290007000.0 1.185693024 0.382423424
1305006500.0 1.255223872 0.330607584
1320006000.0 1.278668416 0.262874304
1335005500.0 1.292131776 0.206292048
1350005000.0 1.301589504 0.1503368
1365004500.0 1.210635536 0.11854704
1380004000.0 1.296547648 0.008883158
1395003500.0 1.2984736 -0.026118124
1410003000.0 1.31379568 -0.034642372
1425002500.0 1.333922624 -0.154227856
1440002000.0 1.288137184 -0.177126624
1455001500.0 1.268347616 -0.200207744
1470001000.0 1.268735296 -0.279927776
1485000500.0 1.226374864 -0.319906656
1500000000.0 1.231551648 -0.382065664
