! Created with skrf 1.8.0 (http://scikit-rf.org).
# Hz S RI R 50.0 
!freq ReS11 ImS11
50000.0 0.666794944 -0.010465588
15049500.0 0.664493888 -0.04144012
30049000.0 0.661920512 -0.066438264
45048500.0 0.658286208 -0.090978944
60048000.0 0.653689792 -0.115242016
75047500.0 0.648107136 -0.138903168
90047000.0 0.64144768 -0.160512256
105046500.0 0.634293824 -0.18358072
120046000.0 0.62619488 -0.205541344
135045500.0 0.617927488 -0.227223232
150045000.0 0.607711616 -0.248513216
165044500.0 0.597533888 -0.269152864
180044000.0 0.585934336 -0.289521536
195043500.0 0.573818624 -0.309770144
210043000.0 0.56085536 -0.329497888
225042500.0 0.547257472 -0.349150656
240042000.0 0.532496736 -0.367438592
255041500.0 0.51677936 -0.386396992
270041000.0 0.500408224 -0.40429552
285040500.0 0.4840248 -0.420641408
300040000.0 0.47002 -0.429215168
315039500.0 0.45343552 -0.443104192
330039000.0 0.437427936 -0.456486272
345038500.0 0.4199136 -0.468804576
360038000.0 0.40250896 -0.480412064
375037500.0 0.385190752 -0.490550208
390037000.0 0.366908544 -0.4990952
405036500.0 0.35161168 -0.511950912
420036000.0 0.33387712 -0.520487552
435035500.0 0.317542624 -0.528476128
450035000.0 0.301837472 -0.531335488
465034500.0 0.281637888 -0.539495104
480034000.0 0.263101456 -0.545798016
495033500.0 0.243816368 -0.5500096
510033000.0 0.226782304 -0.555672384
525032500.0 0.208834416 -0.558797248
540032000.0 0.19099984 -0.56077152
555031500.0 0.174148384 -0.561733952
570031000.0 0.158165472 -0.564617984
585030500.0 0.141769168 -0.568390976
600030000.0 0.12580508 -0.572835968
615029500.0 0.10763 -0.573909184
630029000.0 0.093302512 -0.573119424
645028500.0 0.076461624 -0.574417408
660028000.0 0.062239064 -0.573171328
675027500.0 0.046944788 -0.571197248
690027000.0 0.030782216 -0.571607744
705026500.0 0.015576374 -0.569906112
720026000.0 0.002852081 -0.567020096
735025500.0 -0.010678266 -0.56578624
750025000.0 -0.02434109 -0.563698752
765024500.0 -0.03576586 -0.561966848
780024000.0 -0.035833944 -0.556817856
795023500.0 -0.060094748 -0.556423168
810023000.0 -0.070132472 -0.555428992
825022500.0 -0.083192352 -0.551507968
840022000.0 -0.092353832 -0.550894528
855021500.0 -0.104441368 -0.546345856
870021000.0 -0.115000136 -0.545441408
885020500.0 -0.127113032 -0.541096768
900020000.0 -0.126171496 -0.545935744
915019500.0 -0.134064376 -0.544571136
930019000.0 -0.145018288 -0.5450832
945018500.0 -0.157290528 -0.54964832
960018000.0 -0.164522448 -0.551676992
975017500.0 -0.16893792 -0.551086656
990017000.0 -0.187578816 -0.556102016
1005016500.0 -0.19619288 -0.555009152
1020016000.0 -0.215290192 -0.556284608
1035015500.0 -0.223919664 -0.566849856
1050015000.0 -0.24597816 -0.55490752
1065014500.0 -0.255663696 -0.57605728
1080014000.0 -0.271903776 -0.577681024
1095013500.0 -0.28624256 -0.581736256
1110013000.0 -0.30887024 -0.583713152
1125012500.0 -0.317024096 -0.573754816
1140012000.0 -0.350365504 -0.584067712
1155011500.0 -0.373279456 -0.56007712
1170011000.0 -0.386417568 -0.579080896
1185010500.0 -0.41934112 -0.579324096
1200010000.0 -0.43774032 -0.579729984
1215009500.0 -0.469113152 -0.57890176
1230009000.0 -0.496632032 -0.572976192
1245008500.0 -0.515238112 -0.562676096
1260008000.0 -0.54841984 -0.55969376
1275007500.0 -0.601849856 -0.557515968
1290007000.0 -0.6290992 -0.5257576
1305006500.0 -0.659964416 -0.528979584
1320006000.0 -0.686755072 -0.486589952
1335005500.0 -0.72951744 -0.498283776
1350005000.0 -0.754782592 -0.455509792
1365004500.0 -0.77773152 -0.43485792
1380004000.0 -0.80101024 -0.397805696
1395003500.0 -0.857837824 -0.344648704
1410003000.0 -0.860488384 -0.316001632
1425002500.0 -0.887546176 -0.28704
1440002000.0 -0.85928128 -0.231174192
1455001500.0 -0.90380864 -0.20022856
1470001000.0 -0.900248832 -0.15101928
1485000500.0 -0.874904576 -0.124362992
1500000000.0 -0.904377664 -0.081335968
