! Created with skrf 1.8.0 (http://scikit-rf.org).
# Hz S RI R 50.0 
!freq ReS11 ImS11
300000000.0 0.939624448 -0.011499558
303000000.0 1.005369544 0.00027085
306000000.0 1.007452131 0.001480986
309000000.0 1.008987904 0.002211333
312000000.0 0.994912832 0.009318462
315000000.0 1.001980305 0.002666732
318000000.0 1.005407453 0.001903082
321000000.0 1.009473206 0.002179432
324000000.0 1.00884533 0.001694196
327000000.0 1.004993081 0.002534457
330000000.0 1.001815319 0.003206886
333000000.0 1.007297278 0.002436361
336000000.0 1.00897801 0.002113802
339000000.0 1.009627224 0.003649095
342000000.0 1.006798625 0.003728745
345000000.0 1.002403259 0.003570989
348000000.0 1.007543683 0.00391548
351000000.0 1.012220144 0.025405846
354000000.0 1.00952685 0.004713376
357000000.0 1.007022023 0.005392912
360000000.0 1.002840042 0.006443726
363000000.0 1.00785029 0.005453617
366000000.0 1.009664894 0.006141585
369000000.0 1.010241628 0.00677482
372000000.0 1.006303668 0.007248905
375000000.0 1.002952457 0.008351207
378000000.0 1.008577704 0.007477318
381000000.0 1.01144588 0.008309873
384000000.0 1.010579468 0.008556634
387000000.0 1.00941205 0.010499614
390000000.0 0.985035392 0.024849574
393000000.0 1.009554506 0.009437962
396000000.0 1.012048244 0.00939513
399000000.0 1.01133001 0.012133632
402000000.0 1.007699728 0.01327678
405000000.0 1.002302289 0.01241927
408000000.0 1.00911224 0.011261026
411000000.0 1.011615276 0.0132581
414000000.0 1.010476112 0.015708458
417000000.0 1.012770176 0.014370556
420000000.0 1.001460195 0.016026964
423000000.0 1.009214402 0.01561132
426000000.0 1.011722804 0.016678318
429000000.0 1.03013575 0.027344244
432000000.0 1.009968638 0.019406434
435000000.0 1.004968047 0.01558375
438000000.0 1.008170247 0.016913012
441000000.0 1.010674238 0.015429514
444000000.0 1.01167798 0.017958864
447000000.0 1.010258556 0.019173924
450000000.0 1.002152324 0.018912146
453000000.0 1.007649899 0.019142598
456000000.0 1.008793116 0.016756332
459000000.0 1.011687756 0.012023106
462000000.0 1.008764864 0.022574914
465000000.0 1.000601172 0.020174954
468000000.0 1.017220854 0.034256652
471000000.0 1.011647464 0.021692838
474000000.0 1.010892034 0.022262956
477000000.0 1.008311272 0.021013972
480000000.0 1.002033353 0.025570918
483000000.0 1.009000898 0.024668808
486000000.0 1.011487366 0.022213928
489000000.0 1.010752678 0.024636372
492000000.0 1.009451032 0.02315247
495000000.0 1.003681898 0.027472756
498000000.0 1.009093882 0.023835714
501000000.0 1.010216832 0.02738443
504000000.0 1.009042026 0.025130022
507000000.0 1.002900362 0.028486346
510000000.0 1.002384782 0.025088362
513000000.0 1.006559968 0.027735682
516000000.0 1.008910298 0.025653814
519000000.0 1.008220792 0.026159028
522000000.0 1.005508662 0.027948782
525000000.0 1.002232552 0.027536896
528000000.0 1.007810951 0.02726324
531000000.0 1.009575368 0.028203492
534000000.0 1.00976944 0.028407072
537000000.0 1.006359697 0.027825444
540000000.0 1.001054525 0.029302064
543000000.0 1.006350875 0.028871352
546000000.0 1.009998798 0.028701038
549000000.0 1.009946466 0.028460396
552000000.0 1.005942226 0.02907368
555000000.0 1.001039386 0.029566476
558000000.0 1.0057863 0.027830558
561000000.0 1.008292794 0.029072732
564000000.0 1.009373188 0.029200386
567000000.0 1.005794406 0.028985356
570000000.0 1.000047445 0.028572732
573000000.0 1.005272389 0.028497288
576000000.0 1.008367419 0.02770999
579000000.0 1.006813646 0.02837048
582000000.0 1.005936265 0.028991314
585000000.0 1.00478065 0.026641586
588000000.0 0.99023712 0.02818264
591000000.0 0.975504576 0.039245548
594000000.0 0.983951296 0.033228696
597000000.0 0.9942048 0.028736736
600000000.0 0.998606208 0.028386136
