! Created with skrf 1.8.0 (http://scikit-rf.org).
# Hz S RI R 50.0 
!freq ReS11 ImS11
50000.0 0.999771712 0.001451904
15049500.0 0.977323008 0.219560624
30049000.0 0.907821568 0.42797824
45048500.0 0.794876288 0.616028352
60048000.0 0.64563424 0.773208256
75047500.0 0.46696128 0.896317312
90047000.0 0.253038528 0.98204576
105046500.0 0.033202704 1.014361858
120046000.0 -0.187751184 0.998965184
135045500.0 -0.40299872 0.9349712
150045000.0 -0.600594432 0.8252432
165044500.0 -0.769528128 0.673036032
180044000.0 -0.899767488 0.486641888
195043500.0 -0.987673728 0.274821728
210043000.0 -1.02580607 0.04641182
225042500.0 -1.010557414 -0.186977664
240042000.0 -0.940783168 -0.412332768
255041500.0 -0.821976256 -0.616691136
270041000.0 -0.65875776 -0.787601024
285040500.0 -0.461011424 -0.919195776
300040000.0 -0.241851824 -0.98926944
315039500.0 -0.006509045 -1.018288254
330039000.0 0.228450272 -0.995016256
345038500.0 0.445716288 -0.917062848
360038000.0 0.643496896 -0.79633856
375037500.0 0.807037248 -0.6394352
390037000.0 0.926944704 -0.455303872
405036500.0 1.014374376 -0.243936992
420036000.0 1.054843424 -0.019210138
435035500.0 1.047479628 0.216916432
450035000.0 0.976229376 0.448802976
465034500.0 0.867891904 0.657927488
480034000.0 0.70603296 0.833061248
495033500.0 0.51542592 0.964898944
510033000.0 0.302566336 1.054286124
525032500.0 0.080745888 1.091293216
540032000.0 -0.143116864 1.08128512
555031500.0 -0.356788512 1.025492668
570031000.0 -0.55498368 0.926318784
585030500.0 -0.730661632 0.790013696
600030000.0 -0.874922816 0.643519168
615029500.0 -0.983354304 0.442533216
630029000.0 -1.047644852 0.224265568
645028500.0 -1.065969944 -0.01128532
660028000.0 -1.035396696 -0.247793664
675027500.0 -0.944214464 -0.477503648
690027000.0 -0.802014784 -0.68108256
705026500.0 -0.61231776 -0.851920128
720026000.0 -0.39315536 -0.977052672
735025500.0 -0.137058336 -1.043777108
750025000.0 0.130414664 -1.05290866
765024500.0 0.404894208 -0.996086848
780024000.0 0.692020608 -0.852044032
795023500.0 0.86775328 -0.674229056
810023000.0 1.007122398 -0.432140416
825022500.0 1.1009078 -0.164088192
840022000.0 1.103474976 0.103657936
855021500.0 1.047226668 0.363157888
870021000.0 0.931007488 0.585435776
885020500.0 0.7812144 0.760123904
900020000.0 0.621968704 0.930518912
915019500.0 0.430009472 1.02552855
930019000.0 0.226822976 1.090820192
945018500.0 0.0199561 1.108733656
960018000.0 -0.169550704 1.088978056
975017500.0 -0.371106368 1.0358752
990017000.0 -0.526039488 0.966388928
1005016500.0 -0.686042752 0.857609344
1020016000.0 -0.822483584 0.715174272
1035015500.0 -0.95133088 0.576402432
1050015000.0 -1.025509954 0.3957664
1065014500.0 -1.108515856 0.177165456
1080014000.0 -1.137123104 -0.049344424
1095013500.0 -1.11646712 -0.256224272
1110013000.0 -1.061015488 -0.487466048
1125012500.0 -0.962824576 -0.711742528
1140012000.0 -0.79412736 -0.90616128
1155011500.0 -0.580461568 -1.055081368
1170011000.0 -0.326929376 -1.243712784
1185010500.0 0.02582807 -1.335483552
1200010000.0 0.418919264 -1.34214352
1215009500.0 0.865899968 -1.21005512
1230009000.0 1.2719928 -0.845843584
1245008500.0 1.443037024 -0.409364768
1260008000.0 1.441005952 0.065825684
1275007500.0 1.272368064 0.48225408
1290007000.0 1.017168998 0.72982432
1305006500.0 0.794663552 0.848083072
1320006000.0 0.574991488 0.931232128
1335005500.0 0.43999808 0.973768896
1350005000.0 0.286220448 1.002354145
1365004500.0 0.111014704 1.052893876
1380004000.0 0.065667332 1.066291212
1395003500.0 -0.046836056 1.1373496
1410003000.0 -0.186991888 1.23448944
1425002500.0 -0.406589632 1.336887968
1440002000.0 -0.773776704 1.409183392
1455001500.0 -1.35624384 1.3243456
1470001000.0 -1.922151104 0.63662016
1485000500.0 -1.748398208 -0.109382112
1500000000.0 -1.4106232 -0.403489536
