! Created with skrf 1.8.0 (http://scikit-rf.org).
# Hz S RI R 50.0 
!freq ReS11 ImS11
50000.0 0.66591808 -0.010671828
15049500.0 0.664424 -0.041471108
30049000.0 0.66166336 -0.066801436
45048500.0 0.658091968 -0.091222048
60048000.0 0.653426368 -0.11552528
75047500.0 0.647817792 -0.138970352
90047000.0 0.641155584 -0.160630816
105046500.0 0.634045184 -0.183796224
120046000.0 0.626030208 -0.205706912
135045500.0 0.616896832 -0.22757552
150045000.0 0.607475648 -0.248751616
165044500.0 0.5970048 -0.269271552
180044000.0 0.585715712 -0.289838528
195043500.0 0.573224512 -0.310126496
210043000.0 0.560287744 -0.32994832
225042500.0 0.5463664 -0.349308384
240042000.0 0.531984032 -0.368072448
255041500.0 0.516107968 -0.386922112
270041000.0 0.500060096 -0.404768032
285040500.0 0.483373664 -0.421095872
300040000.0 0.469651584 -0.429197024
315039500.0 0.452865504 -0.442572224
330039000.0 0.435440832 -0.4556016
345038500.0 0.419441024 -0.46907296
360038000.0 0.40249248 -0.481157024
375037500.0 0.385169312 -0.492230016
390037000.0 0.363149568 -0.500907072
405036500.0 0.350804384 -0.512477344
420036000.0 0.334428512 -0.521160544
435035500.0 0.317009664 -0.52781248
450035000.0 0.300944768 -0.53586656
465034500.0 0.280048288 -0.539211136
480034000.0 0.261661264 -0.544537024
495033500.0 0.2436204 -0.549846144
510033000.0 0.22488808 -0.555289472
525032500.0 0.207198832 -0.557375744
540032000.0 0.191308368 -0.56173536
555031500.0 0.172937104 -0.563448832
570031000.0 0.155956848 -0.565512064
585030500.0 0.142269392 -0.565825152
600030000.0 0.1240616 -0.57372384
615029500.0 0.107037664 -0.57397408
630029000.0 0.091758616 -0.572892416
645028500.0 0.07539604 -0.5747968
660028000.0 0.062047012 -0.573339392
675027500.0 0.045518668 -0.570317312
690027000.0 0.02987088 -0.568884288
705026500.0 0.015970244 -0.567640768
720026000.0 0.001612366 -0.567953664
735025500.0 -0.01128172 -0.56555936
750025000.0 -0.022729398 -0.56167136
765024500.0 -0.034918764 -0.561011456
780024000.0 -0.039366616 -0.567797952
795023500.0 -0.059343844 -0.554874944
810023000.0 -0.073357408 -0.550947456
825022500.0 -0.082925184 -0.549709824
840022000.0 -0.095982056 -0.549059712
855021500.0 -0.105200848 -0.547576768
870021000.0 -0.114948664 -0.54454016
885020500.0 -0.129657176 -0.546404416
900020000.0 -0.122563928 -0.543133248
915019500.0 -0.13178144 -0.54596224
930019000.0 -0.141814784 -0.546434304
945018500.0 -0.153631392 -0.54737184
960018000.0 -0.163634704 -0.552063424
975017500.0 -0.171718944 -0.553476032
990017000.0 -0.186770672 -0.55309248
1005016500.0 -0.199277232 -0.560132736
1020016000.0 -0.207913696 -0.564602816
1035015500.0 -0.223724944 -0.567540672
1050015000.0 -0.234871744 -0.578035328
1065014500.0 -0.250783952 -0.571596288
1080014000.0 -0.272825376 -0.5758256
1095013500.0 -0.288174144 -0.585776896
1110013000.0 -0.304890592 -0.59065824
1125012500.0 -0.319931904 -0.57550976
1140012000.0 -0.345925664 -0.591918848
1155011500.0 -0.362485216 -0.573996032
1170011000.0 -0.414160768 -0.57623648
1185010500.0 -0.421316416 -0.58567808
1200010000.0 -0.44531456 -0.594570304
1215009500.0 -0.47401552 -0.582535424
1230009000.0 -0.511874912 -0.583825856
1245008500.0 -0.539108352 -0.575785984
1260008000.0 -0.560391616 -0.57672896
1275007500.0 -0.600341312 -0.555404096
1290007000.0 -0.6405232 -0.540949888
1305006500.0 -0.67517504 -0.528995264
1320006000.0 -0.690028288 -0.511960032
1335005500.0 -0.75152032 -0.4833536
1350005000.0 -0.763967936 -0.464894368
1365004500.0 -0.799670464 -0.471083744
1380004000.0 -0.836316096 -0.406426432
1395003500.0 -0.844100736 -0.358243392
1410003000.0 -0.86245088 -0.31767072
1425002500.0 -0.912841472 -0.27052544
1440002000.0 -0.888975104 -0.24434424
1455001500.0 -0.903726208 -0.20107808
1470001000.0 -0.906065472 -0.156278912
1485000500.0 -0.90188192 -0.111953224
1500000000.0 -0.891657664 -0.10423636
