! Created with skrf 1.8.0 (http://scikit-rf.org).
# Hz S RI R 50.0 
!freq ReS11 ImS11
50000.0 0.5664670467376709 0.15853291749954224
10049750.0 0.9895247220993042 -0.33448153734207153
20049500.0 0.8371716737747192 -0.6109552979469299
30049250.0 0.607343316078186 -0.8263938426971436
40049000.0 0.32684558629989624 -0.9589811563491821
50048750.0 0.026813063770532608 -0.9984138011932373
60048500.0 -0.26574453711509705 -0.9482972025871277
70048250.0 -0.5267937779426575 -0.8191346526145935
80048000.0 -0.7355124354362488 -0.6263293623924255
90047750.0 -0.8787997961044312 -0.38903871178627014
100047500.0 -0.9539417624473572 -0.11801493912935257
110047250.0 -0.9492798447608948 0.16600309312343597
120047000.0 -0.8636451959609985 0.4399273693561554
130046750.0 -0.7014371156692505 0.6823183298110962
140046500.0 -0.4882203936576843 0.8365582227706909
150046250.0 -0.20824377238750458 0.965397834777832
160046000.0 0.10018223524093628 1.0016924142837524
170045750.0 0.41073864698410034 0.9349305033683777
180045500.0 0.6887685656547546 0.7694348096847534
190045250.0 0.897819459438324 0.5201958417892456
200045000.0 1.0139604806900024 0.21609318256378174
210044750.0 1.0272060632705688 -0.1050231084227562
220044500.0 0.9397175312042236 -0.4069432318210602
230044250.0 0.769349992275238 -0.6604179739952087
240044000.0 0.5359979867935181 -0.8477418422698975
250043750.0 0.2632158398628235 -0.9593855738639832
260043500.0 -0.023989081382751465 -0.9864843487739563
270043250.0 -0.3047676980495453 -0.9328830242156982
280043000.0 -0.5608673691749573 -0.8002957701683044
290042750.0 -0.7678507566452026 -0.6036930084228516
300042500.0 -0.9117019176483154 -0.351229727268219
310042250.0 -0.9775549173355103 -0.06448908150196075
320042000.0 -0.9557873010635376 0.23357951641082764
330041750.0 -0.8449439406394958 0.5136677622795105
340041500.0 -0.6492204070091248 0.751479983329773
350041250.0 -0.3917003870010376 0.9165980815887451
360041000.0 -0.09095102548599243 0.997703492641449
370040750.0 0.22194893658161163 0.9804067611694336
380040500.0 0.5120717883110046 0.8697837591171265
390040250.0 0.7515482306480408 0.6763485074043274
400040000.0 0.924195408821106 0.4191249907016754
410039750.0 1.0105440616607666 0.12443917244672775
420039500.0 1.0048476457595825 -0.17801697552204132
430039250.0 0.9097306728363037 -0.46887218952178955
440039000.0 0.7340824007987976 -0.7179449796676636
450038750.0 0.4914868175983429 -0.9044309258460999
460038500.0 0.20216184854507446 -1.009480357170105
470038250.0 -0.1094449833035469 -1.0223313570022583
480038000.0 -0.4006759822368622 -0.943488359451294
490037750.0 -0.6631826162338257 -0.7748280763626099
500037500.0 -0.8583359718322754 -0.5334183573722839
510037250.0 -0.9727007746696472 -0.24470503628253937
520037000.0 -0.989586591720581 0.06129990145564079
530036750.0 -0.9182434678077698 0.3494427502155304
540036500.0 -0.7596430778503418 0.6051453948020935
550036250.0 -0.5346456170082092 0.8023492693901062
560036000.0 -0.2719992995262146 0.9186943769454956
570035750.0 0.01572435349225998 0.9563008546829224
580035500.0 0.2995873689651489 0.9090012907981873
590035250.0 0.5583990812301636 0.7822781205177307
600035000.0 0.7703428268432617 0.5919767618179321
610034750.0 0.9204120635986328 0.343280166387558
620034500.0 0.9950081706047058 0.05831053853034973
630034250.0 0.9817551970481873 -0.2366308867931366
640034000.0 0.8767244219779968 -0.5248245596885681
650033750.0 0.689606249332428 -0.7671394944190979
660033500.0 0.4221625328063965 -0.9440982937812805
670033250.0 0.11859113723039627 -1.0284918546676636
680033000.0 -0.18862488865852356 -1.0120197534561157
690032750.0 -0.4865211844444275 -0.8906387090682983
700032500.0 -0.7238975763320923 -0.6856480240821838
710032250.0 -0.8769492506980896 -0.4274398982524872
720032000.0 -0.941331148147583 -0.14812813699245453
730031750.0 -0.9205752015113831 0.13711673021316528
740031500.0 -0.822600781917572 0.39387258887290955
750031250.0 -0.6544251441955566 0.6171981692314148
760031000.0 -0.4428275227546692 0.7720806002616882
770030750.0 -0.19720879197120667 0.8668166399002075
780030500.0 0.06839633733034134 0.8893814086914062
790030250.0 0.3298090398311615 0.8410492539405823
800030000.0 0.5763269662857056 0.7137010097503662
810029750.0 0.7749370336532593 0.523350715637207
820029500.0 0.9129011034965515 0.27398112416267395
830029250.0 0.9707998037338257 -0.007127448916435242
840029000.0 0.9328452348709106 -0.3132568895816803
850028750.0 0.8023874759674072 -0.5819910168647766
860028500.0 0.5889975428581238 -0.7983306050300598
870028250.0 0.32765957713127136 -0.9297521710395813
880028000.0 0.039258379489183426 -0.9702467918395996
890027750.0 -0.2433100938796997 -0.9173353910446167
900027500.0 -0.4823908805847168 -0.7978343367576599
910027250.0 -0.6784018874168396 -0.602910041809082
920027000.0 -0.8009936809539795 -0.38204219937324524
930026750.0 -0.8592478632926941 -0.13917197287082672
940026500.0 -0.8494493365287781 0.11371533572673798
950026250.0 -0.7736554145812988 0.3489995002746582
960026000.0 -0.6358765363693237 0.5619332194328308
970025750.0 -0.43491029739379883 0.7308302521705627
980025500.0 -0.19778700172901154 0.8378083109855652
990025250.0 0.06952182948589325 0.8708949089050293
1000025000.0 0.33978399634361267 0.8232603669166565
1010024750.0 0.5903330445289612 0.6861950159072876
1020024500.0 0.7865519523620605 0.4804968535900116
1030024250.0 0.9084650874137878 0.2126483917236328
1040024000.0 0.935609757900238 -0.07312184572219849
1050023750.0 0.8723598122596741 -0.3476661145687103
1060023500.0 0.7372612357139587 -0.5775917172431946
1070023250.0 0.5344994068145752 -0.7601146697998047
1080023000.0 0.3002024292945862 -0.8693084716796875
1090022750.0 0.04470076411962509 -0.9068554043769836
1100022500.0 -0.19655263423919678 -0.873568594455719
1110022250.0 -0.4201665222644806 -0.7840939164161682
1120022000.0 -0.6192142367362976 -0.6244049668312073
1130021750.0 -0.7617175579071045 -0.42548757791519165
1140021500.0 -0.8446477651596069 -0.1964130699634552
1150021250.0 -0.8622965812683105 0.06505095958709717
1160021000.0 -0.8007619380950928 0.3317168951034546
1170020750.0 -0.6613729000091553 0.5668352842330933
1180020500.0 -0.44912639260292053 0.7516892552375793
1190020250.0 -0.1746426224708557 0.8623515963554382
1200020000.0 0.12215019762516022 0.8807651400566101
1210019750.0 0.4011191129684448 0.798098623752594
1220019500.0 0.6435244679450989 0.6283479928970337
1230019250.0 0.8145090341567993 0.3889462351799011
1240019000.0 0.8979204893112183 0.11226789653301239
1250018750.0 0.8927770853042603 -0.16034966707229614
1260018500.0 0.8109110593795776 -0.4048556983470917
1270018250.0 0.6593755483627319 -0.6158003211021423
1280018000.0 0.463332861661911 -0.774203896522522
1290017750.0 0.24124623835086823 -0.8675090670585632
1300017500.0 -0.0033239591866731644 -0.8972090482711792
1310017250.0 -0.23997801542282104 -0.8621577620506287
1320017000.0 -0.45840123295783997 -0.7546155452728271
1330016750.0 -0.649498701095581 -0.6078844666481018
1340016500.0 -0.7924887537956238 -0.39586955308914185
1350016250.0 -0.8694511651992798 -0.14154565334320068
1360016000.0 -0.869133710861206 0.1229974776506424
1370015750.0 -0.783911943435669 0.38725629448890686
1380015500.0 -0.6037691235542297 0.6196481585502625
1390015250.0 -0.3765995502471924 0.7876390814781189
1400015000.0 -0.0867735743522644 0.8636873960494995
1410014750.0 0.21093586087226868 0.843374490737915
1420014500.0 0.4694676101207733 0.7335735559463501
1430014250.0 0.6930423378944397 0.5325856804847717
1440014000.0 0.8197833299636841 0.30432698130607605
1450013750.0 0.878355860710144 0.023038499057292938
1460013500.0 0.8489819169044495 -0.23855583369731903
1470013250.0 0.7430893182754517 -0.4786492884159088
1480013000.0 0.5884799361228943 -0.6638220548629761
1490012750.0 0.37945133447647095 -0.8014594316482544
1500012500.0 0.14577288925647736 -0.8733268976211548
1510012250.0 -0.0770779550075531 -0.8853588104248047
1520012000.0 -0.31832680106163025 -0.830710768699646
1530011750.0 -0.5200440883636475 -0.712050199508667
1540011500.0 -0.6990212202072144 -0.5301904678344727
1550011250.0 -0.8131986856460571 -0.30670034885406494
1560011000.0 -0.8595603108406067 -0.04545910656452179
1570010750.0 -0.8288982510566711 0.19147197902202606
1580010500.0 -0.7240902185440063 0.43388545513153076
1590010250.0 -0.5323714017868042 0.6431660652160645
1600010000.0 -0.29267418384552 0.7763370871543884
1610009750.0 -0.015336895361542702 0.8253244161605835
1620009500.0 0.266240656375885 0.7795581817626953
1630009250.0 0.5036848187446594 0.6537495851516724
1640009000.0 0.7007129788398743 0.4530125558376312
1650008750.0 0.8166291117668152 0.20447340607643127
1660008500.0 0.8465468287467957 -0.05884457379579544
1670008250.0 0.7887914180755615 -0.3359745144844055
1680008000.0 0.6606007814407349 -0.5569987297058105
1690007750.0 0.4769781529903412 -0.7218084931373596
1700007500.0 0.26127785444259644 -0.8228222131729126
1710007250.0 0.03223272040486336 -0.8592821359634399
1720007000.0 -0.2218196839094162 -0.8280147314071655
1730006750.0 -0.4319040775299072 -0.7313671708106995
1740006500.0 -0.6001309752464294 -0.5813461542129517
1750006250.0 -0.7221609354019165 -0.3955610990524292
1760006000.0 -0.791843056678772 -0.1742711365222931
1770005750.0 -0.7976515889167786 0.0556996650993824
1780005500.0 -0.7325831651687622 0.28753021359443665
1790005250.0 -0.612859845161438 0.4794602692127228
1800005000.0 -0.436508446931839 0.6360335946083069
1810004750.0 -0.2125827819108963 0.7438943982124329
1820004500.0 0.040085356682538986 0.7747406959533691
1830004250.0 0.30738765001296997 0.7168763875961304
1840004000.0 0.5361864566802979 0.5842479467391968
1850003750.0 0.7052387595176697 0.38662847876548767
1860003500.0 0.805215060710907 0.12280064821243286
1870003250.0 0.8086110949516296 -0.14532238245010376
1880003000.0 0.7200212478637695 -0.4012736976146698
1890002750.0 0.5717557668685913 -0.5926984548568726
1900002500.0 0.3566061854362488 -0.7359212636947632
1910002250.0 0.14001096785068512 -0.7970999479293823
1920002000.0 -0.08658190816640854 -0.8004333972930908
1930001750.0 -0.28398168087005615 -0.7365264296531677
1940001500.0 -0.46032238006591797 -0.6300656795501709
1950001250.0 -0.6180373430252075 -0.45638832449913025
1960001000.0 -0.7065836787223816 -0.27065929770469666
1970000750.0 -0.7466360926628113 -0.0678156167268753
1980000500.0 -0.7348127365112305 0.136203333735466
1990000250.0 -0.6670703887939453 0.3350354731082916
2000000000.0 -0.5469180345535278 0.51558518409729
