! Created with skrf 1.8.0 (http://scikit-rf.org).
# Hz S RI R 50.0 
!freq ReS11 ImS11
50000.0 0.665974528 -0.010617762
15049500.0 0.664632896 -0.04148794
30049000.0 0.661844224 -0.066814704
45048500.0 0.658351424 -0.091229456
60048000.0 0.653741568 -0.115491264
75047500.0 0.6481376 -0.138681216
90047000.0 0.641245696 -0.160698864
105046500.0 0.634163648 -0.183896672
120046000.0 0.62629728 -0.206000272
135045500.0 0.617768512 -0.227400832
150045000.0 0.607731968 -0.248739168
165044500.0 0.597299008 -0.269526688
180044000.0 0.585999296 -0.289814976
195043500.0 0.573588928 -0.310052096
210043000.0 0.56064608 -0.330108672
225042500.0 0.546943168 -0.349494112
240042000.0 0.532335712 -0.367921344
255041500.0 0.516671776 -0.386781952
270041000.0 0.500516896 -0.404861376
285040500.0 0.483508896 -0.421552608
300040000.0 0.470427296 -0.428866656
315039500.0 0.45336048 -0.443046848
330039000.0 0.43650736 -0.45620112
345038500.0 0.420261216 -0.469486528
360038000.0 0.403496128 -0.480549632
375037500.0 0.384755264 -0.491731008
390037000.0 0.368835136 -0.497425024
405036500.0 0.350422784 -0.510546208
420036000.0 0.333874816 -0.520886016
435035500.0 0.317464096 -0.529730304
450035000.0 0.295938976 -0.53619312
465034500.0 0.280971456 -0.541578624
480034000.0 0.262949104 -0.545641728
495033500.0 0.244181696 -0.550123648
510033000.0 0.225834304 -0.553583744
525032500.0 0.208607952 -0.55930272
540032000.0 0.191254656 -0.561647232
555031500.0 0.17468808 -0.562827008
570031000.0 0.156047296 -0.564628992
585030500.0 0.140278272 -0.563937088
600030000.0 0.124300928 -0.572096384
615029500.0 0.109164944 -0.574022144
630029000.0 0.090492152 -0.57424512
645028500.0 0.075096432 -0.575139136
660028000.0 0.058362468 -0.573044416
675027500.0 0.045523012 -0.571454592
690027000.0 0.028416332 -0.570942848
705026500.0 0.01618681 -0.569198208
720026000.0 0.002732467 -0.568473152
735025500.0 -0.010244788 -0.56550688
750025000.0 -0.024465764 -0.56369728
765024500.0 -0.036630164 -0.56020128
780024000.0 -0.03622406 -0.5633152
795023500.0 -0.06056574 -0.556536064
810023000.0 -0.070797904 -0.553355328
825022500.0 -0.082956912 -0.55235968
840022000.0 -0.09386164 -0.548292544
855021500.0 -0.105627216 -0.549375936
870021000.0 -0.115522992 -0.54573024
885020500.0 -0.132523608 -0.544967488
900020000.0 -0.125533264 -0.545547392
915019500.0 -0.13513416 -0.543305536
930019000.0 -0.148333376 -0.545151296
945018500.0 -0.15316464 -0.549564224
960018000.0 -0.166972416 -0.548148736
975017500.0 -0.17753112 -0.554947712
990017000.0 -0.190041856 -0.55626112
1005016500.0 -0.200837952 -0.559286464
1020016000.0 -0.209337184 -0.565128704
1035015500.0 -0.226195056 -0.566413056
1050015000.0 -0.24668688 -0.5535616
1065014500.0 -0.255711584 -0.578467648
1080014000.0 -0.272271872 -0.579713728
1095013500.0 -0.287925344 -0.584839232
1110013000.0 -0.303357312 -0.585415616
1125012500.0 -0.322198048 -0.57870112
1140012000.0 -0.352192096 -0.587655424
1155011500.0 -0.389839776 -0.581342272
1170011000.0 -0.39939392 -0.60851936
1185010500.0 -0.422127456 -0.574305024
1200010000.0 -0.440820512 -0.576205248
1215009500.0 -0.478617216 -0.571691584
1230009000.0 -0.50118816 -0.572389504
1245008500.0 -0.52639264 -0.577808576
1260008000.0 -0.5705072 -0.570044992
1275007500.0 -0.584144192 -0.550330112
1290007000.0 -0.617878528 -0.541338048
1305006500.0 -0.669447744 -0.523463776
1320006000.0 -0.69928288 -0.510158112
1335005500.0 -0.722170688 -0.477109152
1350005000.0 -0.769577216 -0.453058464
1365004500.0 -0.849605824 -0.391058208
1380004000.0 -0.824315904 -0.400701344
1395003500.0 -0.846781632 -0.36090864
1410003000.0 -0.874485376 -0.311278528
1425002500.0 -0.858307712 -0.274628416
1440002000.0 -0.903035648 -0.246111616
1455001500.0 -0.917321536 -0.204028496
1470001000.0 -0.875904448 -0.152042096
1485000500.0 -0.907081856 -0.11751376
1500000000.0 -0.923954496 -0.093857328
