! Created with skrf 1.8.0 (http://scikit-rf.org).
# Hz S RI R 50.0 
!freq ReS11 ImS11
50000.0 0.998881024 0.000711967
15049500.0 0.977595328 0.219584944
30049000.0 0.90774816 0.427675808
45048500.0 0.794507776 0.616112768
60048000.0 0.645368384 0.773341696
75047500.0 0.46737888 0.896104
90047000.0 0.253261424 0.982008512
105046500.0 0.033614128 1.014389278
120046000.0 -0.187751968 0.999224448
135045500.0 -0.403365536 0.935252416
150045000.0 -0.6007584 0.825264384
165044500.0 -0.769230592 0.673022592
180044000.0 -0.89998144 0.486847232
195043500.0 -0.9874512 0.274285952
210043000.0 -1.025642514 0.046209224
225042500.0 -1.010349394 -0.186997824
240042000.0 -0.9411536 -0.411643616
255041500.0 -0.822815232 -0.616548224
270041000.0 -0.65897536 -0.787040064
285040500.0 -0.460759392 -0.917643968
300040000.0 -0.241881024 -0.990069696
315039500.0 -0.006622532 -1.016044974
330039000.0 0.22508088 -0.993725952
345038500.0 0.442644704 -0.918651264
360038000.0 0.64232672 -0.797398848
375037500.0 0.806764864 -0.639581056
390037000.0 0.928335808 -0.448892864
405036500.0 1.015243888 -0.2400224
420036000.0 1.054504992 -0.019728256
435035500.0 1.047901036 0.215994928
450035000.0 0.979658624 0.455650816
465034500.0 0.866636672 0.658898624
480034000.0 0.707094912 0.836075456
495033500.0 0.515128736 0.965534016
510033000.0 0.302091456 1.053570628
525032500.0 0.083878408 1.091281656
540032000.0 -0.144612272 1.081614136
555031500.0 -0.357008864 1.02475226
570031000.0 -0.556725632 0.926829632
585030500.0 -0.720805952 0.789422848
600030000.0 -0.871015872 0.643804096
615029500.0 -0.98591232 0.441315008
630029000.0 -1.056239008 0.222284624
645028500.0 -1.067598584 -0.012414408
660028000.0 -1.033989072 -0.249066016
675027500.0 -0.947872704 -0.47740288
690027000.0 -0.802649088 -0.676518208
705026500.0 -0.620248704 -0.848601728
720026000.0 -0.38860496 -0.974636544
735025500.0 -0.135634784 -1.049535156
750025000.0 0.13719248 -1.053667904
765024500.0 0.402479936 -0.9948128
780024000.0 0.658163968 -0.846615104
795023500.0 0.865987776 -0.677694976
810023000.0 1.01355219 -0.435966368
825022500.0 1.096164344 -0.162520096
840022000.0 1.095665096 0.116223264
855021500.0 1.047458648 0.361657792
870021000.0 0.9316944 0.582859904
885020500.0 0.78407392 0.7550928
900020000.0 0.628770176 0.928259584
915019500.0 0.428799744 1.023350834
930019000.0 0.233346192 1.095652104
945018500.0 0.016603186 1.110402104
960018000.0 -0.17147752 1.088826296
975017500.0 -0.367905184 1.048368692
990017000.0 -0.53144704 0.958597056
1005016500.0 -0.689512384 0.85961632
1020016000.0 -0.824166336 0.737501888
1035015500.0 -0.946064832 0.569971264
1050015000.0 -1.070464608 0.38068192
1065014500.0 -1.111570952 0.177762144
1080014000.0 -1.12554264 -0.042071392
1095013500.0 -1.115352872 -0.26418584
1110013000.0 -1.054100752 -0.474004576
1125012500.0 -0.979754432 -0.710009792
1140012000.0 -0.782929664 -0.912299008
1155011500.0 -0.609996992 -1.128710864
1170011000.0 -0.268618688 -1.251377696
1185010500.0 0.03594734 -1.34675312
1200010000.0 0.43213152 -1.336188928
1215009500.0 0.845348544 -1.210932736
1230009000.0 1.267143968 -0.8462304
1245008500.0 1.450384608 -0.350646432
1260008000.0 1.434183232 0.109836816
1275007500.0 1.241994624 0.465240416
1290007000.0 1.053711176 0.726218944
1305006500.0 0.781234176 0.851177728
1320006000.0 0.582825792 0.940588096
1335005500.0 0.429816096 0.96025408
1350005000.0 0.288085824 1.006058812
1365004500.0 0.24458456 1.003531337
1380004000.0 0.085408976 1.073171976
1395003500.0 -0.058383388 1.130805728
1410003000.0 -0.173701952 1.21147656
1425002500.0 -0.433174656 1.341299904
1440002000.0 -0.748896192 1.428448448
1455001500.0 -1.371182784 1.318890816
1470001000.0 -1.984715328 0.666218304
1485000500.0 -1.772310272 -0.04669278
1500000000.0 -1.388720384 -0.408196512
