! Created with skrf 1.8.0 (http://scikit-rf.org).
# Hz S RI R 50.0 
!freq ReS11 ImS11
50000.0 -0.47311165928840637 -0.17446352541446686
10049750.0 -0.902101457118988 0.2867557108402252
20049500.0 -0.7893800735473633 0.5323326587677002
30049250.0 -0.608376145362854 0.746654748916626
40049000.0 -0.36705389618873596 0.9054108262062073
50048750.0 -0.08282405138015747 0.9890409111976624
60048500.0 0.2223939746618271 0.9816268682479858
70048250.0 0.5174269080162048 0.8792960047721863
80048000.0 0.7706186771392822 0.6853190660476685
90047750.0 0.9515093564987183 0.4147644639015198
100047500.0 1.0357646942138672 0.09946679323911667
110047250.0 1.012966275215149 -0.22136716544628143
120047000.0 0.8920407295227051 -0.5165378451347351
130046750.0 0.6890907287597656 -0.7557917833328247
140046500.0 0.4239994287490845 -0.8932352066040039
150046250.0 0.1319008767604828 -0.9634162783622742
160046000.0 -0.1499306559562683 -0.946901261806488
170045750.0 -0.4103472828865051 -0.854705810546875
180045500.0 -0.6325035691261292 -0.6970542073249817
190045250.0 -0.8043067455291748 -0.4860958456993103
200045000.0 -0.9120721817016602 -0.23289069533348083
210044750.0 -0.9469165802001953 0.04194433242082596
220044500.0 -0.9001868367195129 0.3229806125164032
230044250.0 -0.7714120745658875 0.5852490663528442
240044000.0 -0.5647431015968323 0.8016996383666992
250043750.0 -0.29605811834335327 0.9468713998794556
260043500.0 0.011649712920188904 1.0029230117797852
270043250.0 0.3237389028072357 0.9583402872085571
280043000.0 0.6096880435943604 0.8144320845603943
290042750.0 0.8330263495445251 0.5890200138092041
300042500.0 0.9732229113578796 0.3084013760089874
310042250.0 1.0196987390518188 -0.00017942208796739578
320042000.0 0.9711288809776306 -0.3035680949687958
330041750.0 0.8341939449310303 -0.5766457915306091
340041500.0 0.6282696723937988 -0.7913767099380493
350041250.0 0.36723095178604126 -0.9368181228637695
360041000.0 0.07874640822410583 -1.0007189512252808
370040750.0 -0.21735529601573944 -0.9762747287750244
380040500.0 -0.4956095218658447 -0.8642495274543762
390040250.0 -0.7253973484039307 -0.678967297077179
400040000.0 -0.8940746784210205 -0.4268403649330139
410039750.0 -0.9784319400787354 -0.13734287023544312
420039500.0 -0.9724493026733398 0.15967826545238495
430039250.0 -0.8765825033187866 0.4433184564113617
440039000.0 -0.6945660710334778 0.6895558834075928
450038750.0 -0.4501093924045563 0.866543710231781
460038500.0 -0.16779208183288574 0.9605364203453064
470038250.0 0.13231682777404785 0.9663719534873962
480038000.0 0.4190032184123993 0.8830265402793884
490037750.0 0.6697045564651489 0.7184658050537109
500037500.0 0.8574730157852173 0.49353089928627014
510037250.0 0.9715098738670349 0.21947728097438812
520037000.0 1.001030445098877 -0.07722312957048416
530036750.0 0.9420172572135925 -0.37273097038269043
540036500.0 0.7943763136863708 -0.6411109566688538
550036250.0 0.5661523342132568 -0.8538246750831604
560036000.0 0.2929195165634155 -0.9875048995018005
570035750.0 -0.021435298025608063 -1.0294073820114136
580035500.0 -0.3278317451477051 -0.9702858924865723
590035250.0 -0.6014871001243591 -0.8172839879989624
600035000.0 -0.8144037127494812 -0.5874609351158142
610034750.0 -0.9386113882064819 -0.30647704005241394
620034500.0 -0.9701916575431824 -0.00677834264934063
630034250.0 -0.9100857973098755 0.27871519327163696
640034000.0 -0.7710144519805908 0.5336939096450806
650033750.0 -0.5635422468185425 0.7353102564811707
660033500.0 -0.3183710277080536 0.8593510389328003
670033250.0 -0.0491291806101799 0.9150745868682861
680033000.0 0.2202933132648468 0.8911402821540833
690032750.0 0.47598952054977417 0.793904185295105
700032500.0 0.6984555721282959 0.6269375085830688
710032250.0 0.8676133155822754 0.399405837059021
720032000.0 0.9622811079025269 0.12760934233665466
730031750.0 0.9731962084770203 -0.16911359131336212
740031500.0 0.8909938931465149 -0.45858100056648254
750031250.0 0.7186196446418762 -0.7110279202461243
760031000.0 0.47373664379119873 -0.8961876034736633
770030750.0 0.18177583813667297 -0.9929700493812561
780030500.0 -0.13187184929847717 -0.9880392551422119
790030250.0 -0.4079764187335968 -0.8912981748580933
800030000.0 -0.6409471035003662 -0.7097233533859253
810029750.0 -0.8015006184577942 -0.478135883808136
820029500.0 -0.8838181495666504 -0.21265967190265656
830029250.0 -0.8863793611526489 0.05280875414609909
840029000.0 -0.8169543743133545 0.30067548155784607
850028750.0 -0.6865673065185547 0.5200363993644714
860028500.0 -0.4989907145500183 0.6943802237510681
870028250.0 -0.2666368782520294 0.8165847063064575
880028000.0 -0.01956496760249138 0.8635931015014648
890027750.0 0.2517800033092499 0.8408246636390686
900027500.0 0.5024120807647705 0.7382620573043823
910027250.0 0.7269490361213684 0.5559090375900269
920027000.0 0.8745745420455933 0.317576140165329
930026750.0 0.9452384114265442 0.041861336678266525
940026500.0 0.9205757975578308 -0.2522220015525818
950026250.0 0.8055087924003601 -0.5167717337608337
960026000.0 0.6099310517311096 -0.7317942976951599
970025750.0 0.37352707982063293 -0.8678455352783203
980025500.0 0.09683535993099213 -0.9256810545921326
990025250.0 -0.16861854493618011 -0.8967708349227905
1000025000.0 -0.39964428544044495 -0.8053828477859497
1010024750.0 -0.5998746156692505 -0.6458349823951721
1020024500.0 -0.7488296627998352 -0.4405849575996399
1030024250.0 -0.8310465812683105 -0.21037456393241882
1040024000.0 -0.8502376079559326 0.036508381366729736
1050023750.0 -0.799029529094696 0.2880629301071167
1060023500.0 -0.6820855736732483 0.511622428894043
1070023250.0 -0.4884427785873413 0.7050344347953796
1080023000.0 -0.2357155978679657 0.8353453278541565
1090022750.0 0.04566483572125435 0.8769422769546509
1100022500.0 0.3318157494068146 0.8251145482063293
1110022250.0 0.5824691653251648 0.6919706463813782
1120022000.0 0.778921365737915 0.47399258613586426
1130021750.0 0.8934794664382935 0.20383337140083313
1140021500.0 0.9178407192230225 -0.07589308172464371
1150021250.0 0.8556506633758545 -0.3381681442260742
1160021000.0 0.7187256813049316 -0.5712890028953552
1170020750.0 0.5329746603965759 -0.7392889857292175
1180020500.0 0.31103402376174927 -0.8501447439193726
1190020250.0 0.06412593275308609 -0.898003101348877
1200020000.0 -0.173601895570755 -0.8786659240722656
1210019750.0 -0.4004793167114258 -0.7947946190834045
1220019500.0 -0.5973277688026428 -0.6531568765640259
1230019250.0 -0.7484341263771057 -0.46285438537597656
1240019000.0 -0.84821617603302 -0.22792813181877136
1250018750.0 -0.8750187158584595 0.042332541197538376
1260018500.0 -0.822006344795227 0.3054167926311493
1270018250.0 -0.6864372491836548 0.5444262623786926
1280018000.0 -0.471387654542923 0.7424181699752808
1290017750.0 -0.20121239125728607 0.8584046959877014
1300017500.0 0.11538995802402496 0.8774583339691162
1310017250.0 0.3882203698158264 0.7931032180786133
1320017000.0 0.6320338845252991 0.6181600093841553
1330016750.0 0.7954521179199219 0.40555813908576965
1340016500.0 0.8854370713233948 0.1275489181280136
1350016250.0 0.8859832286834717 -0.13295409083366394
1360016000.0 0.8068382143974304 -0.38976892828941345
1370015750.0 0.6612850427627563 -0.6045071482658386
1380015500.0 0.47185632586479187 -0.7553629279136658
1390015250.0 0.26859408617019653 -0.8568410277366638
1400015000.0 0.02406490221619606 -0.8973167538642883
1410014750.0 -0.21637649834156036 -0.8729771375656128
1420014500.0 -0.43407347798347473 -0.7796688079833984
1430014250.0 -0.637373685836792 -0.6249077916145325
1440014000.0 -0.7792936563491821 -0.41968899965286255
1450013750.0 -0.8658412098884583 -0.17684030532836914
1460013500.0 -0.8744539618492126 0.08239436149597168
1470013250.0 -0.7945806980133057 0.35927876830101013
1480013000.0 -0.6349654793739319 0.5887194871902466
1490012750.0 -0.4046619236469269 0.7594768404960632
1500012500.0 -0.12580765783786774 0.8449872732162476
1510012250.0 0.16136179864406586 0.8400823473930359
1520012000.0 0.42694810032844543 0.7399886250495911
1530011750.0 0.6560688614845276 0.550141453742981
1540011500.0 0.8033398389816284 0.3134927749633789
1550011250.0 0.8669826984405518 0.04957946017384529
1560011000.0 0.8456295132637024 -0.2197761833667755
1570010750.0 0.7474532127380371 -0.4606264531612396
1580010500.0 0.5952039957046509 -0.6482178568840027
1590010250.0 0.4083041250705719 -0.7847959399223328
1600010000.0 0.16982200741767883 -0.8679035902023315
1610009750.0 -0.06725271791219711 -0.88379967212677
1620009500.0 -0.31382960081100464 -0.8227332830429077
1630009250.0 -0.5140367150306702 -0.7078465223312378
1640009000.0 -0.6799863576889038 -0.5416586995124817
1650008750.0 -0.7898994088172913 -0.3353559970855713
1660008500.0 -0.8422490954399109 -0.09410714358091354
1670008250.0 -0.819780170917511 0.16155588626861572
1680008000.0 -0.7292167544364929 0.3879757523536682
1690007750.0 -0.5663132667541504 0.5890306830406189
1700007500.0 -0.3556421101093292 0.7261181473731995
1710007250.0 -0.09252645075321198 0.799200177192688
1720007000.0 0.17756013572216034 0.7879130840301514
1730006750.0 0.42803049087524414 0.6886378526687622
1740006500.0 0.6346660852432251 0.5122688412666321
1750006250.0 0.7743909955024719 0.28777801990509033
1760006000.0 0.8359975218772888 0.02242734096944332
1770005750.0 0.8043689727783203 -0.26251542568206787
1780005500.0 0.6946054697036743 -0.48905691504478455
1790005250.0 0.5175414085388184 -0.6748851537704468
1800005000.0 0.30519846081733704 -0.7914016246795654
1810004750.0 0.06896859407424927 -0.8394498825073242
1820004500.0 -0.15957613289356232 -0.8168697953224182
1830004250.0 -0.3602588176727295 -0.7413042783737183
1840004000.0 -0.5357893705368042 -0.6075826287269592
1850003750.0 -0.6652066707611084 -0.4406655728816986
1860003500.0 -0.7450994253158569 -0.25112226605415344
1870003250.0 -0.7739540338516235 -0.029085302725434303
1880003000.0 -0.7349804639816284 0.2028418630361557
1890002750.0 -0.6471250057220459 0.39477846026420593
1900002500.0 -0.5009762048721313 0.5684231519699097
1910002250.0 -0.30701297521591187 0.6939659714698792
1920002000.0 -0.07046245783567429 0.7662123441696167
1930001750.0 0.1820850670337677 0.7568721175193787
1940001500.0 0.42493709921836853 0.6663724184036255
1950001250.0 0.6412351727485657 0.47237429022789
1960001000.0 0.7762917876243591 0.23152244091033936
1970000750.0 0.8126257061958313 -0.027216654270887375
1980000500.0 0.7676180005073547 -0.27776870131492615
1990000250.0 0.6434663534164429 -0.4986374080181122
2000000000.0 0.46654313802719116 -0.6558395624160767
