! Created with skrf 1.8.0 (http://scikit-rf.org).
# Hz S RI R 50.0 
!freq ReS11 ImS11
50000.0 0.995455424 -0.000352999
15049500.0 0.978074496 0.219198816
30049000.0 0.907397824 0.42727184
45048500.0 0.790405824 0.614256384
60048000.0 0.642830976 0.771856192
75047500.0 0.463360544 0.895113856
90047000.0 0.248087904 0.976313728
105046500.0 0.030734494 1.0094589
120046000.0 -0.18949088 0.993867712
135045500.0 -0.4020264 0.92610752
150045000.0 -0.599204608 0.820375232
165044500.0 -0.76612224 0.668063744
180044000.0 -0.892447744 0.482134368
195043500.0 -0.982317568 0.27394624
210043000.0 -1.02101934 0.047995368
225042500.0 -1.003474116 -0.183938944
240042000.0 -0.938829888 -0.408598048
255041500.0 -0.820519744 -0.610015296
270041000.0 -0.656658752 -0.780333312
285040500.0 -0.460259328 -0.914753856
300040000.0 -0.237133216 -0.969738752
315039500.0 -0.011476398 -1.011087538
330039000.0 0.220328832 -0.987377472
345038500.0 0.44133104 -0.914985984
360038000.0 0.635097472 -0.795803136
375037500.0 0.801779456 -0.6345568
390037000.0 0.918159296 -0.440308704
405036500.0 1.009050608 -0.238424352
420036000.0 1.048269392 -0.01208214
435035500.0 1.035753368 0.225331728
450035000.0 0.969788608 0.453035136
465034500.0 0.846406208 0.66358592
480034000.0 0.683215232 0.83284864
495033500.0 0.490760896 0.960777344
510033000.0 0.275923136 1.040844084
525032500.0 0.055034632 1.07410228
540032000.0 -0.165456736 1.052192688
555031500.0 -0.37640496 0.99277952
570031000.0 -0.566365824 0.892858176
585030500.0 -0.734732736 0.747614784
600030000.0 -0.884150336 0.601442496
615029500.0 -0.988433536 0.394760384
630029000.0 -1.035639524 0.17243512
645028500.0 -1.058725832 -0.060951164
660028000.0 -1.011726022 -0.29564944
675027500.0 -0.90806496 -0.509719744
690027000.0 -0.760979712 -0.711003328
705026500.0 -0.561302976 -0.869607168
720026000.0 -0.33239728 -0.974200768
735025500.0 -0.078540064 -1.03302443
750025000.0 0.179909664 -1.025897026
765024500.0 0.441532896 -0.945068032
780024000.0 0.626623808 -0.8518944
795023500.0 0.875694656 -0.620913728
810023000.0 1.009109498 -0.38036208
825022500.0 1.087625984 -0.10526008
840022000.0 1.080773832 0.144915696
855021500.0 1.017310024 0.386974048
870021000.0 0.896917952 0.606425792
885020500.0 0.74632 0.776314432
900020000.0 0.545455552 0.907989248
915019500.0 0.554773056 0.892188544
930019000.0 0.580316736 0.891116288
945018500.0 0.583006336 0.888118016
960018000.0 0.606283456 0.8600352
975017500.0 0.636773952 0.857897152
990017000.0 0.655193408 0.851355456
1005016500.0 0.6759568 0.839209792
1020016000.0 0.67976672 0.81936512
1035015500.0 0.729553088 0.8106544
1050015000.0 0.708598912 0.80919168
1065014500.0 0.779361024 0.793025792
1080014000.0 0.802096896 0.790450368
1095013500.0 0.83880512 0.75629024
1110013000.0 0.86740992 0.744994688
1125012500.0 0.888783872 0.717637056
1140012000.0 0.914531392 0.703947008
1155011500.0 0.924789184 0.708598016
1170011000.0 0.961593728 0.6606768
1185010500.0 0.992708032 0.6208528
1200010000.0 1.055626632 0.594936256
1215009500.0 1.0573982 0.563801024
1230009000.0 1.056070924 0.536545344
1245008500.0 1.134431488 0.507646976
1260008000.0 1.188374512 0.467736672
1275007500.0 1.20738304 0.420858432
1290007000.0 1.184493184 0.427255904
1305006500.0 1.254305008 0.339515552
1320006000.0 1.276701216 0.276625536
1335005500.0 1.290427808 0.236354416
1350005000.0 1.29660976 0.176291024
1365004500.0 1.231551648 0.133606616
1380004000.0 1.307237856 0.019658318
1395003500.0 1.284379616 0.024954578
1410003000.0 1.285761952 -0.08185676
1425002500.0 1.252679824 -0.14006656
1440002000.0 1.240173936 -0.179301328
1455001500.0 1.249469632 -0.19959792
1470001000.0 1.235854624 -0.258696288
1485000500.0 1.200794336 -0.35392752
1500000000.0 1.207641008 -0.369415616
