! Created with skrf 1.8.0 (http://scikit-rf.org).
# Hz S RI R 50.0 
!freq ReS11 ImS11
50000.0 -0.872869504 -0.001767467
15049500.0 -0.809960192 0.273134496
30049000.0 -0.680988416 0.479431872
45048500.0 -0.50476272 0.627526912
60048000.0 -0.309496288 0.710956416
75047500.0 -0.114446152 0.735159936
90047000.0 0.07467312 0.70792896
105046500.0 0.234843904 0.645338944
120046000.0 0.367099456 0.55438144
135045500.0 0.47096848 0.444085088
150045000.0 0.545794624 0.320412352
165044500.0 0.593711808 0.190569856
180044000.0 0.615765952 0.057756284
195043500.0 0.61282816 -0.074366584
210043000.0 0.585886336 -0.202670656
225042500.0 0.535557088 -0.324567392
240042000.0 0.462625856 -0.43727344
255041500.0 0.36647072 -0.537373632
270041000.0 0.248880112 -0.620042368
285040500.0 0.110034496 -0.678349632
300040000.0 -0.034578824 -0.710594752
315039500.0 -0.2040616 -0.706992896
330039000.0 -0.374327808 -0.655509376
345038500.0 -0.53846464 -0.557260544
360038000.0 -0.673753472 -0.409447328
375037500.0 -0.760635776 -0.220814368
390037000.0 -0.780804544 -0.011268542
405036500.0 -0.740898816 0.19407136
420036000.0 -0.63459328 0.370565184
435035500.0 -0.480492576 0.499590912
450035000.0 -0.307078592 0.569586624
465034500.0 -0.128021672 0.588288512
480034000.0 0.031529468 0.561764672
495033500.0 0.16674488 0.50177216
510033000.0 0.27304464 0.417815264
525032500.0 0.354120736 0.322239264
540032000.0 0.407735168 0.219875584
555031500.0 0.439149216 0.115196144
570031000.0 0.448648544 0.012668678
585030500.0 0.441036448 -0.085204912
600030000.0 0.418209152 -0.171922944
615029500.0 0.380627232 -0.257108864
630029000.0 0.329059072 -0.335511616
645028500.0 0.265269792 -0.404846624
660028000.0 0.191810896 -0.462626048
675027500.0 0.104110224 -0.508465472
690027000.0 0.005605235 -0.539167168
705026500.0 -0.101513952 -0.550483136
720026000.0 -0.213819776 -0.541943744
735025500.0 -0.328853792 -0.502682272
750025000.0 -0.438797792 -0.43171504
765024500.0 -0.532145024 -0.331318624
780024000.0 -0.602897856 -0.200863424
795023500.0 -0.622023168 -0.050658836
810023000.0 -0.59552992 0.102703944
825022500.0 -0.52427344 0.240478496
840022000.0 -0.414591968 0.34080496
855021500.0 -0.288102784 0.401289312
870021000.0 -0.1562492 0.425672928
885020500.0 -0.035547376 0.413729344
900020000.0 0.080970632 0.373055072
915019500.0 0.154115968 0.313108608
930019000.0 0.216482624 0.241224848
945018500.0 0.255860032 0.168693888
960018000.0 0.28356592 0.0912784
975017500.0 0.293633184 0.017531444
990017000.0 0.297305952 -0.056156836
1005016500.0 0.286395328 -0.127859744
1020016000.0 0.264452784 -0.19402312
1035015500.0 0.237418768 -0.257995392
1050015000.0 0.210105296 -0.313873536
1065014500.0 0.153097312 -0.37534848
1080014000.0 0.09149288 -0.430903712
1095013500.0 0.02716321 -0.477828224
1110013000.0 -0.061746104 -0.504484128
1125012500.0 -0.138319296 -0.508494144
1140012000.0 -0.247409936 -0.522537216
1155011500.0 -0.352184096 -0.472933504
1170011000.0 -0.468340832 -0.442266336
1185010500.0 -0.546571456 -0.358381696
1200010000.0 -0.628494144 -0.24244112
1215009500.0 -0.665946752 -0.09815472
1230009000.0 -0.660062144 0.048301748
1245008500.0 -0.602837376 0.192954784
1260008000.0 -0.507328032 0.304904064
1275007500.0 -0.379510176 0.377119904
1290007000.0 -0.244128384 0.407174016
1305006500.0 -0.135643392 0.413645344
1320006000.0 -0.027658298 0.381390496
1335005500.0 0.059029884 0.3350584
1350005000.0 0.126493128 0.287805504
1365004500.0 0.171941152 0.248271792
1380004000.0 0.23171392 0.15215344
1395003500.0 0.253563136 0.089521488
1410003000.0 0.245284624 0.027862512
1425002500.0 0.25407144 -0.023115458
1440002000.0 0.247069872 -0.096138824
1455001500.0 0.21653592 -0.155733824
1470001000.0 0.16110048 -0.207234496
1485000500.0 0.116164912 -0.239712768
1500000000.0 0.059374932 -0.287520768
