! Created with skrf 1.8.0 (http://scikit-rf.org).
# Hz S RI R 50.0 
!freq ReS11 ImS11
300000000.0 -0.929209792 0.024429238
303000000.0 -0.994371392 0.013744524
306000000.0 -0.999135616 0.012503344
309000000.0 -0.999277504 0.016141908
312000000.0 -0.989682304 0.024483126
315000000.0 -0.98967712 0.014132876
318000000.0 -0.995129152 0.018032942
321000000.0 -0.994998272 0.019726904
324000000.0 -0.996479936 0.021193792
327000000.0 -0.992368192 0.018590014
330000000.0 -0.98987168 0.02150635
333000000.0 -0.994362688 0.021176456
336000000.0 -0.995521088 0.022125538
339000000.0 -0.994755072 0.023131472
342000000.0 -0.992438144 0.025375496
345000000.0 -0.985930688 0.026471768
348000000.0 -0.990246912 0.026128108
351000000.0 -1.016971468 0.021597352
354000000.0 -0.993969984 0.028866472
357000000.0 -0.99074624 0.02978524
360000000.0 -0.985201984 0.030491258
363000000.0 -0.989066496 0.03254059
366000000.0 -0.992748288 0.033065826
369000000.0 -0.992196736 0.034015228
372000000.0 -0.989951936 0.033655212
375000000.0 -0.983937472 0.036001224
378000000.0 -0.988453056 0.036804008
381000000.0 -0.990411584 0.037401328
384000000.0 -0.989689216 0.036785624
387000000.0 -0.986247424 0.04015516
390000000.0 -0.982590272 0.037378308
393000000.0 -0.983894464 0.040945604
396000000.0 -0.987664896 0.04273214
399000000.0 -0.986296256 0.039854456
402000000.0 -0.986218432 0.0424507
405000000.0 -0.979210752 0.043145736
408000000.0 -0.983571968 0.041794816
411000000.0 -0.987327232 0.043568152
414000000.0 -0.987190592 0.044743636
417000000.0 -0.983713024 0.044769208
420000000.0 -0.977940672 0.04287042
423000000.0 -0.98337856 0.046058796
426000000.0 -0.984791872 0.04656502
429000000.0 -1.003675938 0.05115196
432000000.0 -0.981788544 0.047011828
435000000.0 -0.977717568 0.048145636
438000000.0 -0.981142976 0.046560252
441000000.0 -0.986407808 0.050503652
444000000.0 -0.986101568 0.047543484
447000000.0 -0.984763904 0.050343112
450000000.0 -0.97800064 0.048762732
453000000.0 -0.984066304 0.049312704
456000000.0 -0.987319552 0.052109224
459000000.0 -0.992931776 0.052986692
462000000.0 -0.987402624 0.05060988
465000000.0 -0.981987392 0.048422412
468000000.0 -0.990890816 0.038983644
471000000.0 -0.987445056 0.052263692
474000000.0 -0.988880064 0.050522188
477000000.0 -0.98494144 0.050004304
480000000.0 -0.980912256 0.04993036
483000000.0 -0.987863104 0.050352644
486000000.0 -0.992550272 0.049859856
489000000.0 -0.987506816 0.049873844
492000000.0 -0.989199104 0.046705324
495000000.0 -0.984268992 0.048745532
498000000.0 -0.990471872 0.049092576
501000000.0 -0.993976832 0.049991664
504000000.0 -0.995061824 0.046609276
507000000.0 -0.99733504 0.047150228
510000000.0 -0.988191872 0.045949736
513000000.0 -0.995169856 0.044849316
516000000.0 -0.997427904 0.043859116
519000000.0 -0.997183488 0.044527296
522000000.0 -0.99606176 0.042613296
525000000.0 -0.990783552 0.041151092
528000000.0 -0.996328896 0.04200994
531000000.0 -1.001665831 0.04173654
534000000.0 -1.000813842 0.040576456
537000000.0 -0.999772096 0.039373552
540000000.0 -0.994049152 0.03681032
543000000.0 -1.001034021 0.038893948
546000000.0 -1.002772093 0.037902548
549000000.0 -1.004256845 0.036236452
552000000.0 -1.001692057 0.034001436
555000000.0 -0.997085568 0.031556532
558000000.0 -1.004276157 0.033053004
561000000.0 -1.005595446 0.032288618
564000000.0 -1.004589558 0.031044728
567000000.0 -1.002501726 0.028888008
570000000.0 -0.998689856 0.02629581
573000000.0 -1.004594088 0.027964214
576000000.0 -1.007974148 0.027324006
579000000.0 -1.008042217 0.022899002
582000000.0 -1.003141761 0.024072626
585000000.0 -1.005440116 0.031945654
588000000.0 -0.993302656 0.019134554
591000000.0 -0.980154688 0.014464552
594000000.0 -0.987475456 0.017227098
597000000.0 -0.990225792 0.01610431
600000000.0 -1.00615108 0.020442412
