! Created with skrf 1.8.0 (http://scikit-rf.org).
# Hz S RI R 50.0 
!freq ReS11 ImS11
50000.0 0.666360064 -0.011056636
15049500.0 0.664603008 -0.041354128
30049000.0 0.661684736 -0.066740588
45048500.0 0.658222848 -0.091103232
60048000.0 0.653652032 -0.11554436
75047500.0 0.647954432 -0.13856864
90047000.0 0.641188864 -0.160356
105046500.0 0.634149888 -0.183482384
120046000.0 0.626298816 -0.205653872
135045500.0 0.618312576 -0.227650112
150045000.0 0.60782848 -0.248358416
165044500.0 0.597362496 -0.269178112
180044000.0 0.586147392 -0.289580096
195043500.0 0.573895616 -0.310202528
210043000.0 0.560647552 -0.329628096
225042500.0 0.54726784 -0.349270272
240042000.0 0.532601408 -0.367495616
255041500.0 0.516821216 -0.385978112
270041000.0 0.500573216 -0.404446688
285040500.0 0.4835104 -0.421137984
300040000.0 0.470386496 -0.42862544
315039500.0 0.45384496 -0.44276208
330039000.0 0.436118112 -0.455666816
345038500.0 0.419869408 -0.467889824
360038000.0 0.403161312 -0.47980672
375037500.0 0.385002336 -0.490716224
390037000.0 0.369176576 -0.500821408
405036500.0 0.350822336 -0.511427168
420036000.0 0.334044768 -0.520163584
435035500.0 0.317137184 -0.527302848
450035000.0 0.303695904 -0.534710304
465034500.0 0.282888672 -0.540177792
480034000.0 0.262268432 -0.54651552
495033500.0 0.245648384 -0.5509872
510033000.0 0.226034304 -0.555708288
525032500.0 0.208755712 -0.558222144
540032000.0 0.191101264 -0.560539456
555031500.0 0.174726976 -0.56345696
570031000.0 0.15684008 -0.566251264
585030500.0 0.140653008 -0.567060992
600030000.0 0.126228664 -0.57291616
615029500.0 0.10767424 -0.574118144
630029000.0 0.090976456 -0.574877888
645028500.0 0.07667212 -0.57344288
660028000.0 0.061559408 -0.574416576
675027500.0 0.047735344 -0.573086784
690027000.0 0.03229209 -0.572705536
705026500.0 0.016264404 -0.569650432
720026000.0 0.0032566 -0.566918784
735025500.0 -0.00947491 -0.564923776
750025000.0 -0.023580106 -0.561128448
765024500.0 -0.036510992 -0.562379008
780024000.0 -0.057723752 -0.56208288
795023500.0 -0.060025568 -0.555584576
810023000.0 -0.07237176 -0.552749056
825022500.0 -0.082719696 -0.55065024
840022000.0 -0.095475552 -0.549858304
855021500.0 -0.105438552 -0.550817152
870021000.0 -0.115589688 -0.546467712
885020500.0 -0.12792888 -0.547388864
900020000.0 -0.124328416 -0.545606656
915019500.0 -0.133796752 -0.544118592
930019000.0 -0.144234704 -0.547563264
945018500.0 -0.150893872 -0.54458592
960018000.0 -0.164201744 -0.549098368
975017500.0 -0.173575808 -0.550543872
990017000.0 -0.185829328 -0.558435456
1005016500.0 -0.198623056 -0.558147776
1020016000.0 -0.219934304 -0.562993792
1035015500.0 -0.221202256 -0.567549824
1050015000.0 -0.242014528 -0.558082112
1065014500.0 -0.2562916 -0.57666048
1080014000.0 -0.264034688 -0.578588288
1095013500.0 -0.29133312 -0.581418752
1110013000.0 -0.308658944 -0.587813504
1125012500.0 -0.320337088 -0.573290304
1140012000.0 -0.3517728 -0.581909504
1155011500.0 -0.357956256 -0.600683008
1170011000.0 -0.394976864 -0.58005568
1185010500.0 -0.409406016 -0.577403328
1200010000.0 -0.43775072 -0.575633472
1215009500.0 -0.469861952 -0.5742304
1230009000.0 -0.492127456 -0.572298048
1245008500.0 -0.525920576 -0.578594816
1260008000.0 -0.557564224 -0.563512512
1275007500.0 -0.588252096 -0.549184512
1290007000.0 -0.627758208 -0.537418368
1305006500.0 -0.67883424 -0.52319424
1320006000.0 -0.685858048 -0.500117408
1335005500.0 -0.738313856 -0.487264352
1350005000.0 -0.752604544 -0.463718592
1365004500.0 -0.781406144 -0.418894176
1380004000.0 -0.821161664 -0.39328496
1395003500.0 -0.837276096 -0.366078944
1410003000.0 -0.858539136 -0.339277888
1425002500.0 -0.849362304 -0.260057392
1440002000.0 -0.892425152 -0.235445536
1455001500.0 -0.889517312 -0.185512896
1470001000.0 -0.91262528 -0.165315712
1485000500.0 -0.91664096 -0.104534312
1500000000.0 -0.890175296 -0.06612496
